  temp-sweep      abs(v(alim))    v(drain)        v(gate)         temp-sweep      v(source)       v(body)         i(vd)           temp-sweep      i(vg)           i(vs)           i(vb)
 3.00000000e+01  5.00000000e-02  3.00000000e+01  0.00000000e+00  3.00000000e+01  0.00000000e+00  3.00000000e+01  5.00000000e-02  3.00000000e+01  0.00000000e+00  3.00000000e+01  4.97499955e-09  3.00000000e+01  6.87802951e-12  3.00000000e+01 -4.98187757e-09  3.00000000e+01 -3.95761197e-19 
 1.00000000e+02  5.00000000e-02  1.00000000e+02  0.00000000e+00  1.00000000e+02  0.00000000e+00  1.00000000e+02  5.00000000e-02  1.00000000e+02  0.00000000e+00  1.00000000e+02  1.50148451e-08  1.00000000e+02  6.89414102e-12  1.00000000e+02 -1.50217410e-08  1.00000000e+02  1.77940982e-15 
 3.00000000e+01  1.00000000e-01  3.00000000e+01  0.00000000e+00  3.00000000e+01  0.00000000e+00  3.00000000e+01  1.00000000e-01  3.00000000e+01  0.00000000e+00  3.00000000e+01  2.68989676e-08  3.00000000e+01  1.77400379e-11  3.00000000e+01 -2.69167076e-08  3.00000000e+01 -8.00473047e-18 
 1.00000000e+02  1.00000000e-01  1.00000000e+02  0.00000000e+00  1.00000000e+02  0.00000000e+00  1.00000000e+02  1.00000000e-01  1.00000000e+02  0.00000000e+00  1.00000000e+02  6.20076263e-08  1.00000000e+02  1.78725241e-11  1.00000000e+02 -6.20255090e-08  1.00000000e+02  1.01969289e-14 
 3.00000000e+01  1.50000000e-01  3.00000000e+01  0.00000000e+00  3.00000000e+01  0.00000000e+00  3.00000000e+01  1.50000000e-01  3.00000000e+01  0.00000000e+00  3.00000000e+01  1.14125990e-07  3.00000000e+01  3.37538002e-11  3.00000000e+01 -1.14159744e-07  3.00000000e+01 -5.78515463e-17 
 1.00000000e+02  1.50000000e-01  1.00000000e+02  0.00000000e+00  1.00000000e+02  0.00000000e+00  1.00000000e+02  1.50000000e-01  1.00000000e+02  0.00000000e+00  1.00000000e+02  2.03373732e-07  1.00000000e+02  3.44857621e-11  1.00000000e+02 -2.03408268e-07  1.00000000e+02  5.00496980e-14 
 3.00000000e+01  2.00000000e-01  3.00000000e+01  0.00000000e+00  3.00000000e+01  0.00000000e+00  3.00000000e+01  2.00000000e-01  3.00000000e+01  0.00000000e+00  3.00000000e+01  4.03350541e-07  3.00000000e+01  5.91331607e-11  3.00000000e+01 -4.03409674e-07  3.00000000e+01 -2.41452585e-16 
 1.00000000e+02  2.00000000e-01  1.00000000e+02  0.00000000e+00  1.00000000e+02  0.00000000e+00  1.00000000e+02  2.00000000e-01  1.00000000e+02  0.00000000e+00  1.00000000e+02  5.75319235e-07  1.00000000e+02  6.17386844e-11  1.00000000e+02 -5.75381213e-07  1.00000000e+02  2.38876767e-13 
 3.00000000e+01  2.50000000e-01  3.00000000e+01  0.00000000e+00  3.00000000e+01  0.00000000e+00  3.00000000e+01  2.50000000e-01  3.00000000e+01  0.00000000e+00  3.00000000e+01  1.12350049e-06  3.00000000e+01  1.08975692e-10  3.00000000e+01 -1.12360946e-06  3.00000000e+01 -4.45008450e-16 
 1.00000000e+02  2.50000000e-01  1.00000000e+02  0.00000000e+00  1.00000000e+02  0.00000000e+00  1.00000000e+02  2.50000000e-01  1.00000000e+02  0.00000000e+00  1.00000000e+02  1.35194311e-06  1.00000000e+02  1.13161543e-10  1.00000000e+02 -1.35205740e-06  1.00000000e+02  1.13368637e-12 
 3.00000000e+01  3.00000000e-01  3.00000000e+01  0.00000000e+00  3.00000000e+01  0.00000000e+00  3.00000000e+01  3.00000000e-01  3.00000000e+01  0.00000000e+00  3.00000000e+01  2.41348712e-06  3.00000000e+01  1.99838639e-10  3.00000000e+01 -2.41368696e-06  3.00000000e+01  1.83567953e-15 
 1.00000000e+02  3.00000000e-01  1.00000000e+02  0.00000000e+00  1.00000000e+02  0.00000000e+00  1.00000000e+02  3.00000000e-01  1.00000000e+02  0.00000000e+00  1.00000000e+02  2.61229392e-06  1.00000000e+02  2.03554416e-10  1.00000000e+02 -2.61250285e-06  1.00000000e+02  5.37276810e-12 
 3.00000000e+01  3.50000000e-01  3.00000000e+01  0.00000000e+00  3.00000000e+01  0.00000000e+00  3.00000000e+01  3.50000000e-01  3.00000000e+01  0.00000000e+00  3.00000000e+01  4.20121096e-06  3.00000000e+01  3.32549331e-10  3.00000000e+01 -4.20154354e-06  3.00000000e+01  2.51697649e-14 
 1.00000000e+02  3.50000000e-01  1.00000000e+02  0.00000000e+00  1.00000000e+02  0.00000000e+00  1.00000000e+02  3.50000000e-01  1.00000000e+02  0.00000000e+00  1.00000000e+02  4.28739271e-06  1.00000000e+02  3.36911865e-10  1.00000000e+02 -4.28775507e-06  1.00000000e+02  2.54491508e-11 
 3.00000000e+01  4.00000000e-01  3.00000000e+01  0.00000000e+00  3.00000000e+01  0.00000000e+00  3.00000000e+01  4.00000000e-01  3.00000000e+01  0.00000000e+00  3.00000000e+01  6.32764592e-06  3.00000000e+01  5.08336638e-10  3.00000000e+01 -6.32815445e-06  3.00000000e+01  1.95778871e-13 
 1.00000000e+02  4.00000000e-01  1.00000000e+02  0.00000000e+00  1.00000000e+02  0.00000000e+00  1.00000000e+02  4.00000000e-01  1.00000000e+02  0.00000000e+00  1.00000000e+02  6.24742342e-06  1.00000000e+02  5.15200508e-10  1.00000000e+02 -6.24805914e-06  1.00000000e+02  1.20517687e-10 
 3.00000000e+01  4.50000000e-01  3.00000000e+01  0.00000000e+00  3.00000000e+01  0.00000000e+00  3.00000000e+01  4.50000000e-01  3.00000000e+01  0.00000000e+00  3.00000000e+01  8.66355877e-06  3.00000000e+01  7.32124152e-10  3.00000000e+01 -8.66429226e-06  3.00000000e+01  1.36920045e-12 
 1.00000000e+02  4.50000000e-01  1.00000000e+02  0.00000000e+00  1.00000000e+02  0.00000000e+00  1.00000000e+02  4.50000000e-01  1.00000000e+02  0.00000000e+00  1.00000000e+02  8.38268546e-06  1.00000000e+02  7.43026179e-10  1.00000000e+02 -8.38399916e-06  1.00000000e+02  5.70677217e-10 
 3.00000000e+01  5.00000000e-01  3.00000000e+01  0.00000000e+00  3.00000000e+01  0.00000000e+00  3.00000000e+01  5.00000000e-01  3.00000000e+01  0.00000000e+00  3.00000000e+01  1.11275617e-05  3.00000000e+01  1.01033168e-09  3.00000000e+01 -1.11285814e-05  3.00000000e+01  9.34617495e-12 
 1.00000000e+02  5.00000000e-01  1.00000000e+02  0.00000000e+00  1.00000000e+02  0.00000000e+00  1.00000000e+02  5.00000000e-01  1.00000000e+02  0.00000000e+00  1.00000000e+02  1.06221744e-05  1.00000000e+02  1.02667411e-09  1.00000000e+02 -1.06259033e-05  1.00000000e+02  2.70219491e-09 
 3.00000000e+01  5.50000000e-01  3.00000000e+01  0.00000000e+00  3.00000000e+01  0.00000000e+00  3.00000000e+01  5.50000000e-01  3.00000000e+01  0.00000000e+00  3.00000000e+01  1.36699994e-05  3.00000000e+01  1.35029285e-09  3.00000000e+01 -1.36714131e-05  3.00000000e+01  6.34584950e-11 
 1.00000000e+02  5.50000000e-01  1.00000000e+02  0.00000000e+00  1.00000000e+02  0.00000000e+00  1.00000000e+02  5.50000000e-01  1.00000000e+02  0.00000000e+00  1.00000000e+02  1.29233265e-05  1.00000000e+02  1.37349533e-09  1.00000000e+02 -1.29374949e-05  1.00000000e+02  1.27948551e-08 
 3.00000000e+01  6.00000000e-01  3.00000000e+01  0.00000000e+00  3.00000000e+01  0.00000000e+00  3.00000000e+01  6.00000000e-01  3.00000000e+01  0.00000000e+00  3.00000000e+01  1.62581772e-05  3.00000000e+01  1.76022868e-09  3.00000000e+01 -1.62603678e-05  3.00000000e+01  4.30394203e-10 
 1.00000000e+02  6.00000000e-01  1.00000000e+02  0.00000000e+00  1.00000000e+02  0.00000000e+00  1.00000000e+02  6.00000000e-01  1.00000000e+02  0.00000000e+00  1.00000000e+02  1.52592425e-05  1.00000000e+02  1.79180851e-09  1.00000000e+02 -1.53216153e-05  1.00000000e+02  6.05810699e-08 
 3.00000000e+01  6.50000000e-01  3.00000000e+01  0.00000000e+00  3.00000000e+01  0.00000000e+00  3.00000000e+01  6.50000000e-01  3.00000000e+01  0.00000000e+00  3.00000000e+01  1.88668800e-05  3.00000000e+01  2.24935725e-09  3.00000000e+01 -1.88720478e-05  3.00000000e+01  2.91841390e-09 
 1.00000000e+02  6.50000000e-01  1.00000000e+02  0.00000000e+00  1.00000000e+02  0.00000000e+00  1.00000000e+02  6.50000000e-01  1.00000000e+02  0.00000000e+00  1.00000000e+02  1.76093682e-05  1.00000000e+02  2.29099130e-09  1.00000000e+02 -1.78984484e-05  1.00000000e+02  2.86789219e-07 
 3.00000000e+01  7.00000000e-01  3.00000000e+01  0.00000000e+00  3.00000000e+01  0.00000000e+00  3.00000000e+01  7.00000000e-01  3.00000000e+01  0.00000000e+00  3.00000000e+01  2.14700656e-05  3.00000000e+01  2.82811017e-09  3.00000000e+01 -2.14926817e-05  3.00000000e+01  1.97879807e-08 
 1.00000000e+02  7.00000000e-01  1.00000000e+02  0.00000000e+00  1.00000000e+02  0.00000000e+00  1.00000000e+02  7.00000000e-01  1.00000000e+02  0.00000000e+00  1.00000000e+02  1.99511894e-05  1.00000000e+02  2.88170320e-09  1.00000000e+02 -2.13106099e-05  1.00000000e+02  1.35653881e-06 
 3.00000000e+01  7.50000000e-01  3.00000000e+01  0.00000000e+00  3.00000000e+01  0.00000000e+00  3.00000000e+01  7.50000000e-01  3.00000000e+01  0.00000000e+00  3.00000000e+01  2.40263379e-05  3.00000000e+01  3.50857713e-09  3.00000000e+01 -2.41639999e-05  3.00000000e+01  1.34153450e-07 
 1.00000000e+02  7.50000000e-01  1.00000000e+02  0.00000000e+00  1.00000000e+02  0.00000000e+00  1.00000000e+02  7.50000000e-01  1.00000000e+02  0.00000000e+00  1.00000000e+02  2.22461136e-05  1.00000000e+02  3.57636220e-09  1.00000000e+02 -2.86414508e-05  1.00000000e+02  6.39176082e-06 
 3.00000000e+01  8.00000000e-01  3.00000000e+01  0.00000000e+00  3.00000000e+01  0.00000000e+00  3.00000000e+01  8.00000000e-01  3.00000000e+01  0.00000000e+00  3.00000000e+01  2.64416871e-05  3.00000000e+01  4.30544879e-09  3.00000000e+01 -2.73547719e-05  3.00000000e+01  9.08779356e-07 
 1.00000000e+02  8.00000000e-01  1.00000000e+02  0.00000000e+00  1.00000000e+02  0.00000000e+00  1.00000000e+02  8.00000000e-01  1.00000000e+02  0.00000000e+00  1.00000000e+02  2.44047826e-05  1.00000000e+02  4.39024570e-09  1.00000000e+02 -5.39886857e-05  1.00000000e+02  2.95795129e-05 
 3.00000000e+01  8.50000000e-01  3.00000000e+01  0.00000000e+00  3.00000000e+01  0.00000000e+00  3.00000000e+01  8.50000000e-01  3.00000000e+01  0.00000000e+00  3.00000000e+01  2.85323592e-05  3.00000000e+01  5.23635245e-09  3.00000000e+01 -3.46612128e-05  3.00000000e+01  6.12361719e-06 
 1.00000000e+02  8.50000000e-01  1.00000000e+02  0.00000000e+00  1.00000000e+02  0.00000000e+00  1.00000000e+02  8.50000000e-01  1.00000000e+02  0.00000000e+00  1.00000000e+02  2.62668179e-05  1.00000000e+02  5.34309087e-09  1.00000000e+02 -1.53679155e-04  1.00000000e+02  1.27406994e-04 
 3.00000000e+01  9.00000000e-01  3.00000000e+01  0.00000000e+00  3.00000000e+01  0.00000000e+00  3.00000000e+01  9.00000000e-01  3.00000000e+01  0.00000000e+00  3.00000000e+01  3.03224986e-05  3.00000000e+01  6.31733483e-09  3.00000000e+01 -7.02065419e-05  3.00000000e+01  3.98777260e-05 
 1.00000000e+02  9.00000000e-01  1.00000000e+02  0.00000000e+00  1.00000000e+02  0.00000000e+00  1.00000000e+02  9.00000000e-01  1.00000000e+02  0.00000000e+00  1.00000000e+02  2.78933737e-05  1.00000000e+02  6.46018945e-09  1.00000000e+02 -4.71437383e-04  1.00000000e+02  4.43537549e-04 
 3.00000000e+01  9.50000000e-01  3.00000000e+01  0.00000000e+00  3.00000000e+01  0.00000000e+00  3.00000000e+01  9.50000000e-01  3.00000000e+01  0.00000000e+00  3.00000000e+01  3.20326857e-05  3.00000000e+01  7.57377432e-09  3.00000000e+01 -2.50435359e-04  3.00000000e+01  2.18395100e-04 
 1.00000000e+02  9.50000000e-01  1.00000000e+02  0.00000000e+00  1.00000000e+02  0.00000000e+00  1.00000000e+02  9.50000000e-01  1.00000000e+02  0.00000000e+00  1.00000000e+02  2.94785898e-05  1.00000000e+02  7.78102941e-09  1.00000000e+02 -1.13427623e-03  1.00000000e+02  1.10478985e-03 
 3.00000000e+01  1.00000000e+00  3.00000000e+01  0.00000000e+00  3.00000000e+01  0.00000000e+00  3.00000000e+01  1.00000000e+00  3.00000000e+01  0.00000000e+00  3.00000000e+01  3.36982759e-05  3.00000000e+01  9.05649971e-09  3.00000000e+01 -8.01339197e-04  3.00000000e+01  7.67631865e-04 
 1.00000000e+02  1.00000000e+00  1.00000000e+02  0.00000000e+00  1.00000000e+02  0.00000000e+00  1.00000000e+02  1.00000000e+00  1.00000000e+02  0.00000000e+00  1.00000000e+02  3.10301500e-05  1.00000000e+02  9.37596467e-09  1.00000000e+02 -2.09167200e-03  1.00000000e+02  2.06063248e-03 
 3.00000000e+01  1.05000000e+00  3.00000000e+01  0.00000000e+00  3.00000000e+01  0.00000000e+00  3.00000000e+01  1.05000000e+00  3.00000000e+01  0.00000000e+00  3.00000000e+01  3.53121212e-05  3.00000000e+01  1.08572544e-08  3.00000000e+01 -1.73734052e-03  3.00000000e+01  1.70201754e-03 
 1.00000000e+02  1.05000000e+00  1.00000000e+02  0.00000000e+00  1.00000000e+02  0.00000000e+00  1.00000000e+02  1.05000000e+00  1.00000000e+02  0.00000000e+00  1.00000000e+02  3.25346041e-05  1.00000000e+02  1.13618412e-08  1.00000000e+02 -3.24052142e-03  1.00000000e+02  3.20797545e-03 
 3.00000000e+01  1.10000000e+00  3.00000000e+01  0.00000000e+00  3.00000000e+01  0.00000000e+00  3.00000000e+01  1.10000000e+00  3.00000000e+01  0.00000000e+00  3.00000000e+01  3.68703368e-05  3.00000000e+01  1.31328608e-08  3.00000000e+01 -2.90320193e-03  3.00000000e+01  2.86631846e-03 
 1.00000000e+02  1.10000000e+00  1.00000000e+02  0.00000000e+00  1.00000000e+02  0.00000000e+00  1.00000000e+02  1.10000000e+00  1.00000000e+02  0.00000000e+00  1.00000000e+02  3.39875396e-05  1.00000000e+02  1.39217859e-08  1.00000000e+02 -4.50119561e-03  1.00000000e+02  4.46719415e-03 
 3.00000000e+01  1.15000000e+00  3.00000000e+01  0.00000000e+00  3.00000000e+01  0.00000000e+00  3.00000000e+01  1.15000000e+00  3.00000000e+01  0.00000000e+00  3.00000000e+01  3.83726312e-05  3.00000000e+01  1.61219989e-08  3.00000000e+01 -4.19418281e-03  3.00000000e+01  4.15579406e-03 
 1.00000000e+02  1.15000000e+00  1.00000000e+02  0.00000000e+00  1.00000000e+02  0.00000000e+00  1.00000000e+02  1.15000000e+00  1.00000000e+02  0.00000000e+00  1.00000000e+02  3.53886981e-05  1.00000000e+02  1.73188990e-08  1.00000000e+02 -5.83409686e-03  1.00000000e+02  5.79869085e-03 
 3.00000000e+01  1.20000000e+00  3.00000000e+01  0.00000000e+00  3.00000000e+01  0.00000000e+00  3.00000000e+01  1.20000000e+00  3.00000000e+01  0.00000000e+00  3.00000000e+01  3.98201390e-05  3.00000000e+01  2.01480236e-08  3.00000000e+01 -5.55853310e-03  3.00000000e+01  5.51869282e-03 
 1.00000000e+02  1.20000000e+00  1.00000000e+02  0.00000000e+00  1.00000000e+02  0.00000000e+00  1.00000000e+02  1.20000000e+00  1.00000000e+02  0.00000000e+00  1.00000000e+02  3.67392365e-05  1.00000000e+02  2.19092165e-08  1.00000000e+02 -7.21569214e-03  1.00000000e+02  7.17893099e-03 
