  temp-sweep      abs(v(alim))    v(drain)        v(gate)         temp-sweep      v(source)       v(body)         i(vd)           temp-sweep      i(vg)           i(vs)           i(vb)
 3.00000000e+01  5.00000000e-02  3.00000000e+01  0.00000000e+00  3.00000000e+01  0.00000000e+00  3.00000000e+01  5.00000000e-02  3.00000000e+01  0.00000000e+00  3.00000000e+01  1.13714275e-08  3.00000000e+01  1.57212103e-11  3.00000000e+01 -1.13871487e-08  3.00000000e+01 -9.05239875e-19 
 1.00000000e+02  5.00000000e-02  1.00000000e+02  0.00000000e+00  1.00000000e+02  0.00000000e+00  1.00000000e+02  5.00000000e-02  1.00000000e+02  0.00000000e+00  1.00000000e+02  3.43196460e-08  1.00000000e+02  1.57580366e-11  1.00000000e+02 -3.43354081e-08  1.00000000e+02  4.06722180e-15 
 3.00000000e+01  1.00000000e-01  3.00000000e+01  0.00000000e+00  3.00000000e+01  0.00000000e+00  3.00000000e+01  1.00000000e-01  3.00000000e+01  0.00000000e+00  3.00000000e+01  6.14833545e-08  3.00000000e+01  4.05486581e-11  3.00000000e+01 -6.15239032e-08  3.00000000e+01 -1.82978125e-17 
 1.00000000e+02  1.00000000e-01  1.00000000e+02  0.00000000e+00  1.00000000e+02  0.00000000e+00  1.00000000e+02  1.00000000e-01  1.00000000e+02  0.00000000e+00  1.00000000e+02  1.41731717e-07  1.00000000e+02  4.08514837e-11  1.00000000e+02 -1.41772592e-07  1.00000000e+02  2.33072648e-14 
 3.00000000e+01  1.50000000e-01  3.00000000e+01  0.00000000e+00  3.00000000e+01  0.00000000e+00  3.00000000e+01  1.50000000e-01  3.00000000e+01  0.00000000e+00  3.00000000e+01  2.60859407e-07  3.00000000e+01  7.71515433e-11  3.00000000e+01 -2.60936558e-07  3.00000000e+01 -1.32234034e-16 
 1.00000000e+02  1.50000000e-01  1.00000000e+02  0.00000000e+00  1.00000000e+02  0.00000000e+00  1.00000000e+02  1.50000000e-01  1.00000000e+02  0.00000000e+00  1.00000000e+02  4.64854244e-07  1.00000000e+02  7.88245991e-11  1.00000000e+02 -4.64933183e-07  1.00000000e+02  1.14399308e-13 
 3.00000000e+01  2.00000000e-01  3.00000000e+01  0.00000000e+00  3.00000000e+01  0.00000000e+00  3.00000000e+01  2.00000000e-01  3.00000000e+01  0.00000000e+00  3.00000000e+01  9.21944094e-07  3.00000000e+01  1.35161510e-10  3.00000000e+01 -9.22079255e-07  3.00000000e+01 -5.51894195e-16 
 1.00000000e+02  2.00000000e-01  1.00000000e+02  0.00000000e+00  1.00000000e+02  0.00000000e+00  1.00000000e+02  2.00000000e-01  1.00000000e+02  0.00000000e+00  1.00000000e+02  1.31501540e-06  1.00000000e+02  1.41116993e-10  1.00000000e+02 -1.31515706e-06  1.00000000e+02  5.46004036e-13 
 3.00000000e+01  2.50000000e-01  3.00000000e+01  0.00000000e+00  3.00000000e+01  0.00000000e+00  3.00000000e+01  2.50000000e-01  3.00000000e+01  0.00000000e+00  3.00000000e+01  2.56800112e-06  3.00000000e+01  2.49087296e-10  3.00000000e+01 -2.56825020e-06  3.00000000e+01 -1.01716538e-15 
 1.00000000e+02  2.50000000e-01  1.00000000e+02  0.00000000e+00  1.00000000e+02  0.00000000e+00  1.00000000e+02  2.50000000e-01  1.00000000e+02  0.00000000e+00  1.00000000e+02  3.09015567e-06  1.00000000e+02  2.58654956e-10  1.00000000e+02 -3.09041692e-06  1.00000000e+02  2.59128312e-12 
 3.00000000e+01  3.00000000e-01  3.00000000e+01  0.00000000e+00  3.00000000e+01  0.00000000e+00  3.00000000e+01  3.00000000e-01  3.00000000e+01  0.00000000e+00  3.00000000e+01  5.51654199e-06  3.00000000e+01  4.56774033e-10  3.00000000e+01 -5.51699877e-06  3.00000000e+01  4.19583507e-15 
 1.00000000e+02  3.00000000e-01  1.00000000e+02  0.00000000e+00  1.00000000e+02  0.00000000e+00  1.00000000e+02  3.00000000e-01  1.00000000e+02  0.00000000e+00  1.00000000e+02  5.97095753e-06  1.00000000e+02  4.65267238e-10  1.00000000e+02 -5.97143508e-06  1.00000000e+02  1.22806127e-11 
 3.00000000e+01  3.50000000e-01  3.00000000e+01  0.00000000e+00  3.00000000e+01  0.00000000e+00  3.00000000e+01  3.50000000e-01  3.00000000e+01  0.00000000e+00  3.00000000e+01  9.60276791e-06  3.00000000e+01  7.60112755e-10  3.00000000e+01 -9.60352808e-06  3.00000000e+01  5.75308866e-14 
 1.00000000e+02  3.50000000e-01  1.00000000e+02  0.00000000e+00  1.00000000e+02  0.00000000e+00  1.00000000e+02  3.50000000e-01  1.00000000e+02  0.00000000e+00  1.00000000e+02  9.79975475e-06  1.00000000e+02  7.70084263e-10  1.00000000e+02 -9.80058300e-06  1.00000000e+02  5.81694857e-11 
 3.00000000e+01  4.00000000e-01  3.00000000e+01  0.00000000e+00  3.00000000e+01  0.00000000e+00  3.00000000e+01  4.00000000e-01  3.00000000e+01  0.00000000e+00  3.00000000e+01  1.44631907e-05  3.00000000e+01  1.16191232e-09  3.00000000e+01 -1.44643530e-05  3.00000000e+01  4.47494556e-13 
 1.00000000e+02  4.00000000e-01  1.00000000e+02  0.00000000e+00  1.00000000e+02  0.00000000e+00  1.00000000e+02  4.00000000e-01  1.00000000e+02  0.00000000e+00  1.00000000e+02  1.42798249e-05  1.00000000e+02  1.17760116e-09  1.00000000e+02 -1.42812780e-05  1.00000000e+02  2.75468957e-10 
 3.00000000e+01  4.50000000e-01  3.00000000e+01  0.00000000e+00  3.00000000e+01  0.00000000e+00  3.00000000e+01  4.50000000e-01  3.00000000e+01  0.00000000e+00  3.00000000e+01  1.98024200e-05  3.00000000e+01  1.67342663e-09  3.00000000e+01 -1.98040966e-05  3.00000000e+01  3.12960102e-12 
 1.00000000e+02  4.50000000e-01  1.00000000e+02  0.00000000e+00  1.00000000e+02  0.00000000e+00  1.00000000e+02  4.50000000e-01  1.00000000e+02  0.00000000e+00  1.00000000e+02  1.91604238e-05  1.00000000e+02  1.69834555e-09  1.00000000e+02 -1.91634265e-05  1.00000000e+02  1.30440414e-09 
 3.00000000e+01  5.00000000e-01  3.00000000e+01  0.00000000e+00  3.00000000e+01  0.00000000e+00  3.00000000e+01  5.00000000e-01  3.00000000e+01  0.00000000e+00  3.00000000e+01  2.54344267e-05  3.00000000e+01  2.30932956e-09  3.00000000e+01 -2.54367574e-05  3.00000000e+01  2.13626853e-11 
 1.00000000e+02  5.00000000e-01  1.00000000e+02  0.00000000e+00  1.00000000e+02  0.00000000e+00  1.00000000e+02  5.00000000e-01  1.00000000e+02  0.00000000e+00  1.00000000e+02  2.42792552e-05  1.00000000e+02  2.34668367e-09  1.00000000e+02 -2.42877783e-05  1.00000000e+02  6.17642466e-09 
 3.00000000e+01  5.50000000e-01  3.00000000e+01  0.00000000e+00  3.00000000e+01  0.00000000e+00  3.00000000e+01  5.50000000e-01  3.00000000e+01  0.00000000e+00  3.00000000e+01  3.12457128e-05  3.00000000e+01  3.08638364e-09  3.00000000e+01 -3.12489442e-05  3.00000000e+01  1.45047974e-10 
 1.00000000e+02  5.50000000e-01  1.00000000e+02  0.00000000e+00  1.00000000e+02  0.00000000e+00  1.00000000e+02  5.50000000e-01  1.00000000e+02  0.00000000e+00  1.00000000e+02  2.95390290e-05  1.00000000e+02  3.13941790e-09  1.00000000e+02 -2.95714134e-05  1.00000000e+02  2.92449156e-08 
 3.00000000e+01  6.00000000e-01  3.00000000e+01  0.00000000e+00  3.00000000e+01  0.00000000e+00  3.00000000e+01  6.00000000e-01  3.00000000e+01  0.00000000e+00  3.00000000e+01  3.71615476e-05  3.00000000e+01  4.02337982e-09  3.00000000e+01 -3.71665548e-05  3.00000000e+01  9.83757526e-10 
 1.00000000e+02  6.00000000e-01  1.00000000e+02  0.00000000e+00  1.00000000e+02  0.00000000e+00  1.00000000e+02  6.00000000e-01  1.00000000e+02  0.00000000e+00  1.00000000e+02  3.48782528e-05  1.00000000e+02  4.09556239e-09  1.00000000e+02 -3.50208089e-05  1.00000000e+02  1.38460536e-07 
 3.00000000e+01  6.50000000e-01  3.00000000e+01  0.00000000e+00  3.00000000e+01  0.00000000e+00  3.00000000e+01  6.50000000e-01  3.00000000e+01  0.00000000e+00  3.00000000e+01  4.31242961e-05  3.00000000e+01  5.14138799e-09  3.00000000e+01 -4.31361082e-05  3.00000000e+01  6.67063039e-09 
 1.00000000e+02  6.50000000e-01  1.00000000e+02  0.00000000e+00  1.00000000e+02  0.00000000e+00  1.00000000e+02  6.50000000e-01  1.00000000e+02  0.00000000e+00  1.00000000e+02  4.02499049e-05  1.00000000e+02  5.23655207e-09  1.00000000e+02 -4.09104248e-05  1.00000000e+02  6.55283394e-07 
 3.00000000e+01  7.00000000e-01  3.00000000e+01  0.00000000e+00  3.00000000e+01  0.00000000e+00  3.00000000e+01  7.00000000e-01  3.00000000e+01  0.00000000e+00  3.00000000e+01  4.90744286e-05  3.00000000e+01  6.46425181e-09  3.00000000e+01 -4.91261212e-05  3.00000000e+01  4.52282936e-08 
 1.00000000e+02  7.00000000e-01  1.00000000e+02  0.00000000e+00  1.00000000e+02  0.00000000e+00  1.00000000e+02  7.00000000e-01  1.00000000e+02  0.00000000e+00  1.00000000e+02  4.56023320e-05  1.00000000e+02  6.58675307e-09  1.00000000e+02 -4.87043323e-05  1.00000000e+02  3.09541359e-06 
 3.00000000e+01  7.50000000e-01  3.00000000e+01  0.00000000e+00  3.00000000e+01  0.00000000e+00  3.00000000e+01  7.50000000e-01  3.00000000e+01  0.00000000e+00  3.00000000e+01  5.49172989e-05  3.00000000e+01  8.01960481e-09  3.00000000e+01 -5.52318917e-05  3.00000000e+01  3.06573216e-07 
 1.00000000e+02  7.50000000e-01  1.00000000e+02  0.00000000e+00  1.00000000e+02  0.00000000e+00  1.00000000e+02  7.50000000e-01  1.00000000e+02  0.00000000e+00  1.00000000e+02  5.08466121e-05  1.00000000e+02  8.17455679e-09  1.00000000e+02 -6.53488143e-05  1.00000000e+02  1.44940276e-05 
 3.00000000e+01  8.00000000e-01  3.00000000e+01  0.00000000e+00  3.00000000e+01  0.00000000e+00  3.00000000e+01  8.00000000e-01  3.00000000e+01  0.00000000e+00  3.00000000e+01  6.04379406e-05  3.00000000e+01  9.84102329e-09  3.00000000e+01 -6.25220973e-05  3.00000000e+01  2.07431571e-06 
 1.00000000e+02  8.00000000e-01  1.00000000e+02  0.00000000e+00  1.00000000e+02  0.00000000e+00  1.00000000e+02  8.00000000e-01  1.00000000e+02  0.00000000e+00  1.00000000e+02  5.57782133e-05  1.00000000e+02  1.00348390e-08  1.00000000e+02 -1.21115798e-04  1.00000000e+02  6.53275497e-05 
 3.00000000e+01  8.50000000e-01  3.00000000e+01  0.00000000e+00  3.00000000e+01  0.00000000e+00  3.00000000e+01  8.50000000e-01  3.00000000e+01  0.00000000e+00  3.00000000e+01  6.52168445e-05  3.00000000e+01  1.19687736e-08  3.00000000e+01 -7.90965824e-05  3.00000000e+01  1.38677691e-05 
 1.00000000e+02  8.50000000e-01  1.00000000e+02  0.00000000e+00  1.00000000e+02  0.00000000e+00  1.00000000e+02  8.50000000e-01  1.00000000e+02  0.00000000e+00  1.00000000e+02  6.00440605e-05  1.00000000e+02  1.22127787e-08  1.00000000e+02 -3.16855478e-04  1.00000000e+02  2.56799205e-04 
 3.00000000e+01  9.00000000e-01  3.00000000e+01  0.00000000e+00  3.00000000e+01  0.00000000e+00  3.00000000e+01  9.00000000e-01  3.00000000e+01  0.00000000e+00  3.00000000e+01  6.93107781e-05  3.00000000e+01  1.44395014e-08  3.00000000e+01 -1.55557417e-04  3.00000000e+01  8.62321997e-05 
 1.00000000e+02  9.00000000e-01  1.00000000e+02  0.00000000e+00  1.00000000e+02  0.00000000e+00  1.00000000e+02  9.00000000e-01  1.00000000e+02  0.00000000e+00  1.00000000e+02  6.37778151e-05  1.00000000e+02  1.47659475e-08  1.00000000e+02 -8.15484641e-04  1.00000000e+02  7.51692060e-04 
 3.00000000e+01  9.50000000e-01  3.00000000e+01  0.00000000e+00  3.00000000e+01  0.00000000e+00  3.00000000e+01  9.50000000e-01  3.00000000e+01  0.00000000e+00  3.00000000e+01  7.32235372e-05  3.00000000e+01  1.73112598e-08  3.00000000e+01 -4.74397161e-04  3.00000000e+01  4.01156313e-04 
 1.00000000e+02  9.50000000e-01  1.00000000e+02  0.00000000e+00  1.00000000e+02  0.00000000e+00  1.00000000e+02  9.50000000e-01  1.00000000e+02  0.00000000e+00  1.00000000e+02  6.74015035e-05  1.00000000e+02  1.77856493e-08  1.00000000e+02 -1.65120630e-03  1.00000000e+02  1.58378701e-03 
 3.00000000e+01  1.00000000e+00  3.00000000e+01  0.00000000e+00  3.00000000e+01  0.00000000e+00  3.00000000e+01  1.00000000e+00  3.00000000e+01  0.00000000e+00  3.00000000e+01  7.70329740e-05  3.00000000e+01  2.07004397e-08  3.00000000e+01 -1.21018966e-03  3.00000000e+01  1.13313598e-03 
 1.00000000e+02  1.00000000e+00  1.00000000e+02  0.00000000e+00  1.00000000e+02  0.00000000e+00  1.00000000e+02  1.00000000e+00  1.00000000e+02  0.00000000e+00  1.00000000e+02  7.09442330e-05  1.00000000e+02  2.14312970e-08  1.00000000e+02 -2.72471435e-03  1.00000000e+02  2.65374868e-03 
 3.00000000e+01  1.05000000e+00  3.00000000e+01  0.00000000e+00  3.00000000e+01  0.00000000e+00  3.00000000e+01  1.05000000e+00  3.00000000e+01  0.00000000e+00  3.00000000e+01  8.07218479e-05  3.00000000e+01  2.48168260e-08  3.00000000e+01 -2.26519983e-03  3.00000000e+01  2.18445317e-03 
 1.00000000e+02  1.05000000e+00  1.00000000e+02  0.00000000e+00  1.00000000e+02  0.00000000e+00  1.00000000e+02  1.05000000e+00  1.00000000e+02  0.00000000e+00  1.00000000e+02  7.43794563e-05  1.00000000e+02  2.59714858e-08  1.00000000e+02 -3.94077554e-03  1.00000000e+02  3.86637011e-03 
 3.00000000e+01  1.10000000e+00  3.00000000e+01  0.00000000e+00  3.00000000e+01  0.00000000e+00  3.00000000e+01  1.10000000e+00  3.00000000e+01  0.00000000e+00  3.00000000e+01  8.42827901e-05  3.00000000e+01  3.00188521e-08  3.00000000e+01 -3.49605595e-03  3.00000000e+01  3.41174314e-03 
 1.00000000e+02  1.10000000e+00  1.00000000e+02  0.00000000e+00  1.00000000e+02  0.00000000e+00  1.00000000e+02  1.10000000e+00  1.00000000e+02  0.00000000e+00  1.00000000e+02  7.76978559e-05  1.00000000e+02  3.18238200e-08  1.00000000e+02 -5.24539373e-03  1.00000000e+02  5.16766405e-03 
 3.00000000e+01  1.15000000e+00  3.00000000e+01  0.00000000e+00  3.00000000e+01  0.00000000e+00  3.00000000e+01  1.15000000e+00  3.00000000e+01  0.00000000e+00  3.00000000e+01  8.77158177e-05  3.00000000e+01  3.68520863e-08  3.00000000e+01 -4.82510258e-03  3.00000000e+01  4.73734991e-03 
 1.00000000e+02  1.15000000e+00  1.00000000e+02  0.00000000e+00  1.00000000e+02  0.00000000e+00  1.00000000e+02  1.15000000e+00  1.00000000e+02  0.00000000e+00  1.00000000e+02  8.08985977e-05  1.00000000e+02  3.95899930e-08  1.00000000e+02 -6.60811154e-03  1.00000000e+02  6.52717335e-03 
 3.00000000e+01  1.20000000e+00  3.00000000e+01  0.00000000e+00  3.00000000e+01  0.00000000e+00  3.00000000e+01  1.20000000e+00  3.00000000e+01  0.00000000e+00  3.00000000e+01  9.10236942e-05  3.00000000e+01  4.60556702e-08  3.00000000e+01 -6.21395535e-03  3.00000000e+01  6.12288560e-03 
 1.00000000e+02  1.20000000e+00  1.00000000e+02  0.00000000e+00  1.00000000e+02  0.00000000e+00  1.00000000e+02  1.20000000e+00  1.00000000e+02  0.00000000e+00  1.00000000e+02  8.39841174e-05  1.00000000e+02  5.00838680e-08  1.00000000e+02 -8.01114355e-03  1.00000000e+02  7.92710935e-03 
