Title: *pmos on - w2
Date: Tue Feb 15 20:31:41  2022
Plotname: DC transfer characteristic
Flags: real
No. Variables: 10
No. Points: 2
Variables:
	0	temp-sweep	temp-sweep
	1	abs(v(alim))	voltage
	2	v(drain)	voltage
	3	v(gate)	voltage
	4	v(source)	voltage
	5	v(body)	voltage
	6	i(i(vd))	current
	7	i(i(vg))	current
	8	i(i(vs))	current
	9	i(i(vb))	current
Values:
 0	3.000000000000000e+01
	5.000000000000000e-02
	0.000000000000000e+00
	0.000000000000000e+00
	5.000000000000000e-02
	0.000000000000000e+00
	1.137142753164764e-08
	1.572121030123850e-11
	-1.138714874104364e-08
	-9.052398746982788e-19

 1	1.000000000000000e+02
	5.000000000000000e-02
	0.000000000000000e+00
	0.000000000000000e+00
	5.000000000000000e-02
	0.000000000000000e+00
	3.431964595027914e-08
	1.575803662246383e-11
	-3.433540805412339e-08
	4.067221797807087e-15

Title: *pmos on - w2
Date: Tue Feb 15 20:31:41  2022
Plotname: DC transfer characteristic
Flags: real
No. Variables: 10
No. Points: 2
Variables:
	0	temp-sweep	temp-sweep
	1	abs(v(alim))	voltage
	2	v(drain)	voltage
	3	v(gate)	voltage
	4	v(source)	voltage
	5	v(body)	voltage
	6	i(i(vd))	current
	7	i(i(vg))	current
	8	i(i(vs))	current
	9	i(i(vb))	current
Values:
 0	3.000000000000000e+01
	1.000000000000000e-01
	0.000000000000000e+00
	0.000000000000000e+00
	1.000000000000000e-01
	0.000000000000000e+00
	6.148335452180261e-08
	4.054865806431466e-11
	-6.152390316156912e-08
	-1.829781248203785e-17

 1	1.000000000000000e+02
	1.000000000000000e-01
	0.000000000000000e+00
	0.000000000000000e+00
	1.000000000000000e-01
	0.000000000000000e+00
	1.417317172458617e-07
	4.085148371904491e-11
	-1.417725920368457e-07
	2.330726481157698e-14

Title: *pmos on - w2
Date: Tue Feb 15 20:31:41  2022
Plotname: DC transfer characteristic
Flags: real
No. Variables: 10
No. Points: 2
Variables:
	0	temp-sweep	temp-sweep
	1	abs(v(alim))	voltage
	2	v(drain)	voltage
	3	v(gate)	voltage
	4	v(source)	voltage
	5	v(body)	voltage
	6	i(i(vd))	current
	7	i(i(vg))	current
	8	i(i(vs))	current
	9	i(i(vb))	current
Values:
 0	3.000000000000000e+01
	1.500000000000000e-01
	0.000000000000000e+00
	0.000000000000000e+00
	1.500000000000000e-01
	0.000000000000000e+00
	2.608594065999182e-07
	7.715154328238772e-11
	-2.609365580109667e-07
	-1.322340342676834e-16

 1	1.000000000000000e+02
	1.500000000000000e-01
	0.000000000000000e+00
	0.000000000000000e+00
	1.500000000000000e-01
	0.000000000000000e+00
	4.648542443193332e-07
	7.882459911314063e-11
	-4.649331833177542e-07
	1.143993078754224e-13

Title: *pmos on - w2
Date: Tue Feb 15 20:31:41  2022
Plotname: DC transfer characteristic
Flags: real
No. Variables: 10
No. Points: 2
Variables:
	0	temp-sweep	temp-sweep
	1	abs(v(alim))	voltage
	2	v(drain)	voltage
	3	v(gate)	voltage
	4	v(source)	voltage
	5	v(body)	voltage
	6	i(i(vd))	current
	7	i(i(vg))	current
	8	i(i(vs))	current
	9	i(i(vb))	current
Values:
 0	3.000000000000000e+01
	2.000000000000000e-01
	0.000000000000000e+00
	0.000000000000000e+00
	2.000000000000000e-01
	0.000000000000000e+00
	9.219440941811454e-07
	1.351615101606599e-10
	-9.220792551394124e-07
	-5.518941952020635e-16

 1	1.000000000000000e+02
	2.000000000000000e-01
	0.000000000000000e+00
	0.000000000000000e+00
	2.000000000000000e-01
	0.000000000000000e+00
	1.315015395151462e-06
	1.411169928180135e-10
	-1.315157058148316e-06
	5.460040360437974e-13

Title: *pmos on - w2
Date: Tue Feb 15 20:31:41  2022
Plotname: DC transfer characteristic
Flags: real
No. Variables: 10
No. Points: 2
Variables:
	0	temp-sweep	temp-sweep
	1	abs(v(alim))	voltage
	2	v(drain)	voltage
	3	v(gate)	voltage
	4	v(source)	voltage
	5	v(body)	voltage
	6	i(i(vd))	current
	7	i(i(vg))	current
	8	i(i(vs))	current
	9	i(i(vb))	current
Values:
 0	3.000000000000000e+01
	2.500000000000000e-01
	0.000000000000000e+00
	0.000000000000000e+00
	2.500000000000000e-01
	0.000000000000000e+00
	2.568001116279282e-06
	2.490872957115345e-10
	-2.568250202557831e-06
	-1.017165383947537e-15

 1	1.000000000000000e+02
	2.500000000000000e-01
	0.000000000000000e+00
	0.000000000000000e+00
	2.500000000000000e-01
	0.000000000000000e+00
	3.090155673324780e-06
	2.586549562827531e-10
	-3.090416919564185e-06
	2.591283120680243e-12

Title: *pmos on - w2
Date: Tue Feb 15 20:31:41  2022
Plotname: DC transfer characteristic
Flags: real
No. Variables: 10
No. Points: 2
Variables:
	0	temp-sweep	temp-sweep
	1	abs(v(alim))	voltage
	2	v(drain)	voltage
	3	v(gate)	voltage
	4	v(source)	voltage
	5	v(body)	voltage
	6	i(i(vd))	current
	7	i(i(vg))	current
	8	i(i(vs))	current
	9	i(i(vb))	current
Values:
 0	3.000000000000000e+01
	3.000000000000000e-01
	0.000000000000000e+00
	0.000000000000000e+00
	3.000000000000000e-01
	0.000000000000000e+00
	5.516541994356827e-06
	4.567740328989650e-10
	-5.516998772585567e-06
	4.195835072074700e-15

 1	1.000000000000000e+02
	3.000000000000000e-01
	0.000000000000000e+00
	0.000000000000000e+00
	3.000000000000000e-01
	0.000000000000000e+00
	5.970957528941780e-06
	4.652672375001198e-10
	-5.971435076791987e-06
	1.228061271126027e-11

Title: *pmos on - w2
Date: Tue Feb 15 20:31:41  2022
Plotname: DC transfer characteristic
Flags: real
No. Variables: 10
No. Points: 2
Variables:
	0	temp-sweep	temp-sweep
	1	abs(v(alim))	voltage
	2	v(drain)	voltage
	3	v(gate)	voltage
	4	v(source)	voltage
	5	v(body)	voltage
	6	i(i(vd))	current
	7	i(i(vg))	current
	8	i(i(vs))	current
	9	i(i(vb))	current
Values:
 0	3.000000000000000e+01
	3.500000000000000e-01
	0.000000000000000e+00
	0.000000000000000e+00
	3.500000000000000e-01
	0.000000000000000e+00
	9.602767910272031e-06
	7.601127551444079e-10
	-9.603528080558067e-06
	5.753088661690685e-14

 1	1.000000000000000e+02
	3.500000000000000e-01
	0.000000000000000e+00
	0.000000000000000e+00
	3.500000000000000e-01
	0.000000000000000e+00
	9.799754748997289e-06
	7.700842628053616e-10
	-9.800583002745802e-06
	5.816948570643273e-11

Title: *pmos on - w2
Date: Tue Feb 15 20:31:41  2022
Plotname: DC transfer characteristic
Flags: real
No. Variables: 10
No. Points: 2
Variables:
	0	temp-sweep	temp-sweep
	1	abs(v(alim))	voltage
	2	v(drain)	voltage
	3	v(gate)	voltage
	4	v(source)	voltage
	5	v(body)	voltage
	6	i(i(vd))	current
	7	i(i(vg))	current
	8	i(i(vs))	current
	9	i(i(vb))	current
Values:
 0	3.000000000000000e+01
	4.000000000000000e-01
	0.000000000000000e+00
	0.000000000000000e+00
	4.000000000000000e-01
	0.000000000000000e+00
	1.446319066521819e-05
	1.161912315124753e-09
	-1.446435302502788e-05
	4.474945560497824e-13

 1	1.000000000000000e+02
	4.000000000000000e-01
	0.000000000000000e+00
	0.000000000000000e+00
	4.000000000000000e-01
	0.000000000000000e+00
	1.427982493518780e-05
	1.177601161196854e-09
	-1.428127800530573e-05
	2.754689567213347e-10

Title: *pmos on - w2
Date: Tue Feb 15 20:31:41  2022
Plotname: DC transfer characteristic
Flags: real
No. Variables: 10
No. Points: 2
Variables:
	0	temp-sweep	temp-sweep
	1	abs(v(alim))	voltage
	2	v(drain)	voltage
	3	v(gate)	voltage
	4	v(source)	voltage
	5	v(body)	voltage
	6	i(i(vd))	current
	7	i(i(vg))	current
	8	i(i(vs))	current
	9	i(i(vb))	current
Values:
 0	3.000000000000000e+01
	4.500000000000000e-01
	0.000000000000000e+00
	0.000000000000000e+00
	4.500000000000000e-01
	0.000000000000000e+00
	1.980242003218639e-05
	1.673426631326205e-09
	-1.980409658841873e-05
	3.129601019111574e-12

 1	1.000000000000000e+02
	4.500000000000000e-01
	0.000000000000000e+00
	0.000000000000000e+00
	4.500000000000000e-01
	0.000000000000000e+00
	1.916042379260323e-05
	1.698345549935104e-09
	-1.916342654228962e-05
	1.304404136455646e-09

Title: *pmos on - w2
Date: Tue Feb 15 20:31:41  2022
Plotname: DC transfer characteristic
Flags: real
No. Variables: 10
No. Points: 2
Variables:
	0	temp-sweep	temp-sweep
	1	abs(v(alim))	voltage
	2	v(drain)	voltage
	3	v(gate)	voltage
	4	v(source)	voltage
	5	v(body)	voltage
	6	i(i(vd))	current
	7	i(i(vg))	current
	8	i(i(vs))	current
	9	i(i(vb))	current
Values:
 0	3.000000000000000e+01
	4.999999999999999e-01
	0.000000000000000e+00
	0.000000000000000e+00
	4.999999999999999e-01
	0.000000000000000e+00
	2.543442672860287e-05
	2.309329562841706e-09
	-2.543675742085100e-05
	2.136268528577873e-11

 1	1.000000000000000e+02
	4.999999999999999e-01
	0.000000000000000e+00
	0.000000000000000e+00
	4.999999999999999e-01
	0.000000000000000e+00
	2.427925521687997e-05
	2.346683668390498e-09
	-2.428777832521220e-05
	6.176424663837126e-09

Title: *pmos on - w2
Date: Tue Feb 15 20:31:41  2022
Plotname: DC transfer characteristic
Flags: real
No. Variables: 10
No. Points: 2
Variables:
	0	temp-sweep	temp-sweep
	1	abs(v(alim))	voltage
	2	v(drain)	voltage
	3	v(gate)	voltage
	4	v(source)	voltage
	5	v(body)	voltage
	6	i(i(vd))	current
	7	i(i(vg))	current
	8	i(i(vs))	current
	9	i(i(vb))	current
Values:
 0	3.000000000000000e+01
	5.499999999999999e-01
	0.000000000000000e+00
	0.000000000000000e+00
	5.499999999999999e-01
	0.000000000000000e+00
	3.124571279633672e-05
	3.086383644545937e-09
	-3.124894422795563e-05
	1.450479743661403e-10

 1	1.000000000000000e+02
	5.499999999999999e-01
	0.000000000000000e+00
	0.000000000000000e+00
	5.499999999999999e-01
	0.000000000000000e+00
	2.953902904721523e-05
	3.139417900240866e-09
	-2.957141338073474e-05
	2.924491561926161e-08

Title: *pmos on - w2
Date: Tue Feb 15 20:31:41  2022
Plotname: DC transfer characteristic
Flags: real
No. Variables: 10
No. Points: 2
Variables:
	0	temp-sweep	temp-sweep
	1	abs(v(alim))	voltage
	2	v(drain)	voltage
	3	v(gate)	voltage
	4	v(source)	voltage
	5	v(body)	voltage
	6	i(i(vd))	current
	7	i(i(vg))	current
	8	i(i(vs))	current
	9	i(i(vb))	current
Values:
 0	3.000000000000000e+01
	6.000000000000000e-01
	0.000000000000000e+00
	0.000000000000000e+00
	6.000000000000000e-01
	0.000000000000000e+00
	3.716154762242303e-05
	4.023379822664358e-09
	-3.716655475977173e-05
	9.837575260476046e-10

 1	1.000000000000000e+02
	6.000000000000000e-01
	0.000000000000000e+00
	0.000000000000000e+00
	6.000000000000000e-01
	0.000000000000000e+00
	3.487825284103275e-05
	4.095562387445050e-09
	-3.502080893912700e-05
	1.384605357068096e-07

Title: *pmos on - w2
Date: Tue Feb 15 20:31:41  2022
Plotname: DC transfer characteristic
Flags: real
No. Variables: 10
No. Points: 2
Variables:
	0	temp-sweep	temp-sweep
	1	abs(v(alim))	voltage
	2	v(drain)	voltage
	3	v(gate)	voltage
	4	v(source)	voltage
	5	v(body)	voltage
	6	i(i(vd))	current
	7	i(i(vg))	current
	8	i(i(vs))	current
	9	i(i(vb))	current
Values:
 0	3.000000000000000e+01
	6.500000000000000e-01
	0.000000000000000e+00
	0.000000000000000e+00
	6.500000000000000e-01
	0.000000000000000e+00
	4.312429614190583e-05
	5.141387987264571e-09
	-4.313610816028115e-05
	6.670630388065106e-09

 1	1.000000000000000e+02
	6.500000000000000e-01
	0.000000000000000e+00
	0.000000000000000e+00
	6.500000000000000e-01
	0.000000000000000e+00
	4.024990486264244e-05
	5.236552072718395e-09
	-4.091042480844272e-05
	6.552833937275601e-07

Title: *pmos on - w2
Date: Tue Feb 15 20:31:41  2022
Plotname: DC transfer characteristic
Flags: real
No. Variables: 10
No. Points: 2
Variables:
	0	temp-sweep	temp-sweep
	1	abs(v(alim))	voltage
	2	v(drain)	voltage
	3	v(gate)	voltage
	4	v(source)	voltage
	5	v(body)	voltage
	6	i(i(vd))	current
	7	i(i(vg))	current
	8	i(i(vs))	current
	9	i(i(vb))	current
Values:
 0	3.000000000000000e+01
	7.000000000000001e-01
	0.000000000000000e+00
	0.000000000000000e+00
	7.000000000000001e-01
	0.000000000000000e+00
	4.907442861183060e-05
	6.464251808955766e-09
	-4.912612115723945e-05
	4.522829359988811e-08

 1	1.000000000000000e+02
	7.000000000000001e-01
	0.000000000000000e+00
	0.000000000000000e+00
	7.000000000000001e-01
	0.000000000000000e+00
	4.560233200443107e-05
	6.586753073006126e-09
	-4.870433234382732e-05
	3.095413586323253e-06

Title: *pmos on - w2
Date: Tue Feb 15 20:31:41  2022
Plotname: DC transfer characteristic
Flags: real
No. Variables: 10
No. Points: 2
Variables:
	0	temp-sweep	temp-sweep
	1	abs(v(alim))	voltage
	2	v(drain)	voltage
	3	v(gate)	voltage
	4	v(source)	voltage
	5	v(body)	voltage
	6	i(i(vd))	current
	7	i(i(vg))	current
	8	i(i(vs))	current
	9	i(i(vb))	current
Values:
 0	3.000000000000000e+01
	7.500000000000001e-01
	0.000000000000000e+00
	0.000000000000000e+00
	7.500000000000001e-01
	0.000000000000000e+00
	5.491729888795493e-05
	8.019604813492164e-09
	-5.523189170882289e-05
	3.065732160544557e-07

 1	1.000000000000000e+02
	7.500000000000001e-01
	0.000000000000000e+00
	0.000000000000000e+00
	7.500000000000001e-01
	0.000000000000000e+00
	5.084661211729555e-05
	8.174556793379776e-09
	-6.534881427384319e-05
	1.449402759975429e-05

Title: *pmos on - w2
Date: Tue Feb 15 20:31:41  2022
Plotname: DC transfer characteristic
Flags: real
No. Variables: 10
No. Points: 2
Variables:
	0	temp-sweep	temp-sweep
	1	abs(v(alim))	voltage
	2	v(drain)	voltage
	3	v(gate)	voltage
	4	v(source)	voltage
	5	v(body)	voltage
	6	i(i(vd))	current
	7	i(i(vg))	current
	8	i(i(vs))	current
	9	i(i(vb))	current
Values:
 0	3.000000000000000e+01
	8.000000000000002e-01
	0.000000000000000e+00
	0.000000000000000e+00
	8.000000000000002e-01
	0.000000000000000e+00
	6.043794055379652e-05
	9.841023294269916e-09
	-6.252209728464145e-05
	2.074315707550655e-06

 1	1.000000000000000e+02
	8.000000000000002e-01
	0.000000000000000e+00
	0.000000000000000e+00
	8.000000000000002e-01
	0.000000000000000e+00
	5.577821326328879e-05
	1.003483902866849e-08
	-1.211157978495284e-04
	6.532754974721110e-05

Title: *pmos on - w2
Date: Tue Feb 15 20:31:41  2022
Plotname: DC transfer characteristic
Flags: real
No. Variables: 10
No. Points: 2
Variables:
	0	temp-sweep	temp-sweep
	1	abs(v(alim))	voltage
	2	v(drain)	voltage
	3	v(gate)	voltage
	4	v(source)	voltage
	5	v(body)	voltage
	6	i(i(vd))	current
	7	i(i(vg))	current
	8	i(i(vs))	current
	9	i(i(vb))	current
Values:
 0	3.000000000000000e+01
	8.500000000000002e-01
	0.000000000000000e+00
	0.000000000000000e+00
	8.500000000000002e-01
	0.000000000000000e+00
	6.521684453421155e-05
	1.196877358782750e-08
	-7.909658241113037e-05
	1.386776910333098e-05

 1	1.000000000000000e+02
	8.500000000000002e-01
	0.000000000000000e+00
	0.000000000000000e+00
	8.500000000000002e-01
	0.000000000000000e+00
	6.004406052920976e-05
	1.221277872750758e-08
	-3.168554781259644e-04
	2.567992048180276e-04

Title: *pmos on - w2
Date: Tue Feb 15 20:31:41  2022
Plotname: DC transfer characteristic
Flags: real
No. Variables: 10
No. Points: 2
Variables:
	0	temp-sweep	temp-sweep
	1	abs(v(alim))	voltage
	2	v(drain)	voltage
	3	v(gate)	voltage
	4	v(source)	voltage
	5	v(body)	voltage
	6	i(i(vd))	current
	7	i(i(vg))	current
	8	i(i(vs))	current
	9	i(i(vb))	current
Values:
 0	3.000000000000000e+01
	9.000000000000002e-01
	0.000000000000000e+00
	0.000000000000000e+00
	9.000000000000002e-01
	0.000000000000000e+00
	6.931077807245243e-05
	1.443950144953329e-08
	-1.555574172503766e-04
	8.623219967647415e-05

 1	1.000000000000000e+02
	9.000000000000002e-01
	0.000000000000000e+00
	0.000000000000000e+00
	9.000000000000002e-01
	0.000000000000000e+00
	6.377781509928644e-05
	1.476594751019348e-08
	-8.154846406821704e-04
	7.516920596353749e-04

Title: *pmos on - w2
Date: Tue Feb 15 20:31:41  2022
Plotname: DC transfer characteristic
Flags: real
No. Variables: 10
No. Points: 2
Variables:
	0	temp-sweep	temp-sweep
	1	abs(v(alim))	voltage
	2	v(drain)	voltage
	3	v(gate)	voltage
	4	v(source)	voltage
	5	v(body)	voltage
	6	i(i(vd))	current
	7	i(i(vg))	current
	8	i(i(vs))	current
	9	i(i(vb))	current
Values:
 0	3.000000000000000e+01
	9.500000000000003e-01
	0.000000000000000e+00
	0.000000000000000e+00
	9.500000000000003e-01
	0.000000000000000e+00
	7.322353722788157e-05
	1.731125976422278e-08
	-4.743971610976162e-04
	4.011563126099713e-04

 1	1.000000000000000e+02
	9.500000000000003e-01
	0.000000000000000e+00
	0.000000000000000e+00
	9.500000000000003e-01
	0.000000000000000e+00
	6.740150349781069e-05
	1.778564932845581e-08
	-1.651206295466273e-03
	1.583787006319134e-03

Title: *pmos on - w2
Date: Tue Feb 15 20:31:41  2022
Plotname: DC transfer characteristic
Flags: real
No. Variables: 10
No. Points: 2
Variables:
	0	temp-sweep	temp-sweep
	1	abs(v(alim))	voltage
	2	v(drain)	voltage
	3	v(gate)	voltage
	4	v(source)	voltage
	5	v(body)	voltage
	6	i(i(vd))	current
	7	i(i(vg))	current
	8	i(i(vs))	current
	9	i(i(vb))	current
Values:
 0	3.000000000000000e+01
	1.000000000000000e+00
	0.000000000000000e+00
	0.000000000000000e+00
	1.000000000000000e+00
	0.000000000000000e+00
	7.703297402989990e-05
	2.070043973686306e-08
	-1.210189659224280e-03
	1.133135984754636e-03

 1	1.000000000000000e+02
	1.000000000000000e+00
	0.000000000000000e+00
	0.000000000000000e+00
	1.000000000000000e+00
	0.000000000000000e+00
	7.094423297902162e-05
	2.143129698930621e-08
	-2.724714349058817e-03
	2.653748684782813e-03

Title: *pmos on - w2
Date: Tue Feb 15 20:31:41  2022
Plotname: DC transfer characteristic
Flags: real
No. Variables: 10
No. Points: 2
Variables:
	0	temp-sweep	temp-sweep
	1	abs(v(alim))	voltage
	2	v(drain)	voltage
	3	v(gate)	voltage
	4	v(source)	voltage
	5	v(body)	voltage
	6	i(i(vd))	current
	7	i(i(vg))	current
	8	i(i(vs))	current
	9	i(i(vb))	current
Values:
 0	3.000000000000000e+01
	1.050000000000000e+00
	0.000000000000000e+00
	0.000000000000000e+00
	1.050000000000000e+00
	0.000000000000000e+00
	8.072184789401223e-05
	2.481682599792232e-08
	-2.265199831296166e-03
	2.184453166576164e-03

 1	1.000000000000000e+02
	1.050000000000000e+00
	0.000000000000000e+00
	0.000000000000000e+00
	1.050000000000000e+00
	0.000000000000000e+00
	7.437945634357972e-05
	2.597148580186804e-08
	-3.940775542814319e-03
	3.866370114984917e-03

Title: *pmos on - w2
Date: Tue Feb 15 20:31:41  2022
Plotname: DC transfer characteristic
Flags: real
No. Variables: 10
No. Points: 2
Variables:
	0	temp-sweep	temp-sweep
	1	abs(v(alim))	voltage
	2	v(drain)	voltage
	3	v(gate)	voltage
	4	v(source)	voltage
	5	v(body)	voltage
	6	i(i(vd))	current
	7	i(i(vg))	current
	8	i(i(vs))	current
	9	i(i(vb))	current
Values:
 0	3.000000000000000e+01
	1.100000000000000e+00
	0.000000000000000e+00
	0.000000000000000e+00
	1.100000000000000e+00
	0.000000000000000e+00
	8.428279005535200e-05
	3.001885210222212e-08
	-3.496055951098697e-03
	3.411743142191234e-03

 1	1.000000000000000e+02
	1.100000000000000e+00
	0.000000000000000e+00
	0.000000000000000e+00
	1.100000000000000e+00
	0.000000000000000e+00
	7.769785588455883e-05
	3.182381997894364e-08
	-5.245393734260205e-03
	5.167664054555697e-03

Title: *pmos on - w2
Date: Tue Feb 15 20:31:41  2022
Plotname: DC transfer characteristic
Flags: real
No. Variables: 10
No. Points: 2
Variables:
	0	temp-sweep	temp-sweep
	1	abs(v(alim))	voltage
	2	v(drain)	voltage
	3	v(gate)	voltage
	4	v(source)	voltage
	5	v(body)	voltage
	6	i(i(vd))	current
	7	i(i(vg))	current
	8	i(i(vs))	current
	9	i(i(vb))	current
Values:
 0	3.000000000000000e+01
	1.150000000000000e+00
	0.000000000000000e+00
	0.000000000000000e+00
	1.150000000000000e+00
	0.000000000000000e+00
	8.771581770300724e-05
	3.685208628879289e-08
	-4.825102579237903e-03
	4.737349909448620e-03

 1	1.000000000000000e+02
	1.150000000000000e+00
	0.000000000000000e+00
	0.000000000000000e+00
	1.150000000000000e+00
	0.000000000000000e+00
	8.089859769172247e-05
	3.958999301404706e-08
	-6.608111540468497e-03
	6.527173352783778e-03

Title: *pmos on - w2
Date: Tue Feb 15 20:31:41  2022
Plotname: DC transfer characteristic
Flags: real
No. Variables: 10
No. Points: 2
Variables:
	0	temp-sweep	temp-sweep
	1	abs(v(alim))	voltage
	2	v(drain)	voltage
	3	v(gate)	voltage
	4	v(source)	voltage
	5	v(body)	voltage
	6	i(i(vd))	current
	7	i(i(vg))	current
	8	i(i(vs))	current
	9	i(i(vb))	current
Values:
 0	3.000000000000000e+01
	1.200000000000000e+00
	0.000000000000000e+00
	0.000000000000000e+00
	1.200000000000000e+00
	0.000000000000000e+00
	9.102369417078032e-05
	4.605567015932586e-08
	-6.213955350004356e-03
	6.122885600163474e-03

 1	1.000000000000000e+02
	1.200000000000000e+00
	0.000000000000000e+00
	0.000000000000000e+00
	1.200000000000000e+00
	0.000000000000000e+00
	8.398411743323044e-05
	5.008386799712909e-08
	-8.011143549930695e-03
	7.927109348629498e-03

