Title: *pmos on - w3
Date: Tue Feb 15 20:31:43  2022
Plotname: DC transfer characteristic
Flags: real
No. Variables: 10
No. Points: 2
Variables:
	0	temp-sweep	temp-sweep
	1	abs(v(alim))	voltage
	2	v(drain)	voltage
	3	v(gate)	voltage
	4	v(source)	voltage
	5	v(body)	voltage
	6	i(i(vd))	current
	7	i(i(vg))	current
	8	i(i(vs))	current
	9	i(i(vb))	current
Values:
 0	3.000000000000000e+01
	5.000000000000000e-02
	0.000000000000000e+00
	0.000000000000000e+00
	5.000000000000000e-02
	0.000000000000000e+00
	1.776785551703052e-08
	2.456439109329120e-11
	-1.779241990670910e-08
	-1.414718545759161e-18

 1	1.000000000000000e+02
	5.000000000000000e-02
	0.000000000000000e+00
	0.000000000000000e+00
	5.000000000000000e-02
	0.000000000000000e+00
	5.362444679450208e-08
	2.462193222019320e-11
	-5.364907508175605e-08
	6.355033777907012e-15

Title: *pmos on - w3
Date: Tue Feb 15 20:31:43  2022
Plotname: DC transfer characteristic
Flags: real
No. Variables: 10
No. Points: 2
Variables:
	0	temp-sweep	temp-sweep
	1	abs(v(alim))	voltage
	2	v(drain)	voltage
	3	v(gate)	voltage
	4	v(source)	voltage
	5	v(body)	voltage
	6	i(i(vd))	current
	7	i(i(vg))	current
	8	i(i(vs))	current
	9	i(i(vb))	current
Values:
 0	3.000000000000000e+01
	1.000000000000000e-01
	0.000000000000000e+00
	0.000000000000000e+00
	1.000000000000000e-01
	0.000000000000000e+00
	9.606774142532236e-08
	6.335727821735199e-11
	-9.613109867494881e-08
	-2.859089447551423e-17

 1	1.000000000000000e+02
	1.000000000000000e-01
	0.000000000000000e+00
	0.000000000000000e+00
	1.000000000000000e-01
	0.000000000000000e+00
	2.214558081683614e-07
	6.383044330269474e-11
	-2.215196750292648e-07
	3.641760070538725e-14

Title: *pmos on - w3
Date: Tue Feb 15 20:31:43  2022
Plotname: DC transfer characteristic
Flags: real
No. Variables: 10
No. Points: 2
Variables:
	0	temp-sweep	temp-sweep
	1	abs(v(alim))	voltage
	2	v(drain)	voltage
	3	v(gate)	voltage
	4	v(source)	voltage
	5	v(body)	voltage
	6	i(i(vd))	current
	7	i(i(vg))	current
	8	i(i(vs))	current
	9	i(i(vb))	current
Values:
 0	3.000000000000000e+01
	1.500000000000000e-01
	0.000000000000000e+00
	0.000000000000000e+00
	1.500000000000000e-01
	0.000000000000000e+00
	4.075928227034193e-07
	1.205492863579324e-10
	-4.077133717831605e-07
	-2.066165221815923e-16

 1	1.000000000000000e+02
	1.500000000000000e-01
	0.000000000000000e+00
	0.000000000000000e+00
	1.500000000000000e-01
	0.000000000000000e+00
	7.263347565845293e-07
	1.231634360920577e-10
	-7.264580987695391e-07
	1.787489177009605e-13

Title: *pmos on - w3
Date: Tue Feb 15 20:31:43  2022
Plotname: DC transfer characteristic
Flags: real
No. Variables: 10
No. Points: 2
Variables:
	0	temp-sweep	temp-sweep
	1	abs(v(alim))	voltage
	2	v(drain)	voltage
	3	v(gate)	voltage
	4	v(source)	voltage
	5	v(body)	voltage
	6	i(i(vd))	current
	7	i(i(vg))	current
	8	i(i(vs))	current
	9	i(i(vb))	current
Values:
 0	3.000000000000000e+01
	2.000000000000000e-01
	0.000000000000000e+00
	0.000000000000000e+00
	2.000000000000000e-01
	0.000000000000000e+00
	1.440537646584844e-06
	2.111898595681055e-10
	-1.440748835582077e-06
	-8.623358044772894e-16

 1	1.000000000000000e+02
	2.000000000000000e-01
	0.000000000000000e+00
	0.000000000000000e+00
	2.000000000000000e-01
	0.000000000000000e+00
	2.054711554203518e-06
	2.204953012138929e-10
	-2.054932902636035e-06
	8.531313049393307e-13

Title: *pmos on - w3
Date: Tue Feb 15 20:31:43  2022
Plotname: DC transfer characteristic
Flags: real
No. Variables: 10
No. Points: 2
Variables:
	0	temp-sweep	temp-sweep
	1	abs(v(alim))	voltage
	2	v(drain)	voltage
	3	v(gate)	voltage
	4	v(source)	voltage
	5	v(body)	voltage
	6	i(i(vd))	current
	7	i(i(vg))	current
	8	i(i(vs))	current
	9	i(i(vb))	current
Values:
 0	3.000000000000000e+01
	2.500000000000000e-01
	0.000000000000000e+00
	0.000000000000000e+00
	2.500000000000000e-01
	0.000000000000000e+00
	4.012501741930221e-06
	3.891988993456800e-10
	-4.012890939240241e-06
	-1.589322316608920e-15

 1	1.000000000000000e+02
	2.500000000000000e-01
	0.000000000000000e+00
	0.000000000000000e+00
	2.500000000000000e-01
	0.000000000000000e+00
	4.828368237059003e-06
	4.041483689800450e-10
	-4.828776434307857e-06
	4.048879868913558e-12

Title: *pmos on - w3
Date: Tue Feb 15 20:31:43  2022
Plotname: DC transfer characteristic
Flags: real
No. Variables: 10
No. Points: 2
Variables:
	0	temp-sweep	temp-sweep
	1	abs(v(alim))	voltage
	2	v(drain)	voltage
	3	v(gate)	voltage
	4	v(source)	voltage
	5	v(body)	voltage
	6	i(i(vd))	current
	7	i(i(vg))	current
	8	i(i(vs))	current
	9	i(i(vb))	current
Values:
 0	3.000000000000000e+01
	3.000000000000000e-01
	0.000000000000000e+00
	0.000000000000000e+00
	3.000000000000000e-01
	0.000000000000000e+00
	8.619596859801227e-06
	7.137094258165069e-10
	-8.620310575783040e-06
	6.555990618498638e-15

 1	1.000000000000000e+02
	3.000000000000000e-01
	0.000000000000000e+00
	0.000000000000000e+00
	3.000000000000000e-01
	0.000000000000000e+00
	9.329621131940247e-06
	7.269800579976902e-10
	-9.330367300455467e-06
	1.918845723072943e-11

Title: *pmos on - w3
Date: Tue Feb 15 20:31:43  2022
Plotname: DC transfer characteristic
Flags: real
No. Variables: 10
No. Points: 2
Variables:
	0	temp-sweep	temp-sweep
	1	abs(v(alim))	voltage
	2	v(drain)	voltage
	3	v(gate)	voltage
	4	v(source)	voltage
	5	v(body)	voltage
	6	i(i(vd))	current
	7	i(i(vg))	current
	8	i(i(vs))	current
	9	i(i(vb))	current
Values:
 0	3.000000000000000e+01
	3.500000000000000e-01
	0.000000000000000e+00
	0.000000000000000e+00
	3.500000000000000e-01
	0.000000000000000e+00
	1.500432484658001e-05
	1.187676178587675e-09
	-1.500551261265060e-05
	8.989200837941524e-14

 1	1.000000000000000e+02
	3.500000000000000e-01
	0.000000000000000e+00
	0.000000000000000e+00
	3.500000000000000e-01
	0.000000000000000e+00
	1.531211677774099e-05
	1.203256659289018e-09
	-1.531341092421880e-05
	9.088981852306365e-11

Title: *pmos on - w3
Date: Tue Feb 15 20:31:43  2022
Plotname: DC transfer characteristic
Flags: real
No. Variables: 10
No. Points: 2
Variables:
	0	temp-sweep	temp-sweep
	1	abs(v(alim))	voltage
	2	v(drain)	voltage
	3	v(gate)	voltage
	4	v(source)	voltage
	5	v(body)	voltage
	6	i(i(vd))	current
	7	i(i(vg))	current
	8	i(i(vs))	current
	9	i(i(vb))	current
Values:
 0	3.000000000000000e+01
	4.000000000000000e-01
	0.000000000000000e+00
	0.000000000000000e+00
	4.000000000000000e-01
	0.000000000000000e+00
	2.259873539195368e-05
	1.815487989781015e-09
	-2.260055157915369e-05
	6.992102413853091e-13

 1	1.000000000000000e+02
	4.000000000000000e-01
	0.000000000000000e+00
	0.000000000000000e+00
	4.000000000000000e-01
	0.000000000000000e+00
	2.231222641088853e-05
	1.840001811785106e-09
	-2.231449683288038e-05
	4.304201800489112e-10

Title: *pmos on - w3
Date: Tue Feb 15 20:31:43  2022
Plotname: DC transfer characteristic
Flags: real
No. Variables: 10
No. Points: 2
Variables:
	0	temp-sweep	temp-sweep
	1	abs(v(alim))	voltage
	2	v(drain)	voltage
	3	v(gate)	voltage
	4	v(source)	voltage
	5	v(body)	voltage
	6	i(i(vd))	current
	7	i(i(vg))	current
	8	i(i(vs))	current
	9	i(i(vb))	current
Values:
 0	3.000000000000000e+01
	4.500000000000000e-01
	0.000000000000000e+00
	0.000000000000000e+00
	4.500000000000000e-01
	0.000000000000000e+00
	3.094128126609643e-05
	2.614729106765964e-09
	-3.094390088520477e-05
	4.890001579471073e-12

 1	1.000000000000000e+02
	4.500000000000000e-01
	0.000000000000000e+00
	0.000000000000000e+00
	4.500000000000000e-01
	0.000000000000000e+00
	2.993816198142820e-05
	2.653664917582620e-09
	-2.994285377635557e-05
	2.038130009786833e-09

Title: *pmos on - w3
Date: Tue Feb 15 20:31:43  2022
Plotname: DC transfer characteristic
Flags: real
No. Variables: 10
No. Points: 2
Variables:
	0	temp-sweep	temp-sweep
	1	abs(v(alim))	voltage
	2	v(drain)	voltage
	3	v(gate)	voltage
	4	v(source)	voltage
	5	v(body)	voltage
	6	i(i(vd))	current
	7	i(i(vg))	current
	8	i(i(vs))	current
	9	i(i(vb))	current
Values:
 0	3.000000000000000e+01
	4.999999999999999e-01
	0.000000000000000e+00
	0.000000000000000e+00
	4.999999999999999e-01
	0.000000000000000e+00
	3.974129171254212e-05
	3.608327434024895e-09
	-3.974493341917143e-05
	3.337919527522288e-11

 1	1.000000000000000e+02
	4.999999999999999e-01
	0.000000000000000e+00
	0.000000000000000e+00
	4.999999999999999e-01
	0.000000000000000e+00
	3.793633535042936e-05
	3.666693227809991e-09
	-3.794965267460861e-05
	9.650630951453183e-09

Title: *pmos on - w3
Date: Tue Feb 15 20:31:43  2022
Plotname: DC transfer characteristic
Flags: real
No. Variables: 10
No. Points: 2
Variables:
	0	temp-sweep	temp-sweep
	1	abs(v(alim))	voltage
	2	v(drain)	voltage
	3	v(gate)	voltage
	4	v(source)	voltage
	5	v(body)	voltage
	6	i(i(vd))	current
	7	i(i(vg))	current
	8	i(i(vs))	current
	9	i(i(vb))	current
Values:
 0	3.000000000000000e+01
	5.499999999999999e-01
	0.000000000000000e+00
	0.000000000000000e+00
	5.499999999999999e-01
	0.000000000000000e+00
	4.882142615316384e-05
	4.822474431882801e-09
	-4.882647526503355e-05
	2.266374378106486e-10

 1	1.000000000000000e+02
	5.499999999999999e-01
	0.000000000000000e+00
	0.000000000000000e+00
	5.499999999999999e-01
	0.000000000000000e+00
	4.615472814657968e-05
	4.905340481223966e-09
	-4.620532793717466e-05
	4.569445011376592e-08

Title: *pmos on - w3
Date: Tue Feb 15 20:31:43  2022
Plotname: DC transfer characteristic
Flags: real
No. Variables: 10
No. Points: 2
Variables:
	0	temp-sweep	temp-sweep
	1	abs(v(alim))	voltage
	2	v(drain)	voltage
	3	v(gate)	voltage
	4	v(source)	voltage
	5	v(body)	voltage
	6	i(i(vd))	current
	7	i(i(vg))	current
	8	i(i(vs))	current
	9	i(i(vb))	current
Values:
 0	3.000000000000000e+01
	6.000000000000000e-01
	0.000000000000000e+00
	0.000000000000000e+00
	6.000000000000000e-01
	0.000000000000000e+00
	5.806491786812682e-05
	6.286530953634434e-09
	-5.807274151919722e-05
	1.537120116780409e-09

 1	1.000000000000000e+02
	6.000000000000000e-01
	0.000000000000000e+00
	0.000000000000000e+00
	6.000000000000000e-01
	0.000000000000000e+00
	5.449724558196922e-05
	6.399316358651574e-09
	-5.471997311088271e-05
	2.163282125548162e-07

Title: *pmos on - w3
Date: Tue Feb 15 20:31:43  2022
Plotname: DC transfer characteristic
Flags: real
No. Variables: 10
No. Points: 2
Variables:
	0	temp-sweep	temp-sweep
	1	abs(v(alim))	voltage
	2	v(drain)	voltage
	3	v(gate)	voltage
	4	v(source)	voltage
	5	v(body)	voltage
	6	i(i(vd))	current
	7	i(i(vg))	current
	8	i(i(vs))	current
	9	i(i(vb))	current
Values:
 0	3.000000000000000e+01
	6.500000000000000e-01
	0.000000000000000e+00
	0.000000000000000e+00
	6.500000000000000e-01
	0.000000000000000e+00
	6.738171107599372e-05
	8.033418704565576e-09
	-6.740016730789373e-05
	1.042281319546343e-08

 1	1.000000000000000e+02
	6.500000000000000e-01
	0.000000000000000e+00
	0.000000000000000e+00
	6.500000000000000e-01
	0.000000000000000e+00
	6.289035203016954e-05
	8.182113425201336e-09
	-6.392204780223219e-05
	1.023513658637441e-06

Title: *pmos on - w3
Date: Tue Feb 15 20:31:43  2022
Plotname: DC transfer characteristic
Flags: real
No. Variables: 10
No. Points: 2
Variables:
	0	temp-sweep	temp-sweep
	1	abs(v(alim))	voltage
	2	v(drain)	voltage
	3	v(gate)	voltage
	4	v(source)	voltage
	5	v(body)	voltage
	6	i(i(vd))	current
	7	i(i(vg))	current
	8	i(i(vs))	current
	9	i(i(vb))	current
Values:
 0	3.000000000000000e+01
	7.000000000000001e-01
	0.000000000000000e+00
	0.000000000000000e+00
	7.000000000000001e-01
	0.000000000000000e+00
	7.667878368627501e-05
	1.010039343020687e-08
	-7.675955113787777e-05
	7.066705817253860e-08

 1	1.000000000000000e+02
	7.000000000000001e-01
	0.000000000000000e+00
	0.000000000000000e+00
	7.000000000000001e-01
	0.000000000000000e+00
	7.125304155762287e-05
	1.029180617246729e-08
	-7.609174744262858e-05
	4.828414078833268e-06

Title: *pmos on - w3
Date: Tue Feb 15 20:31:43  2022
Plotname: DC transfer characteristic
Flags: real
No. Variables: 10
No. Points: 2
Variables:
	0	temp-sweep	temp-sweep
	1	abs(v(alim))	voltage
	2	v(drain)	voltage
	3	v(gate)	voltage
	4	v(source)	voltage
	5	v(body)	voltage
	6	i(i(vd))	current
	7	i(i(vg))	current
	8	i(i(vs))	current
	9	i(i(vb))	current
Values:
 0	3.000000000000000e+01
	7.500000000000001e-01
	0.000000000000000e+00
	0.000000000000000e+00
	7.500000000000001e-01
	0.000000000000000e+00
	8.580820946718851e-05
	1.253063241171537e-08
	-8.629966199663855e-05
	4.789218970382929e-07

 1	1.000000000000000e+02
	7.500000000000001e-01
	0.000000000000000e+00
	0.000000000000000e+00
	7.500000000000001e-01
	0.000000000000000e+00
	7.944529730840383e-05
	1.277276743097436e-08
	-1.019270890123858e-04
	2.246901893655090e-05

Title: *pmos on - w3
Date: Tue Feb 15 20:31:43  2022
Plotname: DC transfer characteristic
Flags: real
No. Variables: 10
No. Points: 2
Variables:
	0	temp-sweep	temp-sweep
	1	abs(v(alim))	voltage
	2	v(drain)	voltage
	3	v(gate)	voltage
	4	v(source)	voltage
	5	v(body)	voltage
	6	i(i(vd))	current
	7	i(i(vg))	current
	8	i(i(vs))	current
	9	i(i(vb))	current
Values:
 0	3.000000000000000e+01
	8.000000000000002e-01
	0.000000000000000e+00
	0.000000000000000e+00
	8.000000000000002e-01
	0.000000000000000e+00
	9.443396806532476e-05
	1.537659494319933e-08
	-9.768595952420224e-05
	3.236614863934312e-06

 1	1.000000000000000e+02
	8.000000000000002e-01
	0.000000000000000e+00
	0.000000000000000e+00
	8.000000000000002e-01
	0.000000000000000e+00
	8.714734641304491e-05
	1.567948337411390e-08
	-1.859695659544451e-04
	9.880654005802581e-05

Title: *pmos on - w3
Date: Tue Feb 15 20:31:43  2022
Plotname: DC transfer characteristic
Flags: real
No. Variables: 10
No. Points: 2
Variables:
	0	temp-sweep	temp-sweep
	1	abs(v(alim))	voltage
	2	v(drain)	voltage
	3	v(gate)	voltage
	4	v(source)	voltage
	5	v(body)	voltage
	6	i(i(vd))	current
	7	i(i(vg))	current
	8	i(i(vs))	current
	9	i(i(vb))	current
Values:
 0	3.000000000000000e+01
	8.500000000000002e-01
	0.000000000000000e+00
	0.000000000000000e+00
	8.500000000000002e-01
	0.000000000000000e+00
	1.019013526649942e-04
	1.870115956371809e-08
	-1.233922201149504e-04
	2.147216629039249e-05

 1	1.000000000000000e+02
	8.500000000000002e-01
	0.000000000000000e+00
	0.000000000000000e+00
	8.500000000000002e-01
	0.000000000000000e+00
	9.382540863029637e-05
	1.908252236296821e-08
	-4.560007819930196e-04
	3.621562908403605e-04

Title: *pmos on - w3
Date: Tue Feb 15 20:31:43  2022
Plotname: DC transfer characteristic
Flags: real
No. Variables: 10
No. Points: 2
Variables:
	0	temp-sweep	temp-sweep
	1	abs(v(alim))	voltage
	2	v(drain)	voltage
	3	v(gate)	voltage
	4	v(source)	voltage
	5	v(body)	voltage
	6	i(i(vd))	current
	7	i(i(vg))	current
	8	i(i(vs))	current
	9	i(i(vb))	current
Values:
 0	3.000000000000000e+01
	9.000000000000002e-01
	0.000000000000000e+00
	0.000000000000000e+00
	9.000000000000002e-01
	0.000000000000000e+00
	1.083012259974527e-04
	2.256154866738809e-08
	-2.364720045141971e-04
	1.281482169680773e-04

 1	1.000000000000000e+02
	9.000000000000002e-01
	0.000000000000000e+00
	0.000000000000000e+00
	9.000000000000002e-01
	0.000000000000000e+00
	9.967610744556214e-05
	2.307182859658394e-08
	-1.059306218184546e-03
	9.596070389103842e-04

Title: *pmos on - w3
Date: Tue Feb 15 20:31:43  2022
Plotname: DC transfer characteristic
Flags: real
No. Variables: 10
No. Points: 2
Variables:
	0	temp-sweep	temp-sweep
	1	abs(v(alim))	voltage
	2	v(drain)	voltage
	3	v(gate)	voltage
	4	v(source)	voltage
	5	v(body)	voltage
	6	i(i(vd))	current
	7	i(i(vg))	current
	8	i(i(vs))	current
	9	i(i(vb))	current
Values:
 0	3.000000000000000e+01
	9.500000000000003e-01
	0.000000000000000e+00
	0.000000000000000e+00
	9.500000000000003e-01
	0.000000000000000e+00
	1.144187370817027e-04
	2.704858089553185e-08
	-6.488774499363512e-04
	5.344316642737506e-04

 1	1.000000000000000e+02
	9.500000000000003e-01
	0.000000000000000e+00
	0.000000000000000e+00
	9.500000000000003e-01
	0.000000000000000e+00
	1.053366692036612e-04
	2.778996649599004e-08
	-1.977395834849002e-03
	1.872031375678850e-03

Title: *pmos on - w3
Date: Tue Feb 15 20:31:43  2022
Plotname: DC transfer characteristic
Flags: real
No. Variables: 10
No. Points: 2
Variables:
	0	temp-sweep	temp-sweep
	1	abs(v(alim))	voltage
	2	v(drain)	voltage
	3	v(gate)	voltage
	4	v(source)	voltage
	5	v(body)	voltage
	6	i(i(vd))	current
	7	i(i(vg))	current
	8	i(i(vs))	current
	9	i(i(vb))	current
Values:
 0	3.000000000000000e+01
	1.000000000000000e+00
	0.000000000000000e+00
	0.000000000000000e+00
	1.000000000000000e+00
	0.000000000000000e+00
	1.203722821941378e-04
	3.234430778276028e-08
	-1.476471599787486e-03
	1.356066973285570e-03

 1	1.000000000000000e+02
	1.000000000000000e+00
	0.000000000000000e+00
	0.000000000000000e+00
	1.000000000000000e+00
	0.000000000000000e+00
	1.108675433175878e-04
	3.348718495008417e-08
	-3.101008788312268e-03
	2.990107757809723e-03

Title: *pmos on - w3
Date: Tue Feb 15 20:31:43  2022
Plotname: DC transfer characteristic
Flags: real
No. Variables: 10
No. Points: 2
Variables:
	0	temp-sweep	temp-sweep
	1	abs(v(alim))	voltage
	2	v(drain)	voltage
	3	v(gate)	voltage
	4	v(source)	voltage
	5	v(body)	voltage
	6	i(i(vd))	current
	7	i(i(vg))	current
	8	i(i(vs))	current
	9	i(i(vb))	current
Values:
 0	3.000000000000000e+01
	1.050000000000000e+00
	0.000000000000000e+00
	0.000000000000000e+00
	1.050000000000000e+00
	0.000000000000000e+00
	1.261356991035219e-04
	3.877651890183764e-08
	-2.584839615582908e-03
	2.458665139960493e-03

 1	1.000000000000000e+02
	1.050000000000000e+00
	0.000000000000000e+00
	0.000000000000000e+00
	1.050000000000000e+00
	0.000000000000000e+00
	1.162314487054555e-04
	4.058192434329178e-08
	-4.348611180226702e-03
	4.232339149596901e-03

Title: *pmos on - w3
Date: Tue Feb 15 20:31:43  2022
Plotname: DC transfer characteristic
Flags: real
No. Variables: 10
No. Points: 2
Variables:
	0	temp-sweep	temp-sweep
	1	abs(v(alim))	voltage
	2	v(drain)	voltage
	3	v(gate)	voltage
	4	v(source)	voltage
	5	v(body)	voltage
	6	i(i(vd))	current
	7	i(i(vg))	current
	8	i(i(vs))	current
	9	i(i(vb))	current
Values:
 0	3.000000000000000e+01
	1.100000000000000e+00
	0.000000000000000e+00
	0.000000000000000e+00
	1.100000000000000e+00
	0.000000000000000e+00
	1.316988423910919e-04
	4.690524635849313e-08
	-3.845624858031777e-03
	3.713879110394321e-03

 1	1.000000000000000e+02
	1.100000000000000e+00
	0.000000000000000e+00
	0.000000000000000e+00
	1.100000000000000e+00
	0.000000000000000e+00
	1.214138741667280e-04
	4.972711205194733e-08
	-5.674108198411671e-03
	5.552644597132908e-03

Title: *pmos on - w3
Date: Tue Feb 15 20:31:43  2022
Plotname: DC transfer characteristic
Flags: real
No. Variables: 10
No. Points: 2
Variables:
	0	temp-sweep	temp-sweep
	1	abs(v(alim))	voltage
	2	v(drain)	voltage
	3	v(gate)	voltage
	4	v(source)	voltage
	5	v(body)	voltage
	6	i(i(vd))	current
	7	i(i(vg))	current
	8	i(i(vs))	current
	9	i(i(vb))	current
Values:
 0	3.000000000000000e+01
	1.150000000000000e+00
	0.000000000000000e+00
	0.000000000000000e+00
	1.150000000000000e+00
	0.000000000000000e+00
	1.370621549404396e-04
	5.758299646413342e-08
	-5.193115003657550e-03
	5.055995265720646e-03

 1	1.000000000000000e+02
	1.150000000000000e+00
	0.000000000000000e+00
	0.000000000000000e+00
	1.150000000000000e+00
	0.000000000000000e+00
	1.264131989542608e-04
	6.186294080397322e-08
	-7.051590802389453e-03
	6.925115740494353e-03

Title: *pmos on - w3
Date: Tue Feb 15 20:31:43  2022
Plotname: DC transfer characteristic
Flags: real
No. Variables: 10
No. Points: 2
Variables:
	0	temp-sweep	temp-sweep
	1	abs(v(alim))	voltage
	2	v(drain)	voltage
	3	v(gate)	voltage
	4	v(source)	voltage
	5	v(body)	voltage
	6	i(i(vd))	current
	7	i(i(vg))	current
	8	i(i(vs))	current
	9	i(i(vb))	current
Values:
 0	3.000000000000000e+01
	1.200000000000000e+00
	0.000000000000000e+00
	0.000000000000000e+00
	1.200000000000000e+00
	0.000000000000000e+00
	1.422300328299428e-04
	7.196468096107499e-08
	-6.594460717297778e-03
	6.452158719786844e-03

 1	1.000000000000000e+02
	1.200000000000000e+00
	0.000000000000000e+00
	0.000000000000000e+00
	1.200000000000000e+00
	0.000000000000000e+00
	1.312329777956978e-04
	7.826112904043050e-08
	-8.465659569173454e-03
	8.334348330248677e-03

