  temp-sweep      abs(v(alim))    v(drain)        v(gate)         temp-sweep      v(source)       v(body)         i(vd)           temp-sweep      i(vg)           i(vs)           i(vb)
 3.00000000e+01  5.00000000e-02  3.00000000e+01  0.00000000e+00  3.00000000e+01  0.00000000e+00  3.00000000e+01  5.00000000e-02  3.00000000e+01  0.00000000e+00  3.00000000e+01  1.77678555e-08  3.00000000e+01  2.45643911e-11  3.00000000e+01 -1.77924199e-08  3.00000000e+01 -1.41471855e-18 
 1.00000000e+02  5.00000000e-02  1.00000000e+02  0.00000000e+00  1.00000000e+02  0.00000000e+00  1.00000000e+02  5.00000000e-02  1.00000000e+02  0.00000000e+00  1.00000000e+02  5.36244468e-08  1.00000000e+02  2.46219322e-11  1.00000000e+02 -5.36490751e-08  1.00000000e+02  6.35503378e-15 
 3.00000000e+01  1.00000000e-01  3.00000000e+01  0.00000000e+00  3.00000000e+01  0.00000000e+00  3.00000000e+01  1.00000000e-01  3.00000000e+01  0.00000000e+00  3.00000000e+01  9.60677414e-08  3.00000000e+01  6.33572782e-11  3.00000000e+01 -9.61310987e-08  3.00000000e+01 -2.85908945e-17 
 1.00000000e+02  1.00000000e-01  1.00000000e+02  0.00000000e+00  1.00000000e+02  0.00000000e+00  1.00000000e+02  1.00000000e-01  1.00000000e+02  0.00000000e+00  1.00000000e+02  2.21455808e-07  1.00000000e+02  6.38304433e-11  1.00000000e+02 -2.21519675e-07  1.00000000e+02  3.64176007e-14 
 3.00000000e+01  1.50000000e-01  3.00000000e+01  0.00000000e+00  3.00000000e+01  0.00000000e+00  3.00000000e+01  1.50000000e-01  3.00000000e+01  0.00000000e+00  3.00000000e+01  4.07592823e-07  3.00000000e+01  1.20549286e-10  3.00000000e+01 -4.07713372e-07  3.00000000e+01 -2.06616522e-16 
 1.00000000e+02  1.50000000e-01  1.00000000e+02  0.00000000e+00  1.00000000e+02  0.00000000e+00  1.00000000e+02  1.50000000e-01  1.00000000e+02  0.00000000e+00  1.00000000e+02  7.26334757e-07  1.00000000e+02  1.23163436e-10  1.00000000e+02 -7.26458099e-07  1.00000000e+02  1.78748918e-13 
 3.00000000e+01  2.00000000e-01  3.00000000e+01  0.00000000e+00  3.00000000e+01  0.00000000e+00  3.00000000e+01  2.00000000e-01  3.00000000e+01  0.00000000e+00  3.00000000e+01  1.44053765e-06  3.00000000e+01  2.11189860e-10  3.00000000e+01 -1.44074884e-06  3.00000000e+01 -8.62335804e-16 
 1.00000000e+02  2.00000000e-01  1.00000000e+02  0.00000000e+00  1.00000000e+02  0.00000000e+00  1.00000000e+02  2.00000000e-01  1.00000000e+02  0.00000000e+00  1.00000000e+02  2.05471155e-06  1.00000000e+02  2.20495301e-10  1.00000000e+02 -2.05493290e-06  1.00000000e+02  8.53131305e-13 
 3.00000000e+01  2.50000000e-01  3.00000000e+01  0.00000000e+00  3.00000000e+01  0.00000000e+00  3.00000000e+01  2.50000000e-01  3.00000000e+01  0.00000000e+00  3.00000000e+01  4.01250174e-06  3.00000000e+01  3.89198899e-10  3.00000000e+01 -4.01289094e-06  3.00000000e+01 -1.58932232e-15 
 1.00000000e+02  2.50000000e-01  1.00000000e+02  0.00000000e+00  1.00000000e+02  0.00000000e+00  1.00000000e+02  2.50000000e-01  1.00000000e+02  0.00000000e+00  1.00000000e+02  4.82836824e-06  1.00000000e+02  4.04148369e-10  1.00000000e+02 -4.82877643e-06  1.00000000e+02  4.04887987e-12 
 3.00000000e+01  3.00000000e-01  3.00000000e+01  0.00000000e+00  3.00000000e+01  0.00000000e+00  3.00000000e+01  3.00000000e-01  3.00000000e+01  0.00000000e+00  3.00000000e+01  8.61959686e-06  3.00000000e+01  7.13709426e-10  3.00000000e+01 -8.62031058e-06  3.00000000e+01  6.55599062e-15 
 1.00000000e+02  3.00000000e-01  1.00000000e+02  0.00000000e+00  1.00000000e+02  0.00000000e+00  1.00000000e+02  3.00000000e-01  1.00000000e+02  0.00000000e+00  1.00000000e+02  9.32962113e-06  1.00000000e+02  7.26980058e-10  1.00000000e+02 -9.33036730e-06  1.00000000e+02  1.91884572e-11 
 3.00000000e+01  3.50000000e-01  3.00000000e+01  0.00000000e+00  3.00000000e+01  0.00000000e+00  3.00000000e+01  3.50000000e-01  3.00000000e+01  0.00000000e+00  3.00000000e+01  1.50043248e-05  3.00000000e+01  1.18767618e-09  3.00000000e+01 -1.50055126e-05  3.00000000e+01  8.98920084e-14 
 1.00000000e+02  3.50000000e-01  1.00000000e+02  0.00000000e+00  1.00000000e+02  0.00000000e+00  1.00000000e+02  3.50000000e-01  1.00000000e+02  0.00000000e+00  1.00000000e+02  1.53121168e-05  1.00000000e+02  1.20325666e-09  1.00000000e+02 -1.53134109e-05  1.00000000e+02  9.08898185e-11 
 3.00000000e+01  4.00000000e-01  3.00000000e+01  0.00000000e+00  3.00000000e+01  0.00000000e+00  3.00000000e+01  4.00000000e-01  3.00000000e+01  0.00000000e+00  3.00000000e+01  2.25987354e-05  3.00000000e+01  1.81548799e-09  3.00000000e+01 -2.26005516e-05  3.00000000e+01  6.99210241e-13 
 1.00000000e+02  4.00000000e-01  1.00000000e+02  0.00000000e+00  1.00000000e+02  0.00000000e+00  1.00000000e+02  4.00000000e-01  1.00000000e+02  0.00000000e+00  1.00000000e+02  2.23122264e-05  1.00000000e+02  1.84000181e-09  1.00000000e+02 -2.23144968e-05  1.00000000e+02  4.30420180e-10 
 3.00000000e+01  4.50000000e-01  3.00000000e+01  0.00000000e+00  3.00000000e+01  0.00000000e+00  3.00000000e+01  4.50000000e-01  3.00000000e+01  0.00000000e+00  3.00000000e+01  3.09412813e-05  3.00000000e+01  2.61472911e-09  3.00000000e+01 -3.09439009e-05  3.00000000e+01  4.89000158e-12 
 1.00000000e+02  4.50000000e-01  1.00000000e+02  0.00000000e+00  1.00000000e+02  0.00000000e+00  1.00000000e+02  4.50000000e-01  1.00000000e+02  0.00000000e+00  1.00000000e+02  2.99381620e-05  1.00000000e+02  2.65366492e-09  1.00000000e+02 -2.99428538e-05  1.00000000e+02  2.03813001e-09 
 3.00000000e+01  5.00000000e-01  3.00000000e+01  0.00000000e+00  3.00000000e+01  0.00000000e+00  3.00000000e+01  5.00000000e-01  3.00000000e+01  0.00000000e+00  3.00000000e+01  3.97412917e-05  3.00000000e+01  3.60832743e-09  3.00000000e+01 -3.97449334e-05  3.00000000e+01  3.33791953e-11 
 1.00000000e+02  5.00000000e-01  1.00000000e+02  0.00000000e+00  1.00000000e+02  0.00000000e+00  1.00000000e+02  5.00000000e-01  1.00000000e+02  0.00000000e+00  1.00000000e+02  3.79363354e-05  1.00000000e+02  3.66669323e-09  1.00000000e+02 -3.79496527e-05  1.00000000e+02  9.65063095e-09 
 3.00000000e+01  5.50000000e-01  3.00000000e+01  0.00000000e+00  3.00000000e+01  0.00000000e+00  3.00000000e+01  5.50000000e-01  3.00000000e+01  0.00000000e+00  3.00000000e+01  4.88214262e-05  3.00000000e+01  4.82247443e-09  3.00000000e+01 -4.88264753e-05  3.00000000e+01  2.26637438e-10 
 1.00000000e+02  5.50000000e-01  1.00000000e+02  0.00000000e+00  1.00000000e+02  0.00000000e+00  1.00000000e+02  5.50000000e-01  1.00000000e+02  0.00000000e+00  1.00000000e+02  4.61547281e-05  1.00000000e+02  4.90534048e-09  1.00000000e+02 -4.62053279e-05  1.00000000e+02  4.56944501e-08 
 3.00000000e+01  6.00000000e-01  3.00000000e+01  0.00000000e+00  3.00000000e+01  0.00000000e+00  3.00000000e+01  6.00000000e-01  3.00000000e+01  0.00000000e+00  3.00000000e+01  5.80649179e-05  3.00000000e+01  6.28653095e-09  3.00000000e+01 -5.80727415e-05  3.00000000e+01  1.53712012e-09 
 1.00000000e+02  6.00000000e-01  1.00000000e+02  0.00000000e+00  1.00000000e+02  0.00000000e+00  1.00000000e+02  6.00000000e-01  1.00000000e+02  0.00000000e+00  1.00000000e+02  5.44972456e-05  1.00000000e+02  6.39931636e-09  1.00000000e+02 -5.47199731e-05  1.00000000e+02  2.16328213e-07 
 3.00000000e+01  6.50000000e-01  3.00000000e+01  0.00000000e+00  3.00000000e+01  0.00000000e+00  3.00000000e+01  6.50000000e-01  3.00000000e+01  0.00000000e+00  3.00000000e+01  6.73817111e-05  3.00000000e+01  8.03341870e-09  3.00000000e+01 -6.74001673e-05  3.00000000e+01  1.04228132e-08 
 1.00000000e+02  6.50000000e-01  1.00000000e+02  0.00000000e+00  1.00000000e+02  0.00000000e+00  1.00000000e+02  6.50000000e-01  1.00000000e+02  0.00000000e+00  1.00000000e+02  6.28903520e-05  1.00000000e+02  8.18211343e-09  1.00000000e+02 -6.39220478e-05  1.00000000e+02  1.02351366e-06 
 3.00000000e+01  7.00000000e-01  3.00000000e+01  0.00000000e+00  3.00000000e+01  0.00000000e+00  3.00000000e+01  7.00000000e-01  3.00000000e+01  0.00000000e+00  3.00000000e+01  7.66787837e-05  3.00000000e+01  1.01003934e-08  3.00000000e+01 -7.67595511e-05  3.00000000e+01  7.06670582e-08 
 1.00000000e+02  7.00000000e-01  1.00000000e+02  0.00000000e+00  1.00000000e+02  0.00000000e+00  1.00000000e+02  7.00000000e-01  1.00000000e+02  0.00000000e+00  1.00000000e+02  7.12530416e-05  1.00000000e+02  1.02918062e-08  1.00000000e+02 -7.60917474e-05  1.00000000e+02  4.82841408e-06 
 3.00000000e+01  7.50000000e-01  3.00000000e+01  0.00000000e+00  3.00000000e+01  0.00000000e+00  3.00000000e+01  7.50000000e-01  3.00000000e+01  0.00000000e+00  3.00000000e+01  8.58082095e-05  3.00000000e+01  1.25306324e-08  3.00000000e+01 -8.62996620e-05  3.00000000e+01  4.78921897e-07 
 1.00000000e+02  7.50000000e-01  1.00000000e+02  0.00000000e+00  1.00000000e+02  0.00000000e+00  1.00000000e+02  7.50000000e-01  1.00000000e+02  0.00000000e+00  1.00000000e+02  7.94452973e-05  1.00000000e+02  1.27727674e-08  1.00000000e+02 -1.01927089e-04  1.00000000e+02  2.24690189e-05 
 3.00000000e+01  8.00000000e-01  3.00000000e+01  0.00000000e+00  3.00000000e+01  0.00000000e+00  3.00000000e+01  8.00000000e-01  3.00000000e+01  0.00000000e+00  3.00000000e+01  9.44339681e-05  3.00000000e+01  1.53765949e-08  3.00000000e+01 -9.76859595e-05  3.00000000e+01  3.23661486e-06 
 1.00000000e+02  8.00000000e-01  1.00000000e+02  0.00000000e+00  1.00000000e+02  0.00000000e+00  1.00000000e+02  8.00000000e-01  1.00000000e+02  0.00000000e+00  1.00000000e+02  8.71473464e-05  1.00000000e+02  1.56794834e-08  1.00000000e+02 -1.85969566e-04  1.00000000e+02  9.88065401e-05 
 3.00000000e+01  8.50000000e-01  3.00000000e+01  0.00000000e+00  3.00000000e+01  0.00000000e+00  3.00000000e+01  8.50000000e-01  3.00000000e+01  0.00000000e+00  3.00000000e+01  1.01901353e-04  3.00000000e+01  1.87011596e-08  3.00000000e+01 -1.23392220e-04  3.00000000e+01  2.14721663e-05 
 1.00000000e+02  8.50000000e-01  1.00000000e+02  0.00000000e+00  1.00000000e+02  0.00000000e+00  1.00000000e+02  8.50000000e-01  1.00000000e+02  0.00000000e+00  1.00000000e+02  9.38254086e-05  1.00000000e+02  1.90825224e-08  1.00000000e+02 -4.56000782e-04  1.00000000e+02  3.62156291e-04 
 3.00000000e+01  9.00000000e-01  3.00000000e+01  0.00000000e+00  3.00000000e+01  0.00000000e+00  3.00000000e+01  9.00000000e-01  3.00000000e+01  0.00000000e+00  3.00000000e+01  1.08301226e-04  3.00000000e+01  2.25615487e-08  3.00000000e+01 -2.36472005e-04  3.00000000e+01  1.28148217e-04 
 1.00000000e+02  9.00000000e-01  1.00000000e+02  0.00000000e+00  1.00000000e+02  0.00000000e+00  1.00000000e+02  9.00000000e-01  1.00000000e+02  0.00000000e+00  1.00000000e+02  9.96761074e-05  1.00000000e+02  2.30718286e-08  1.00000000e+02 -1.05930622e-03  1.00000000e+02  9.59607039e-04 
 3.00000000e+01  9.50000000e-01  3.00000000e+01  0.00000000e+00  3.00000000e+01  0.00000000e+00  3.00000000e+01  9.50000000e-01  3.00000000e+01  0.00000000e+00  3.00000000e+01  1.14418737e-04  3.00000000e+01  2.70485809e-08  3.00000000e+01 -6.48877450e-04  3.00000000e+01  5.34431664e-04 
 1.00000000e+02  9.50000000e-01  1.00000000e+02  0.00000000e+00  1.00000000e+02  0.00000000e+00  1.00000000e+02  9.50000000e-01  1.00000000e+02  0.00000000e+00  1.00000000e+02  1.05336669e-04  1.00000000e+02  2.77899665e-08  1.00000000e+02 -1.97739583e-03  1.00000000e+02  1.87203138e-03 
 3.00000000e+01  1.00000000e+00  3.00000000e+01  0.00000000e+00  3.00000000e+01  0.00000000e+00  3.00000000e+01  1.00000000e+00  3.00000000e+01  0.00000000e+00  3.00000000e+01  1.20372282e-04  3.00000000e+01  3.23443078e-08  3.00000000e+01 -1.47647160e-03  3.00000000e+01  1.35606697e-03 
 1.00000000e+02  1.00000000e+00  1.00000000e+02  0.00000000e+00  1.00000000e+02  0.00000000e+00  1.00000000e+02  1.00000000e+00  1.00000000e+02  0.00000000e+00  1.00000000e+02  1.10867543e-04  1.00000000e+02  3.34871850e-08  1.00000000e+02 -3.10100879e-03  1.00000000e+02  2.99010776e-03 
 3.00000000e+01  1.05000000e+00  3.00000000e+01  0.00000000e+00  3.00000000e+01  0.00000000e+00  3.00000000e+01  1.05000000e+00  3.00000000e+01  0.00000000e+00  3.00000000e+01  1.26135699e-04  3.00000000e+01  3.87765189e-08  3.00000000e+01 -2.58483962e-03  3.00000000e+01  2.45866514e-03 
 1.00000000e+02  1.05000000e+00  1.00000000e+02  0.00000000e+00  1.00000000e+02  0.00000000e+00  1.00000000e+02  1.05000000e+00  1.00000000e+02  0.00000000e+00  1.00000000e+02  1.16231449e-04  1.00000000e+02  4.05819243e-08  1.00000000e+02 -4.34861118e-03  1.00000000e+02  4.23233915e-03 
 3.00000000e+01  1.10000000e+00  3.00000000e+01  0.00000000e+00  3.00000000e+01  0.00000000e+00  3.00000000e+01  1.10000000e+00  3.00000000e+01  0.00000000e+00  3.00000000e+01  1.31698842e-04  3.00000000e+01  4.69052464e-08  3.00000000e+01 -3.84562486e-03  3.00000000e+01  3.71387911e-03 
 1.00000000e+02  1.10000000e+00  1.00000000e+02  0.00000000e+00  1.00000000e+02  0.00000000e+00  1.00000000e+02  1.10000000e+00  1.00000000e+02  0.00000000e+00  1.00000000e+02  1.21413874e-04  1.00000000e+02  4.97271121e-08  1.00000000e+02 -5.67410820e-03  1.00000000e+02  5.55264460e-03 
 3.00000000e+01  1.15000000e+00  3.00000000e+01  0.00000000e+00  3.00000000e+01  0.00000000e+00  3.00000000e+01  1.15000000e+00  3.00000000e+01  0.00000000e+00  3.00000000e+01  1.37062155e-04  3.00000000e+01  5.75829965e-08  3.00000000e+01 -5.19311500e-03  3.00000000e+01  5.05599527e-03 
 1.00000000e+02  1.15000000e+00  1.00000000e+02  0.00000000e+00  1.00000000e+02  0.00000000e+00  1.00000000e+02  1.15000000e+00  1.00000000e+02  0.00000000e+00  1.00000000e+02  1.26413199e-04  1.00000000e+02  6.18629408e-08  1.00000000e+02 -7.05159080e-03  1.00000000e+02  6.92511574e-03 
 3.00000000e+01  1.20000000e+00  3.00000000e+01  0.00000000e+00  3.00000000e+01  0.00000000e+00  3.00000000e+01  1.20000000e+00  3.00000000e+01  0.00000000e+00  3.00000000e+01  1.42230033e-04  3.00000000e+01  7.19646810e-08  3.00000000e+01 -6.59446072e-03  3.00000000e+01  6.45215872e-03 
 1.00000000e+02  1.20000000e+00  1.00000000e+02  0.00000000e+00  1.00000000e+02  0.00000000e+00  1.00000000e+02  1.20000000e+00  1.00000000e+02  0.00000000e+00  1.00000000e+02  1.31232978e-04  1.00000000e+02  7.82611290e-08  1.00000000e+02 -8.46565957e-03  1.00000000e+02  8.33434833e-03 
