Title: *pmos on - w4
Date: Tue Feb 15 20:31:45  2022
Plotname: DC transfer characteristic
Flags: real
No. Variables: 10
No. Points: 2
Variables:
	0	temp-sweep	temp-sweep
	1	abs(v(alim))	voltage
	2	v(drain)	voltage
	3	v(gate)	voltage
	4	v(source)	voltage
	5	v(body)	voltage
	6	i(i(vd))	current
	7	i(i(vg))	current
	8	i(i(vs))	current
	9	i(i(vb))	current
Values:
 0	3.000000000000000e+01
	5.000000000000000e-02
	0.000000000000000e+00
	0.000000000000000e+00
	5.000000000000000e-02
	0.000000000000000e+00
	2.416428350087389e-08
	3.340757188219067e-11
	-2.419769107083189e-08
	-1.924197205687233e-18

 1	1.000000000000000e+02
	5.000000000000000e-02
	0.000000000000000e+00
	0.000000000000000e+00
	5.000000000000000e-02
	0.000000000000000e+00
	7.292924763502709e-08
	3.348582781475283e-11
	-7.296274210568756e-08
	8.642845758128246e-15

Title: *pmos on - w4
Date: Tue Feb 15 20:31:45  2022
Plotname: DC transfer characteristic
Flags: real
No. Variables: 10
No. Points: 2
Variables:
	0	temp-sweep	temp-sweep
	1	abs(v(alim))	voltage
	2	v(drain)	voltage
	3	v(gate)	voltage
	4	v(source)	voltage
	5	v(body)	voltage
	6	i(i(vd))	current
	7	i(i(vg))	current
	8	i(i(vs))	current
	9	i(i(vb))	current
Values:
 0	3.000000000000000e+01
	1.000000000000000e-01
	0.000000000000000e+00
	0.000000000000000e+00
	1.000000000000000e-01
	0.000000000000000e+00
	1.306521283090937e-07
	8.616589835966856e-11
	-1.307382941685694e-07
	-3.888397643252561e-17

 1	1.000000000000000e+02
	1.000000000000000e-01
	0.000000000000000e+00
	0.000000000000000e+00
	1.000000000000000e-01
	0.000000000000000e+00
	3.011798990536343e-07
	8.680940287539568e-11
	-3.012667579844463e-07
	4.952793659922712e-14

Title: *pmos on - w4
Date: Tue Feb 15 20:31:45  2022
Plotname: DC transfer characteristic
Flags: real
No. Variables: 10
No. Points: 2
Variables:
	0	temp-sweep	temp-sweep
	1	abs(v(alim))	voltage
	2	v(drain)	voltage
	3	v(gate)	voltage
	4	v(source)	voltage
	5	v(body)	voltage
	6	i(i(vd))	current
	7	i(i(vg))	current
	8	i(i(vs))	current
	9	i(i(vb))	current
Values:
 0	3.000000000000000e+01
	1.500000000000000e-01
	0.000000000000000e+00
	0.000000000000000e+00
	1.500000000000000e-01
	0.000000000000000e+00
	5.543262386634087e-07
	1.639470294060844e-10
	-5.544901854118157e-07
	-2.809990099485139e-16

 1	1.000000000000000e+02
	1.500000000000000e-01
	0.000000000000000e+00
	0.000000000000000e+00
	1.500000000000000e-01
	0.000000000000000e+00
	9.878152686337611e-07
	1.675022730417036e-10
	-9.879830140053307e-07
	2.430985275192758e-13

Title: *pmos on - w4
Date: Tue Feb 15 20:31:45  2022
Plotname: DC transfer characteristic
Flags: real
No. Variables: 10
No. Points: 2
Variables:
	0	temp-sweep	temp-sweep
	1	abs(v(alim))	voltage
	2	v(drain)	voltage
	3	v(gate)	voltage
	4	v(source)	voltage
	5	v(body)	voltage
	6	i(i(vd))	current
	7	i(i(vg))	current
	8	i(i(vs))	current
	9	i(i(vb))	current
Values:
 0	3.000000000000000e+01
	2.000000000000000e-01
	0.000000000000000e+00
	0.000000000000000e+00
	2.000000000000000e-01
	0.000000000000000e+00
	1.959131198233608e-06
	2.872182088992591e-10
	-1.959418415269730e-06
	-1.172777413059843e-15

 1	1.000000000000000e+02
	2.000000000000000e-01
	0.000000000000000e+00
	0.000000000000000e+00
	2.000000000000000e-01
	0.000000000000000e+00
	2.794407712313649e-06
	2.998736095251399e-10
	-2.794708746181748e-06
	1.160258573653134e-12

Title: *pmos on - w4
Date: Tue Feb 15 20:31:45  2022
Plotname: DC transfer characteristic
Flags: real
No. Variables: 10
No. Points: 2
Variables:
	0	temp-sweep	temp-sweep
	1	abs(v(alim))	voltage
	2	v(drain)	voltage
	3	v(gate)	voltage
	4	v(source)	voltage
	5	v(body)	voltage
	6	i(i(vd))	current
	7	i(i(vg))	current
	8	i(i(vs))	current
	9	i(i(vb))	current
Values:
 0	3.000000000000000e+01
	2.500000000000000e-01
	0.000000000000000e+00
	0.000000000000000e+00
	2.500000000000000e-01
	0.000000000000000e+00
	5.457002364609520e-06
	5.293105027116811e-10
	-5.457531672950757e-06
	-2.161479246558057e-15

 1	1.000000000000000e+02
	2.500000000000000e-01
	0.000000000000000e+00
	0.000000000000000e+00
	2.500000000000000e-01
	0.000000000000000e+00
	6.566580797551333e-06
	5.496417813983493e-10
	-6.567135945809348e-06
	5.506476613015725e-12

Title: *pmos on - w4
Date: Tue Feb 15 20:31:45  2022
Plotname: DC transfer characteristic
Flags: real
No. Variables: 10
No. Points: 2
Variables:
	0	temp-sweep	temp-sweep
	1	abs(v(alim))	voltage
	2	v(drain)	voltage
	3	v(gate)	voltage
	4	v(source)	voltage
	5	v(body)	voltage
	6	i(i(vd))	current
	7	i(i(vg))	current
	8	i(i(vs))	current
	9	i(i(vb))	current
Values:
 0	3.000000000000000e+01
	3.000000000000000e-01
	0.000000000000000e+00
	0.000000000000000e+00
	3.000000000000000e-01
	0.000000000000000e+00
	1.172265171684089e-05
	9.706448179594462e-10
	-1.172362237057501e-05
	8.916146172718581e-15

 1	1.000000000000000e+02
	3.000000000000000e-01
	0.000000000000000e+00
	0.000000000000000e+00
	3.000000000000000e-01
	0.000000000000000e+00
	1.268828472615427e-05
	9.886928777090001e-10
	-1.268929951533364e-05
	2.609630165738356e-11

Title: *pmos on - w4
Date: Tue Feb 15 20:31:45  2022
Plotname: DC transfer characteristic
Flags: real
No. Variables: 10
No. Points: 2
Variables:
	0	temp-sweep	temp-sweep
	1	abs(v(alim))	voltage
	2	v(drain)	voltage
	3	v(gate)	voltage
	4	v(source)	voltage
	5	v(body)	voltage
	6	i(i(vd))	current
	7	i(i(vg))	current
	8	i(i(vs))	current
	9	i(i(vb))	current
Values:
 0	3.000000000000000e+01
	3.500000000000000e-01
	0.000000000000000e+00
	0.000000000000000e+00
	3.500000000000000e-01
	0.000000000000000e+00
	2.040588176547916e-05
	1.615239600285206e-09
	-2.040749712733258e-05
	1.222531301568777e-13

 1	1.000000000000000e+02
	3.500000000000000e-01
	0.000000000000000e+00
	0.000000000000000e+00
	3.500000000000000e-01
	0.000000000000000e+00
	2.082447878635618e-05
	1.636429053994060e-09
	-2.082623882555946e-05
	1.236101492580208e-10

Title: *pmos on - w4
Date: Tue Feb 15 20:31:45  2022
Plotname: DC transfer characteristic
Flags: real
No. Variables: 10
No. Points: 2
Variables:
	0	temp-sweep	temp-sweep
	1	abs(v(alim))	voltage
	2	v(drain)	voltage
	3	v(gate)	voltage
	4	v(source)	voltage
	5	v(body)	voltage
	6	i(i(vd))	current
	7	i(i(vg))	current
	8	i(i(vs))	current
	9	i(i(vb))	current
Values:
 0	3.000000000000000e+01
	4.000000000000000e-01
	0.000000000000000e+00
	0.000000000000000e+00
	4.000000000000000e-01
	0.000000000000000e+00
	3.073428008915495e-05
	2.469063661010949e-09
	-3.073675010374189e-05
	9.509259266014147e-13

 1	1.000000000000000e+02
	4.000000000000000e-01
	0.000000000000000e+00
	0.000000000000000e+00
	4.000000000000000e-01
	0.000000000000000e+00
	3.034462783779174e-05
	2.502402458910523e-09
	-3.034771561160736e-05
	5.853713567019720e-10

Title: *pmos on - w4
Date: Tue Feb 15 20:31:45  2022
Plotname: DC transfer characteristic
Flags: real
No. Variables: 10
No. Points: 2
Variables:
	0	temp-sweep	temp-sweep
	1	abs(v(alim))	voltage
	2	v(drain)	voltage
	3	v(gate)	voltage
	4	v(source)	voltage
	5	v(body)	voltage
	6	i(i(vd))	current
	7	i(i(vg))	current
	8	i(i(vs))	current
	9	i(i(vb))	current
Values:
 0	3.000000000000000e+01
	4.500000000000000e-01
	0.000000000000000e+00
	0.000000000000000e+00
	4.500000000000000e-01
	0.000000000000000e+00
	4.208014245525522e-05
	3.556031576039483e-09
	-4.208370513723340e-05
	6.650402132421543e-12

 1	1.000000000000000e+02
	4.500000000000000e-01
	0.000000000000000e+00
	0.000000000000000e+00
	4.500000000000000e-01
	0.000000000000000e+00
	4.071590001139873e-05
	3.608984279318309e-09
	-4.072228085051473e-05
	2.771854836656958e-09

Title: *pmos on - w4
Date: Tue Feb 15 20:31:45  2022
Plotname: DC transfer characteristic
Flags: real
No. Variables: 10
No. Points: 2
Variables:
	0	temp-sweep	temp-sweep
	1	abs(v(alim))	voltage
	2	v(drain)	voltage
	3	v(gate)	voltage
	4	v(source)	voltage
	5	v(body)	voltage
	6	i(i(vd))	current
	7	i(i(vg))	current
	8	i(i(vs))	current
	9	i(i(vb))	current
Values:
 0	3.000000000000000e+01
	4.999999999999999e-01
	0.000000000000000e+00
	0.000000000000000e+00
	4.999999999999999e-01
	0.000000000000000e+00
	5.404815663167461e-05
	4.907325294776718e-09
	-5.405310935267431e-05
	4.539570491849566e-11

 1	1.000000000000000e+02
	4.999999999999999e-01
	0.000000000000000e+00
	0.000000000000000e+00
	4.999999999999999e-01
	0.000000000000000e+00
	5.159341479108871e-05
	4.986702779401675e-09
	-5.161152630764572e-05
	1.312481377760214e-08

Title: *pmos on - w4
Date: Tue Feb 15 20:31:45  2022
Plotname: DC transfer characteristic
Flags: real
No. Variables: 10
No. Points: 2
Variables:
	0	temp-sweep	temp-sweep
	1	abs(v(alim))	voltage
	2	v(drain)	voltage
	3	v(gate)	voltage
	4	v(source)	voltage
	5	v(body)	voltage
	6	i(i(vd))	current
	7	i(i(vg))	current
	8	i(i(vs))	current
	9	i(i(vb))	current
Values:
 0	3.000000000000000e+01
	5.499999999999999e-01
	0.000000000000000e+00
	0.000000000000000e+00
	5.499999999999999e-01
	0.000000000000000e+00
	6.639713940692842e-05
	6.558565202413154e-09
	-6.640400619901615e-05
	3.082268853195917e-10

 1	1.000000000000000e+02
	5.499999999999999e-01
	0.000000000000000e+00
	0.000000000000000e+00
	5.499999999999999e-01
	0.000000000000000e+00
	6.277042379875240e-05
	6.671263062964940e-09
	-6.283923852046580e-05
	6.214345865044188e-08

Title: *pmos on - w4
Date: Tue Feb 15 20:31:45  2022
Plotname: DC transfer characteristic
Flags: real
No. Variables: 10
No. Points: 2
Variables:
	0	temp-sweep	temp-sweep
	1	abs(v(alim))	voltage
	2	v(drain)	voltage
	3	v(gate)	voltage
	4	v(source)	voltage
	5	v(body)	voltage
	6	i(i(vd))	current
	7	i(i(vg))	current
	8	i(i(vs))	current
	9	i(i(vb))	current
Values:
 0	3.000000000000000e+01
	6.000000000000000e-01
	0.000000000000000e+00
	0.000000000000000e+00
	6.000000000000000e-01
	0.000000000000000e+00
	7.896828785562729e-05
	8.549682058804662e-09
	-7.897892801966088e-05
	2.090481974798074e-09

 1	1.000000000000000e+02
	6.000000000000000e-01
	0.000000000000000e+00
	0.000000000000000e+00
	6.000000000000000e-01
	0.000000000000000e+00
	7.411622065616167e-05
	8.703070409772900e-09
	-7.441910782973817e-05
	2.941841031667417e-07

Title: *pmos on - w4
Date: Tue Feb 15 20:31:45  2022
Plotname: DC transfer characteristic
Flags: real
No. Variables: 10
No. Points: 2
Variables:
	0	temp-sweep	temp-sweep
	1	abs(v(alim))	voltage
	2	v(drain)	voltage
	3	v(gate)	voltage
	4	v(source)	voltage
	5	v(body)	voltage
	6	i(i(vd))	current
	7	i(i(vg))	current
	8	i(i(vs))	current
	9	i(i(vb))	current
Values:
 0	3.000000000000000e+01
	6.500000000000000e-01
	0.000000000000000e+00
	0.000000000000000e+00
	6.500000000000000e-01
	0.000000000000000e+00
	9.163912476535765e-05
	1.092544938543872e-08
	-9.166422517706099e-05
	1.417496231788593e-08

 1	1.000000000000000e+02
	6.500000000000000e-01
	0.000000000000000e+00
	0.000000000000000e+00
	6.500000000000000e-01
	0.000000000000000e+00
	8.553070975425965e-05
	1.112767534239650e-08
	-8.693331773002683e-05
	1.391480300424757e-06

Title: *pmos on - w4
Date: Tue Feb 15 20:31:45  2022
Plotname: DC transfer characteristic
Flags: real
No. Variables: 10
No. Points: 2
Variables:
	0	temp-sweep	temp-sweep
	1	abs(v(alim))	voltage
	2	v(drain)	voltage
	3	v(gate)	voltage
	4	v(source)	voltage
	5	v(body)	voltage
	6	i(i(vd))	current
	7	i(i(vg))	current
	8	i(i(vs))	current
	9	i(i(vb))	current
Values:
 0	3.000000000000000e+01
	7.000000000000001e-01
	0.000000000000000e+00
	0.000000000000000e+00
	7.000000000000001e-01
	0.000000000000000e+00
	1.042831307547105e-04
	1.373653500945994e-08
	-1.043929715643166e-04
	9.610427459655069e-08

 1	1.000000000000000e+02
	7.000000000000001e-01
	0.000000000000000e+00
	0.000000000000000e+00
	7.000000000000001e-01
	0.000000000000000e+00
	9.690332022046630e-05
	1.399686246031366e-08
	-1.034728875206827e-04
	6.555570437756025e-06

Title: *pmos on - w4
Date: Tue Feb 15 20:31:45  2022
Plotname: DC transfer characteristic
Flags: real
No. Variables: 10
No. Points: 2
Variables:
	0	temp-sweep	temp-sweep
	1	abs(v(alim))	voltage
	2	v(drain)	voltage
	3	v(gate)	voltage
	4	v(source)	voltage
	5	v(body)	voltage
	6	i(i(vd))	current
	7	i(i(vg))	current
	8	i(i(vs))	current
	9	i(i(vb))	current
Values:
 0	3.000000000000000e+01
	7.500000000000001e-01
	0.000000000000000e+00
	0.000000000000000e+00
	7.500000000000001e-01
	0.000000000000000e+00
	1.166990695658838e-04
	1.704165989257040e-08
	-1.173673107846175e-04
	6.511995588411382e-07

 1	1.000000000000000e+02
	7.500000000000001e-01
	0.000000000000000e+00
	0.000000000000000e+00
	7.500000000000001e-01
	0.000000000000000e+00
	1.080422114679571e-04
	1.737099370857738e-08
	-1.383793550092299e-04
	3.031977254756410e-05

Title: *pmos on - w4
Date: Tue Feb 15 20:31:45  2022
Plotname: DC transfer characteristic
Flags: real
No. Variables: 10
No. Points: 2
Variables:
	0	temp-sweep	temp-sweep
	1	abs(v(alim))	voltage
	2	v(drain)	voltage
	3	v(gate)	voltage
	4	v(source)	voltage
	5	v(body)	voltage
	6	i(i(vd))	current
	7	i(i(vg))	current
	8	i(i(vs))	current
	9	i(i(vb))	current
Values:
 0	3.000000000000000e+01
	8.000000000000002e-01
	0.000000000000000e+00
	0.000000000000000e+00
	8.000000000000002e-01
	0.000000000000000e+00
	1.284297704428704e-04
	2.091216370620196e-08
	-1.328463795846561e-04
	4.395696978079350e-06

 1	1.000000000000000e+02
	8.000000000000002e-01
	0.000000000000000e+00
	0.000000000000000e+00
	8.000000000000002e-01
	0.000000000000000e+00
	1.185124882216033e-04
	2.132415968868974e-08
	-2.488570931261678e-04
	1.303232807448753e-04

Title: *pmos on - w4
Date: Tue Feb 15 20:31:45  2022
Plotname: DC transfer characteristic
Flags: real
No. Variables: 10
No. Points: 2
Variables:
	0	temp-sweep	temp-sweep
	1	abs(v(alim))	voltage
	2	v(drain)	voltage
	3	v(gate)	voltage
	4	v(source)	voltage
	5	v(body)	voltage
	6	i(i(vd))	current
	7	i(i(vg))	current
	8	i(i(vs))	current
	9	i(i(vb))	current
Values:
 0	3.000000000000000e+01
	8.500000000000002e-01
	0.000000000000000e+00
	0.000000000000000e+00
	8.500000000000002e-01
	0.000000000000000e+00
	1.385858799302080e-04
	2.543351123140230e-08
	-1.675536596873178e-04
	2.894234624587843e-05

 1	1.000000000000000e+02
	8.500000000000002e-01
	0.000000000000000e+00
	0.000000000000000e+00
	8.500000000000002e-01
	0.000000000000000e+00
	1.276095456508811e-04
	2.595235553416884e-08
	-5.790882353097600e-04
	4.514527373033419e-04

Title: *pmos on - w4
Date: Tue Feb 15 20:31:45  2022
Plotname: DC transfer characteristic
Flags: real
No. Variables: 10
No. Points: 2
Variables:
	0	temp-sweep	temp-sweep
	1	abs(v(alim))	voltage
	2	v(drain)	voltage
	3	v(gate)	voltage
	4	v(source)	voltage
	5	v(body)	voltage
	6	i(i(vd))	current
	7	i(i(vg))	current
	8	i(i(vs))	current
	9	i(i(vb))	current
Values:
 0	3.000000000000000e+01
	9.000000000000002e-01
	0.000000000000000e+00
	0.000000000000000e+00
	9.000000000000002e-01
	0.000000000000000e+00
	1.472935801213999e-04
	3.068349027657987e-08
	-3.137961525975371e-04
	1.664718889858606e-04

 1	1.000000000000000e+02
	9.000000000000002e-01
	0.000000000000000e+00
	0.000000000000000e+00
	9.000000000000002e-01
	0.000000000000000e+00
	1.355840539052971e-04
	3.137779003105429e-08
	-1.253985704269966e-03
	1.118370272574632e-03

Title: *pmos on - w4
Date: Tue Feb 15 20:31:45  2022
Plotname: DC transfer characteristic
Flags: real
No. Variables: 10
No. Points: 2
Variables:
	0	temp-sweep	temp-sweep
	1	abs(v(alim))	voltage
	2	v(drain)	voltage
	3	v(gate)	voltage
	4	v(source)	voltage
	5	v(body)	voltage
	6	i(i(vd))	current
	7	i(i(vg))	current
	8	i(i(vs))	current
	9	i(i(vb))	current
Values:
 0	3.000000000000000e+01
	9.500000000000003e-01
	0.000000000000000e+00
	0.000000000000000e+00
	9.500000000000003e-01
	0.000000000000000e+00
	1.556171363906145e-04
	3.678578051756296e-08
	-7.959915470582469e-04
	6.403376248871150e-04

 1	1.000000000000000e+02
	9.500000000000003e-01
	0.000000000000000e+00
	0.000000000000000e+00
	9.500000000000003e-01
	0.000000000000000e+00
	1.432800955964775e-04
	3.779465194368041e-08
	-2.223330149248702e-03
	2.080012259000285e-03

Title: *pmos on - w4
Date: Tue Feb 15 20:31:45  2022
Plotname: DC transfer characteristic
Flags: real
No. Variables: 10
No. Points: 2
Variables:
	0	temp-sweep	temp-sweep
	1	abs(v(alim))	voltage
	2	v(drain)	voltage
	3	v(gate)	voltage
	4	v(source)	voltage
	5	v(body)	voltage
	6	i(i(vd))	current
	7	i(i(vg))	current
	8	i(i(vs))	current
	9	i(i(vb))	current
Values:
 0	3.000000000000000e+01
	1.000000000000000e+00
	0.000000000000000e+00
	0.000000000000000e+00
	1.000000000000000e+00
	0.000000000000000e+00
	1.637146995760286e-04
	4.398812756855115e-08
	-1.682277616445226e-03
	1.518518928741627e-03

 1	1.000000000000000e+02
	1.000000000000000e+00
	0.000000000000000e+00
	0.000000000000000e+00
	1.000000000000000e+00
	0.000000000000000e+00
	1.507970554725526e-04
	4.554337917143191e-08
	-3.378572867871985e-03
	3.227730269020264e-03

Title: *pmos on - w4
Date: Tue Feb 15 20:31:45  2022
Plotname: DC transfer characteristic
Flags: real
No. Variables: 10
No. Points: 2
Variables:
	0	temp-sweep	temp-sweep
	1	abs(v(alim))	voltage
	2	v(drain)	voltage
	3	v(gate)	voltage
	4	v(source)	voltage
	5	v(body)	voltage
	6	i(i(vd))	current
	7	i(i(vg))	current
	8	i(i(vs))	current
	9	i(i(vb))	current
Values:
 0	3.000000000000000e+01
	1.050000000000000e+00
	0.000000000000000e+00
	0.000000000000000e+00
	1.050000000000000e+00
	0.000000000000000e+00
	1.715522578544173e-04
	5.273629474984460e-08
	-2.823926932325863e-03
	2.652321938176686e-03

 1	1.000000000000000e+02
	1.050000000000000e+00
	0.000000000000000e+00
	0.000000000000000e+00
	1.050000000000000e+00
	0.000000000000000e+00
	1.580881629099250e-04
	5.519289859659038e-08
	-4.646284950730275e-03
	4.488141594921747e-03

Title: *pmos on - w4
Date: Tue Feb 15 20:31:45  2022
Plotname: DC transfer characteristic
Flags: real
No. Variables: 10
No. Points: 2
Variables:
	0	temp-sweep	temp-sweep
	1	abs(v(alim))	voltage
	2	v(drain)	voltage
	3	v(gate)	voltage
	4	v(source)	voltage
	5	v(body)	voltage
	6	i(i(vd))	current
	7	i(i(vg))	current
	8	i(i(vs))	current
	9	i(i(vb))	current
Values:
 0	3.000000000000000e+01
	1.100000000000000e+00
	0.000000000000000e+00
	0.000000000000000e+00
	1.100000000000000e+00
	0.000000000000000e+00
	1.791172279720157e-04
	6.379191600284764e-08
	-4.103929574403935e-03
	3.924748554515949e-03

 1	1.000000000000000e+02
	1.100000000000000e+00
	0.000000000000000e+00
	0.000000000000000e+00
	1.100000000000000e+00
	0.000000000000000e+00
	1.651336264685782e-04
	6.763123715717163e-08
	-5.985494612301497e-03
	5.820293354595748e-03

Title: *pmos on - w4
Date: Tue Feb 15 20:31:45  2022
Plotname: DC transfer characteristic
Flags: real
No. Variables: 10
No. Points: 2
Variables:
	0	temp-sweep	temp-sweep
	1	abs(v(alim))	voltage
	2	v(drain)	voltage
	3	v(gate)	voltage
	4	v(source)	voltage
	5	v(body)	voltage
	6	i(i(vd))	current
	7	i(i(vg))	current
	8	i(i(vs))	current
	9	i(i(vb))	current
Values:
 0	3.000000000000000e+01
	1.150000000000000e+00
	0.000000000000000e+00
	0.000000000000000e+00
	1.150000000000000e+00
	0.000000000000000e+00
	1.864105194436533e-04
	7.831444126317779e-08
	-5.463716751656459e-03
	5.277227917771498e-03

 1	1.000000000000000e+02
	1.150000000000000e+00
	0.000000000000000e+00
	0.000000000000000e+00
	1.150000000000000e+00
	0.000000000000000e+00
	1.719308561406073e-04
	8.413710154999295e-08
	-7.372964297428157e-03
	7.200949304185994e-03

Title: *pmos on - w4
Date: Tue Feb 15 20:31:45  2022
Plotname: DC transfer characteristic
Flags: real
No. Variables: 10
No. Points: 2
Variables:
	0	temp-sweep	temp-sweep
	1	abs(v(alim))	voltage
	2	v(drain)	voltage
	3	v(gate)	voltage
	4	v(source)	voltage
	5	v(body)	voltage
	6	i(i(vd))	current
	7	i(i(vg))	current
	8	i(i(vs))	current
	9	i(i(vb))	current
Values:
 0	3.000000000000000e+01
	1.200000000000000e+00
	0.000000000000000e+00
	0.000000000000000e+00
	1.200000000000000e+00
	0.000000000000000e+00
	1.934381530825225e-04
	9.787456522502466e-08
	-6.873696728029077e-03
	6.680160700381407e-03

 1	1.000000000000000e+02
	1.200000000000000e+00
	0.000000000000000e+00
	0.000000000000000e+00
	1.200000000000000e+00
	0.000000000000000e+00
	1.784844094130232e-04
	1.064400830061897e-07
	-8.794707725868387e-03
	8.616116876372268e-03

