  temp-sweep      abs(v(alim))    v(drain)        v(gate)         temp-sweep      v(source)       v(body)         i(vd)           temp-sweep      i(vg)           i(vs)           i(vb)
 3.00000000e+01  5.00000000e-02  3.00000000e+01  0.00000000e+00  3.00000000e+01  0.00000000e+00  3.00000000e+01  5.00000000e-02  3.00000000e+01  0.00000000e+00  3.00000000e+01  2.41642835e-08  3.00000000e+01  3.34075719e-11  3.00000000e+01 -2.41976911e-08  3.00000000e+01 -1.92419721e-18 
 1.00000000e+02  5.00000000e-02  1.00000000e+02  0.00000000e+00  1.00000000e+02  0.00000000e+00  1.00000000e+02  5.00000000e-02  1.00000000e+02  0.00000000e+00  1.00000000e+02  7.29292476e-08  1.00000000e+02  3.34858278e-11  1.00000000e+02 -7.29627421e-08  1.00000000e+02  8.64284576e-15 
 3.00000000e+01  1.00000000e-01  3.00000000e+01  0.00000000e+00  3.00000000e+01  0.00000000e+00  3.00000000e+01  1.00000000e-01  3.00000000e+01  0.00000000e+00  3.00000000e+01  1.30652128e-07  3.00000000e+01  8.61658984e-11  3.00000000e+01 -1.30738294e-07  3.00000000e+01 -3.88839764e-17 
 1.00000000e+02  1.00000000e-01  1.00000000e+02  0.00000000e+00  1.00000000e+02  0.00000000e+00  1.00000000e+02  1.00000000e-01  1.00000000e+02  0.00000000e+00  1.00000000e+02  3.01179899e-07  1.00000000e+02  8.68094029e-11  1.00000000e+02 -3.01266758e-07  1.00000000e+02  4.95279366e-14 
 3.00000000e+01  1.50000000e-01  3.00000000e+01  0.00000000e+00  3.00000000e+01  0.00000000e+00  3.00000000e+01  1.50000000e-01  3.00000000e+01  0.00000000e+00  3.00000000e+01  5.54326239e-07  3.00000000e+01  1.63947029e-10  3.00000000e+01 -5.54490185e-07  3.00000000e+01 -2.80999010e-16 
 1.00000000e+02  1.50000000e-01  1.00000000e+02  0.00000000e+00  1.00000000e+02  0.00000000e+00  1.00000000e+02  1.50000000e-01  1.00000000e+02  0.00000000e+00  1.00000000e+02  9.87815269e-07  1.00000000e+02  1.67502273e-10  1.00000000e+02 -9.87983014e-07  1.00000000e+02  2.43098528e-13 
 3.00000000e+01  2.00000000e-01  3.00000000e+01  0.00000000e+00  3.00000000e+01  0.00000000e+00  3.00000000e+01  2.00000000e-01  3.00000000e+01  0.00000000e+00  3.00000000e+01  1.95913120e-06  3.00000000e+01  2.87218209e-10  3.00000000e+01 -1.95941842e-06  3.00000000e+01 -1.17277741e-15 
 1.00000000e+02  2.00000000e-01  1.00000000e+02  0.00000000e+00  1.00000000e+02  0.00000000e+00  1.00000000e+02  2.00000000e-01  1.00000000e+02  0.00000000e+00  1.00000000e+02  2.79440771e-06  1.00000000e+02  2.99873610e-10  1.00000000e+02 -2.79470875e-06  1.00000000e+02  1.16025857e-12 
 3.00000000e+01  2.50000000e-01  3.00000000e+01  0.00000000e+00  3.00000000e+01  0.00000000e+00  3.00000000e+01  2.50000000e-01  3.00000000e+01  0.00000000e+00  3.00000000e+01  5.45700236e-06  3.00000000e+01  5.29310503e-10  3.00000000e+01 -5.45753167e-06  3.00000000e+01 -2.16147925e-15 
 1.00000000e+02  2.50000000e-01  1.00000000e+02  0.00000000e+00  1.00000000e+02  0.00000000e+00  1.00000000e+02  2.50000000e-01  1.00000000e+02  0.00000000e+00  1.00000000e+02  6.56658080e-06  1.00000000e+02  5.49641781e-10  1.00000000e+02 -6.56713595e-06  1.00000000e+02  5.50647661e-12 
 3.00000000e+01  3.00000000e-01  3.00000000e+01  0.00000000e+00  3.00000000e+01  0.00000000e+00  3.00000000e+01  3.00000000e-01  3.00000000e+01  0.00000000e+00  3.00000000e+01  1.17226517e-05  3.00000000e+01  9.70644818e-10  3.00000000e+01 -1.17236224e-05  3.00000000e+01  8.91614617e-15 
 1.00000000e+02  3.00000000e-01  1.00000000e+02  0.00000000e+00  1.00000000e+02  0.00000000e+00  1.00000000e+02  3.00000000e-01  1.00000000e+02  0.00000000e+00  1.00000000e+02  1.26882847e-05  1.00000000e+02  9.88692878e-10  1.00000000e+02 -1.26892995e-05  1.00000000e+02  2.60963017e-11 
 3.00000000e+01  3.50000000e-01  3.00000000e+01  0.00000000e+00  3.00000000e+01  0.00000000e+00  3.00000000e+01  3.50000000e-01  3.00000000e+01  0.00000000e+00  3.00000000e+01  2.04058818e-05  3.00000000e+01  1.61523960e-09  3.00000000e+01 -2.04074971e-05  3.00000000e+01  1.22253130e-13 
 1.00000000e+02  3.50000000e-01  1.00000000e+02  0.00000000e+00  1.00000000e+02  0.00000000e+00  1.00000000e+02  3.50000000e-01  1.00000000e+02  0.00000000e+00  1.00000000e+02  2.08244788e-05  1.00000000e+02  1.63642905e-09  1.00000000e+02 -2.08262388e-05  1.00000000e+02  1.23610149e-10 
 3.00000000e+01  4.00000000e-01  3.00000000e+01  0.00000000e+00  3.00000000e+01  0.00000000e+00  3.00000000e+01  4.00000000e-01  3.00000000e+01  0.00000000e+00  3.00000000e+01  3.07342801e-05  3.00000000e+01  2.46906366e-09  3.00000000e+01 -3.07367501e-05  3.00000000e+01  9.50925927e-13 
 1.00000000e+02  4.00000000e-01  1.00000000e+02  0.00000000e+00  1.00000000e+02  0.00000000e+00  1.00000000e+02  4.00000000e-01  1.00000000e+02  0.00000000e+00  1.00000000e+02  3.03446278e-05  1.00000000e+02  2.50240246e-09  1.00000000e+02 -3.03477156e-05  1.00000000e+02  5.85371357e-10 
 3.00000000e+01  4.50000000e-01  3.00000000e+01  0.00000000e+00  3.00000000e+01  0.00000000e+00  3.00000000e+01  4.50000000e-01  3.00000000e+01  0.00000000e+00  3.00000000e+01  4.20801425e-05  3.00000000e+01  3.55603158e-09  3.00000000e+01 -4.20837051e-05  3.00000000e+01  6.65040213e-12 
 1.00000000e+02  4.50000000e-01  1.00000000e+02  0.00000000e+00  1.00000000e+02  0.00000000e+00  1.00000000e+02  4.50000000e-01  1.00000000e+02  0.00000000e+00  1.00000000e+02  4.07159000e-05  1.00000000e+02  3.60898428e-09  1.00000000e+02 -4.07222809e-05  1.00000000e+02  2.77185484e-09 
 3.00000000e+01  5.00000000e-01  3.00000000e+01  0.00000000e+00  3.00000000e+01  0.00000000e+00  3.00000000e+01  5.00000000e-01  3.00000000e+01  0.00000000e+00  3.00000000e+01  5.40481566e-05  3.00000000e+01  4.90732529e-09  3.00000000e+01 -5.40531094e-05  3.00000000e+01  4.53957049e-11 
 1.00000000e+02  5.00000000e-01  1.00000000e+02  0.00000000e+00  1.00000000e+02  0.00000000e+00  1.00000000e+02  5.00000000e-01  1.00000000e+02  0.00000000e+00  1.00000000e+02  5.15934148e-05  1.00000000e+02  4.98670278e-09  1.00000000e+02 -5.16115263e-05  1.00000000e+02  1.31248138e-08 
 3.00000000e+01  5.50000000e-01  3.00000000e+01  0.00000000e+00  3.00000000e+01  0.00000000e+00  3.00000000e+01  5.50000000e-01  3.00000000e+01  0.00000000e+00  3.00000000e+01  6.63971394e-05  3.00000000e+01  6.55856520e-09  3.00000000e+01 -6.64040062e-05  3.00000000e+01  3.08226885e-10 
 1.00000000e+02  5.50000000e-01  1.00000000e+02  0.00000000e+00  1.00000000e+02  0.00000000e+00  1.00000000e+02  5.50000000e-01  1.00000000e+02  0.00000000e+00  1.00000000e+02  6.27704238e-05  1.00000000e+02  6.67126306e-09  1.00000000e+02 -6.28392385e-05  1.00000000e+02  6.21434587e-08 
 3.00000000e+01  6.00000000e-01  3.00000000e+01  0.00000000e+00  3.00000000e+01  0.00000000e+00  3.00000000e+01  6.00000000e-01  3.00000000e+01  0.00000000e+00  3.00000000e+01  7.89682879e-05  3.00000000e+01  8.54968206e-09  3.00000000e+01 -7.89789280e-05  3.00000000e+01  2.09048197e-09 
 1.00000000e+02  6.00000000e-01  1.00000000e+02  0.00000000e+00  1.00000000e+02  0.00000000e+00  1.00000000e+02  6.00000000e-01  1.00000000e+02  0.00000000e+00  1.00000000e+02  7.41162207e-05  1.00000000e+02  8.70307041e-09  1.00000000e+02 -7.44191078e-05  1.00000000e+02  2.94184103e-07 
 3.00000000e+01  6.50000000e-01  3.00000000e+01  0.00000000e+00  3.00000000e+01  0.00000000e+00  3.00000000e+01  6.50000000e-01  3.00000000e+01  0.00000000e+00  3.00000000e+01  9.16391248e-05  3.00000000e+01  1.09254494e-08  3.00000000e+01 -9.16642252e-05  3.00000000e+01  1.41749623e-08 
 1.00000000e+02  6.50000000e-01  1.00000000e+02  0.00000000e+00  1.00000000e+02  0.00000000e+00  1.00000000e+02  6.50000000e-01  1.00000000e+02  0.00000000e+00  1.00000000e+02  8.55307098e-05  1.00000000e+02  1.11276753e-08  1.00000000e+02 -8.69333177e-05  1.00000000e+02  1.39148030e-06 
 3.00000000e+01  7.00000000e-01  3.00000000e+01  0.00000000e+00  3.00000000e+01  0.00000000e+00  3.00000000e+01  7.00000000e-01  3.00000000e+01  0.00000000e+00  3.00000000e+01  1.04283131e-04  3.00000000e+01  1.37365350e-08  3.00000000e+01 -1.04392972e-04  3.00000000e+01  9.61042746e-08 
 1.00000000e+02  7.00000000e-01  1.00000000e+02  0.00000000e+00  1.00000000e+02  0.00000000e+00  1.00000000e+02  7.00000000e-01  1.00000000e+02  0.00000000e+00  1.00000000e+02  9.69033202e-05  1.00000000e+02  1.39968625e-08  1.00000000e+02 -1.03472888e-04  1.00000000e+02  6.55557044e-06 
 3.00000000e+01  7.50000000e-01  3.00000000e+01  0.00000000e+00  3.00000000e+01  0.00000000e+00  3.00000000e+01  7.50000000e-01  3.00000000e+01  0.00000000e+00  3.00000000e+01  1.16699070e-04  3.00000000e+01  1.70416599e-08  3.00000000e+01 -1.17367311e-04  3.00000000e+01  6.51199559e-07 
 1.00000000e+02  7.50000000e-01  1.00000000e+02  0.00000000e+00  1.00000000e+02  0.00000000e+00  1.00000000e+02  7.50000000e-01  1.00000000e+02  0.00000000e+00  1.00000000e+02  1.08042211e-04  1.00000000e+02  1.73709937e-08  1.00000000e+02 -1.38379355e-04  1.00000000e+02  3.03197725e-05 
 3.00000000e+01  8.00000000e-01  3.00000000e+01  0.00000000e+00  3.00000000e+01  0.00000000e+00  3.00000000e+01  8.00000000e-01  3.00000000e+01  0.00000000e+00  3.00000000e+01  1.28429770e-04  3.00000000e+01  2.09121637e-08  3.00000000e+01 -1.32846380e-04  3.00000000e+01  4.39569698e-06 
 1.00000000e+02  8.00000000e-01  1.00000000e+02  0.00000000e+00  1.00000000e+02  0.00000000e+00  1.00000000e+02  8.00000000e-01  1.00000000e+02  0.00000000e+00  1.00000000e+02  1.18512488e-04  1.00000000e+02  2.13241597e-08  1.00000000e+02 -2.48857093e-04  1.00000000e+02  1.30323281e-04 
 3.00000000e+01  8.50000000e-01  3.00000000e+01  0.00000000e+00  3.00000000e+01  0.00000000e+00  3.00000000e+01  8.50000000e-01  3.00000000e+01  0.00000000e+00  3.00000000e+01  1.38585880e-04  3.00000000e+01  2.54335112e-08  3.00000000e+01 -1.67553660e-04  3.00000000e+01  2.89423462e-05 
 1.00000000e+02  8.50000000e-01  1.00000000e+02  0.00000000e+00  1.00000000e+02  0.00000000e+00  1.00000000e+02  8.50000000e-01  1.00000000e+02  0.00000000e+00  1.00000000e+02  1.27609546e-04  1.00000000e+02  2.59523555e-08  1.00000000e+02 -5.79088235e-04  1.00000000e+02  4.51452737e-04 
 3.00000000e+01  9.00000000e-01  3.00000000e+01  0.00000000e+00  3.00000000e+01  0.00000000e+00  3.00000000e+01  9.00000000e-01  3.00000000e+01  0.00000000e+00  3.00000000e+01  1.47293580e-04  3.00000000e+01  3.06834903e-08  3.00000000e+01 -3.13796153e-04  3.00000000e+01  1.66471889e-04 
 1.00000000e+02  9.00000000e-01  1.00000000e+02  0.00000000e+00  1.00000000e+02  0.00000000e+00  1.00000000e+02  9.00000000e-01  1.00000000e+02  0.00000000e+00  1.00000000e+02  1.35584054e-04  1.00000000e+02  3.13777900e-08  1.00000000e+02 -1.25398570e-03  1.00000000e+02  1.11837027e-03 
 3.00000000e+01  9.50000000e-01  3.00000000e+01  0.00000000e+00  3.00000000e+01  0.00000000e+00  3.00000000e+01  9.50000000e-01  3.00000000e+01  0.00000000e+00  3.00000000e+01  1.55617136e-04  3.00000000e+01  3.67857805e-08  3.00000000e+01 -7.95991547e-04  3.00000000e+01  6.40337625e-04 
 1.00000000e+02  9.50000000e-01  1.00000000e+02  0.00000000e+00  1.00000000e+02  0.00000000e+00  1.00000000e+02  9.50000000e-01  1.00000000e+02  0.00000000e+00  1.00000000e+02  1.43280096e-04  1.00000000e+02  3.77946519e-08  1.00000000e+02 -2.22333015e-03  1.00000000e+02  2.08001226e-03 
 3.00000000e+01  1.00000000e+00  3.00000000e+01  0.00000000e+00  3.00000000e+01  0.00000000e+00  3.00000000e+01  1.00000000e+00  3.00000000e+01  0.00000000e+00  3.00000000e+01  1.63714700e-04  3.00000000e+01  4.39881276e-08  3.00000000e+01 -1.68227762e-03  3.00000000e+01  1.51851893e-03 
 1.00000000e+02  1.00000000e+00  1.00000000e+02  0.00000000e+00  1.00000000e+02  0.00000000e+00  1.00000000e+02  1.00000000e+00  1.00000000e+02  0.00000000e+00  1.00000000e+02  1.50797055e-04  1.00000000e+02  4.55433792e-08  1.00000000e+02 -3.37857287e-03  1.00000000e+02  3.22773027e-03 
 3.00000000e+01  1.05000000e+00  3.00000000e+01  0.00000000e+00  3.00000000e+01  0.00000000e+00  3.00000000e+01  1.05000000e+00  3.00000000e+01  0.00000000e+00  3.00000000e+01  1.71552258e-04  3.00000000e+01  5.27362947e-08  3.00000000e+01 -2.82392693e-03  3.00000000e+01  2.65232194e-03 
 1.00000000e+02  1.05000000e+00  1.00000000e+02  0.00000000e+00  1.00000000e+02  0.00000000e+00  1.00000000e+02  1.05000000e+00  1.00000000e+02  0.00000000e+00  1.00000000e+02  1.58088163e-04  1.00000000e+02  5.51928986e-08  1.00000000e+02 -4.64628495e-03  1.00000000e+02  4.48814159e-03 
 3.00000000e+01  1.10000000e+00  3.00000000e+01  0.00000000e+00  3.00000000e+01  0.00000000e+00  3.00000000e+01  1.10000000e+00  3.00000000e+01  0.00000000e+00  3.00000000e+01  1.79117228e-04  3.00000000e+01  6.37919160e-08  3.00000000e+01 -4.10392957e-03  3.00000000e+01  3.92474855e-03 
 1.00000000e+02  1.10000000e+00  1.00000000e+02  0.00000000e+00  1.00000000e+02  0.00000000e+00  1.00000000e+02  1.10000000e+00  1.00000000e+02  0.00000000e+00  1.00000000e+02  1.65133626e-04  1.00000000e+02  6.76312372e-08  1.00000000e+02 -5.98549461e-03  1.00000000e+02  5.82029335e-03 
 3.00000000e+01  1.15000000e+00  3.00000000e+01  0.00000000e+00  3.00000000e+01  0.00000000e+00  3.00000000e+01  1.15000000e+00  3.00000000e+01  0.00000000e+00  3.00000000e+01  1.86410519e-04  3.00000000e+01  7.83144413e-08  3.00000000e+01 -5.46371675e-03  3.00000000e+01  5.27722792e-03 
 1.00000000e+02  1.15000000e+00  1.00000000e+02  0.00000000e+00  1.00000000e+02  0.00000000e+00  1.00000000e+02  1.15000000e+00  1.00000000e+02  0.00000000e+00  1.00000000e+02  1.71930856e-04  1.00000000e+02  8.41371015e-08  1.00000000e+02 -7.37296430e-03  1.00000000e+02  7.20094930e-03 
 3.00000000e+01  1.20000000e+00  3.00000000e+01  0.00000000e+00  3.00000000e+01  0.00000000e+00  3.00000000e+01  1.20000000e+00  3.00000000e+01  0.00000000e+00  3.00000000e+01  1.93438153e-04  3.00000000e+01  9.78745652e-08  3.00000000e+01 -6.87369673e-03  3.00000000e+01  6.68016070e-03 
 1.00000000e+02  1.20000000e+00  1.00000000e+02  0.00000000e+00  1.00000000e+02  0.00000000e+00  1.00000000e+02  1.20000000e+00  1.00000000e+02  0.00000000e+00  1.00000000e+02  1.78484409e-04  1.00000000e+02  1.06440083e-07  1.00000000e+02 -8.79470773e-03  1.00000000e+02  8.61611688e-03 
