  temp-sweep      abs(v(alim))    v(drain)        v(gate)         temp-sweep      v(source)       v(body)         i(vd)           temp-sweep      i(vg)           i(vs)           i(vb)
 3.00000000e+01  5.00000000e-02  3.00000000e+01  0.00000000e+00  3.00000000e+01  0.00000000e+00  3.00000000e+01  5.00000000e-02  3.00000000e+01  0.00000000e+00  3.00000000e+01  3.69571395e-08  3.00000000e+01  5.10939334e-11  3.00000000e+01 -3.70082334e-08  3.00000000e+01 -2.94315448e-18 
 1.00000000e+02  5.00000000e-02  1.00000000e+02  0.00000000e+00  1.00000000e+02  0.00000000e+00  1.00000000e+02  5.00000000e-02  1.00000000e+02  0.00000000e+00  1.00000000e+02  1.11538849e-07  1.00000000e+02  5.12136190e-11  1.00000000e+02 -1.11590076e-07  1.00000000e+02  1.32184697e-14 
 3.00000000e+01  1.00000000e-01  3.00000000e+01  0.00000000e+00  3.00000000e+01  0.00000000e+00  3.00000000e+01  1.00000000e-01  3.00000000e+01  0.00000000e+00  3.00000000e+01  1.99820902e-07  3.00000000e+01  1.31783139e-10  3.00000000e+01 -1.99952685e-07  3.00000000e+01 -5.94701402e-17 
 1.00000000e+02  1.00000000e-01  1.00000000e+02  0.00000000e+00  1.00000000e+02  0.00000000e+00  1.00000000e+02  1.00000000e-01  1.00000000e+02  0.00000000e+00  1.00000000e+02  4.60628081e-07  1.00000000e+02  1.32767322e-10  1.00000000e+02 -4.60760924e-07  1.00000000e+02  7.57486084e-14 
 3.00000000e+01  1.50000000e-01  3.00000000e+01  0.00000000e+00  3.00000000e+01  0.00000000e+00  3.00000000e+01  1.50000000e-01  3.00000000e+01  0.00000000e+00  3.00000000e+01  8.47793070e-07  3.00000000e+01  2.50742515e-10  3.00000000e+01 -8.48043812e-07  3.00000000e+01 -4.29763985e-16 
 1.00000000e+02  1.50000000e-01  1.00000000e+02  0.00000000e+00  1.00000000e+02  0.00000000e+00  1.00000000e+02  1.50000000e-01  1.00000000e+02  0.00000000e+00  1.00000000e+02  1.51077629e-06  1.00000000e+02  2.56179947e-10  1.00000000e+02 -1.51103284e-06  1.00000000e+02  3.71797747e-13 
 3.00000000e+01  2.00000000e-01  3.00000000e+01  0.00000000e+00  3.00000000e+01  0.00000000e+00  3.00000000e+01  2.00000000e-01  3.00000000e+01  0.00000000e+00  3.00000000e+01  2.99631830e-06  3.00000000e+01  4.39274907e-10  3.00000000e+01 -2.99675757e-06  3.00000000e+01 -1.79366063e-15 
 1.00000000e+02  2.00000000e-01  1.00000000e+02  0.00000000e+00  1.00000000e+02  0.00000000e+00  1.00000000e+02  2.00000000e-01  1.00000000e+02  0.00000000e+00  1.00000000e+02  4.27380002e-06  1.00000000e+02  4.58630226e-10  1.00000000e+02 -4.27426043e-06  1.00000000e+02  1.77451311e-12 
 3.00000000e+01  2.50000000e-01  3.00000000e+01  0.00000000e+00  3.00000000e+01  0.00000000e+00  3.00000000e+01  2.50000000e-01  3.00000000e+01  0.00000000e+00  3.00000000e+01  8.34600360e-06  3.00000000e+01  8.09533708e-10  3.00000000e+01 -8.34681313e-06  3.00000000e+01 -3.30579309e-15 
 1.00000000e+02  2.50000000e-01  1.00000000e+02  0.00000000e+00  1.00000000e+02  0.00000000e+00  1.00000000e+02  2.50000000e-01  1.00000000e+02  0.00000000e+00  1.00000000e+02  1.00430059e-05  1.00000000e+02  8.40628605e-10  1.00000000e+02 -1.00438550e-05  1.00000000e+02  8.42167009e-12 
 3.00000000e+01  3.00000000e-01  3.00000000e+01  0.00000000e+00  3.00000000e+01  0.00000000e+00  3.00000000e+01  3.00000000e-01  3.00000000e+01  0.00000000e+00  3.00000000e+01  1.79287614e-05  3.00000000e+01  1.48451560e-09  3.00000000e+01 -1.79302459e-05  3.00000000e+01  1.36364573e-14 
 1.00000000e+02  3.00000000e-01  1.00000000e+02  0.00000000e+00  1.00000000e+02  0.00000000e+00  1.00000000e+02  3.00000000e-01  1.00000000e+02  0.00000000e+00  1.00000000e+02  1.94056119e-05  1.00000000e+02  1.51211851e-09  1.00000000e+02 -1.94071639e-05  1.00000000e+02  3.99119902e-11 
 3.00000000e+01  3.50000000e-01  3.00000000e+01  0.00000000e+00  3.00000000e+01  0.00000000e+00  3.00000000e+01  3.50000000e-01  3.00000000e+01  0.00000000e+00  3.00000000e+01  3.12089955e-05  3.00000000e+01  2.47036644e-09  3.00000000e+01 -3.12114661e-05  3.00000000e+01  1.86975374e-13 
 1.00000000e+02  3.50000000e-01  1.00000000e+02  0.00000000e+00  1.00000000e+02  0.00000000e+00  1.00000000e+02  3.50000000e-01  1.00000000e+02  0.00000000e+00  1.00000000e+02  3.18492027e-05  1.00000000e+02  2.50277384e-09  1.00000000e+02 -3.18518945e-05  1.00000000e+02  1.89050804e-10 
 3.00000000e+01  4.00000000e-01  3.00000000e+01  0.00000000e+00  3.00000000e+01  0.00000000e+00  3.00000000e+01  4.00000000e-01  3.00000000e+01  0.00000000e+00  3.00000000e+01  4.70053694e-05  3.00000000e+01  3.77621499e-09  3.00000000e+01 -4.70091470e-05  3.00000000e+01  1.45435730e-12 
 1.00000000e+02  4.00000000e-01  1.00000000e+02  0.00000000e+00  1.00000000e+02  0.00000000e+00  1.00000000e+02  4.00000000e-01  1.00000000e+02  0.00000000e+00  1.00000000e+02  4.64094305e-05  1.00000000e+02  3.82720374e-09  1.00000000e+02 -4.64141530e-05  1.00000000e+02  8.95273570e-10 
 3.00000000e+01  4.50000000e-01  3.00000000e+01  0.00000000e+00  3.00000000e+01  0.00000000e+00  3.00000000e+01  4.50000000e-01  3.00000000e+01  0.00000000e+00  3.00000000e+01  6.43578646e-05  3.00000000e+01  5.43863649e-09  3.00000000e+01 -6.43633134e-05  3.00000000e+01  1.01712032e-11 
 1.00000000e+02  4.50000000e-01  1.00000000e+02  0.00000000e+00  1.00000000e+02  0.00000000e+00  1.00000000e+02  4.50000000e-01  1.00000000e+02  0.00000000e+00  1.00000000e+02  6.22713755e-05  1.00000000e+02  5.51962298e-09  1.00000000e+02 -6.22811345e-05  1.00000000e+02  4.23930135e-09 
 3.00000000e+01  5.00000000e-01  3.00000000e+01  0.00000000e+00  3.00000000e+01  0.00000000e+00  3.00000000e+01  5.00000000e-01  3.00000000e+01  0.00000000e+00  3.00000000e+01  8.26618862e-05  3.00000000e+01  7.50532097e-09  3.00000000e+01 -8.26694609e-05  3.00000000e+01  6.94287232e-11 
 1.00000000e+02  5.00000000e-01  1.00000000e+02  0.00000000e+00  1.00000000e+02  0.00000000e+00  1.00000000e+02  5.00000000e-01  1.00000000e+02  0.00000000e+00  1.00000000e+02  7.89075715e-05  1.00000000e+02  7.62672184e-09  1.00000000e+02 -7.89352713e-05  1.00000000e+02  2.00731090e-08 
 3.00000000e+01  5.50000000e-01  3.00000000e+01  0.00000000e+00  3.00000000e+01  0.00000000e+00  3.00000000e+01  5.50000000e-01  3.00000000e+01  0.00000000e+00  3.00000000e+01  1.01548565e-04  3.00000000e+01  1.00307467e-08  3.00000000e+01 -1.01559068e-04  3.00000000e+01  4.71405733e-10 
 1.00000000e+02  5.50000000e-01  1.00000000e+02  0.00000000e+00  1.00000000e+02  0.00000000e+00  1.00000000e+02  5.50000000e-01  1.00000000e+02  0.00000000e+00  1.00000000e+02  9.60018047e-05  1.00000000e+02  1.02031082e-08  1.00000000e+02 -9.61070477e-05  1.00000000e+02  9.50398980e-08 
 3.00000000e+01  6.00000000e-01  3.00000000e+01  0.00000000e+00  3.00000000e+01  0.00000000e+00  3.00000000e+01  6.00000000e-01  3.00000000e+01  0.00000000e+00  3.00000000e+01  1.20775027e-04  3.00000000e+01  1.30759842e-08  3.00000000e+01 -1.20791300e-04  3.00000000e+01  3.19720349e-09 
 1.00000000e+02  6.00000000e-01  1.00000000e+02  0.00000000e+00  1.00000000e+02  0.00000000e+00  1.00000000e+02  6.00000000e-01  1.00000000e+02  0.00000000e+00  1.00000000e+02  1.13354118e-04  1.00000000e+02  1.33105787e-08  1.00000000e+02 -1.13817289e-04  1.00000000e+02  4.49860536e-07 
 3.00000000e+01  6.50000000e-01  3.00000000e+01  0.00000000e+00  3.00000000e+01  0.00000000e+00  3.00000000e+01  6.50000000e-01  3.00000000e+01  0.00000000e+00  3.00000000e+01  1.40153948e-04  3.00000000e+01  1.67095106e-08  3.00000000e+01 -1.40192337e-04  3.00000000e+01  2.16791595e-08 
 1.00000000e+02  6.50000000e-01  1.00000000e+02  0.00000000e+00  1.00000000e+02  0.00000000e+00  1.00000000e+02  6.50000000e-01  1.00000000e+02  0.00000000e+00  1.00000000e+02  1.30811157e-04  1.00000000e+02  1.70188008e-08  1.00000000e+02 -1.32954800e-04  1.00000000e+02  2.12662386e-06 
 3.00000000e+01  7.00000000e-01  3.00000000e+01  0.00000000e+00  3.00000000e+01  0.00000000e+00  3.00000000e+01  7.00000000e-01  3.00000000e+01  0.00000000e+00  3.00000000e+01  1.59491801e-04  3.00000000e+01  2.10088180e-08  3.00000000e+01 -1.59659784e-04  3.00000000e+01  1.46974064e-07 
 1.00000000e+02  7.00000000e-01  1.00000000e+02  0.00000000e+00  1.00000000e+02  0.00000000e+00  1.00000000e+02  7.00000000e-01  1.00000000e+02  0.00000000e+00  1.00000000e+02  1.48202593e-04  1.00000000e+02  2.14069844e-08  1.00000000e+02 -1.58216471e-04  1.00000000e+02  9.99247032e-06 
 3.00000000e+01  7.50000000e-01  3.00000000e+01  0.00000000e+00  3.00000000e+01  0.00000000e+00  3.00000000e+01  7.50000000e-01  3.00000000e+01  0.00000000e+00  3.00000000e+01  1.78480638e-04  3.00000000e+01  2.60637144e-08  3.00000000e+01 -1.79502244e-04  3.00000000e+01  9.95542088e-07 
 1.00000000e+02  7.50000000e-01  1.00000000e+02  0.00000000e+00  1.00000000e+02  0.00000000e+00  1.00000000e+02  7.50000000e-01  1.00000000e+02  0.00000000e+00  1.00000000e+02  1.65230889e-04  1.00000000e+02  2.65674916e-08  1.00000000e+02 -2.10917698e-04  1.00000000e+02  4.56602414e-05 
 3.00000000e+01  8.00000000e-01  3.00000000e+01  0.00000000e+00  3.00000000e+01  0.00000000e+00  3.00000000e+01  8.00000000e-01  3.00000000e+01  0.00000000e+00  3.00000000e+01  1.96420703e-04  3.00000000e+01  3.19832925e-08  3.00000000e+01 -2.03156976e-04  3.00000000e+01  6.70428971e-06 
 1.00000000e+02  8.00000000e-01  1.00000000e+02  0.00000000e+00  1.00000000e+02  0.00000000e+00  1.00000000e+02  8.00000000e-01  1.00000000e+02  0.00000000e+00  1.00000000e+02  1.81231828e-04  1.00000000e+02  3.26136033e-08  1.00000000e+02 -3.69646628e-04  1.00000000e+02  1.88382187e-04 
 3.00000000e+01  8.50000000e-01  3.00000000e+01  0.00000000e+00  3.00000000e+01  0.00000000e+00  3.00000000e+01  8.50000000e-01  3.00000000e+01  0.00000000e+00  3.00000000e+01  2.11954978e-04  3.00000000e+01  3.88981149e-08  3.00000000e+01 -2.55494416e-04  3.00000000e+01  4.35005392e-05 
 1.00000000e+02  8.50000000e-01  1.00000000e+02  0.00000000e+00  1.00000000e+02  0.00000000e+00  1.00000000e+02  8.50000000e-01  1.00000000e+02  0.00000000e+00  1.00000000e+02  1.95183162e-04  1.00000000e+02  3.96912200e-08  1.00000000e+02 -7.93894942e-04  1.00000000e+02  5.98672089e-04 
 3.00000000e+01  9.00000000e-01  3.00000000e+01  0.00000000e+00  3.00000000e+01  0.00000000e+00  3.00000000e+01  9.00000000e-01  3.00000000e+01  0.00000000e+00  3.00000000e+01  2.25283232e-04  3.00000000e+01  4.69270972e-08  3.00000000e+01 -4.59990163e-04  3.00000000e+01  2.34660004e-04 
 1.00000000e+02  9.00000000e-01  1.00000000e+02  0.00000000e+00  1.00000000e+02  0.00000000e+00  1.00000000e+02  9.00000000e-01  1.00000000e+02  0.00000000e+00  1.00000000e+02  2.07420976e-04  1.00000000e+02  4.79900083e-08  1.00000000e+02 -1.56394673e-03  1.00000000e+02  1.35647777e-03 
 3.00000000e+01  9.50000000e-01  3.00000000e+01  0.00000000e+00  3.00000000e+01  0.00000000e+00  3.00000000e+01  9.50000000e-01  3.00000000e+01  0.00000000e+00  3.00000000e+01  2.38021198e-04  3.00000000e+01  5.62599022e-08  3.00000000e+01 -1.04268975e-03  3.00000000e+01  8.04612292e-04 
 1.00000000e+02  9.50000000e-01  1.00000000e+02  0.00000000e+00  1.00000000e+02  0.00000000e+00  1.00000000e+02  9.50000000e-01  1.00000000e+02  0.00000000e+00  1.00000000e+02  2.19185053e-04  1.00000000e+02  5.78043244e-08  1.00000000e+02 -2.59822439e-03  1.00000000e+02  2.37898153e-03 
 3.00000000e+01  1.00000000e+00  3.00000000e+01  0.00000000e+00  3.00000000e+01  0.00000000e+00  3.00000000e+01  1.00000000e+00  3.00000000e+01  0.00000000e+00  3.00000000e+01  2.50406252e-04  3.00000000e+01  6.72756624e-08  3.00000000e+01 -2.00391802e-03  3.00000000e+01  1.75344450e-03 
 1.00000000e+02  1.00000000e+00  1.00000000e+02  0.00000000e+00  1.00000000e+02  0.00000000e+00  1.00000000e+02  1.00000000e+00  1.00000000e+02  0.00000000e+00  1.00000000e+02  2.30669476e-04  1.00000000e+02  6.96564528e-08  1.00000000e+02 -3.79375752e-03  1.00000000e+02  3.56301838e-03 
 3.00000000e+01  1.05000000e+00  3.00000000e+01  0.00000000e+00  3.00000000e+01  0.00000000e+00  3.00000000e+01  1.05000000e+00  3.00000000e+01  0.00000000e+00  3.00000000e+01  2.62391128e-04  3.00000000e+01  8.06560108e-08  3.00000000e+01 -3.18800803e-03  3.00000000e+01  2.92553625e-03 
 1.00000000e+02  1.05000000e+00  1.00000000e+02  0.00000000e+00  1.00000000e+02  0.00000000e+00  1.00000000e+02  1.05000000e+00  1.00000000e+02  0.00000000e+00  1.00000000e+02  2.41811697e-04  1.00000000e+02  8.44160120e-08  1.00000000e+02 -5.08786587e-03  1.00000000e+02  4.84596976e-03 
 3.00000000e+01  1.10000000e+00  3.00000000e+01  0.00000000e+00  3.00000000e+01  0.00000000e+00  3.00000000e+01  1.10000000e+00  3.00000000e+01  0.00000000e+00  3.00000000e+01  2.73958914e-04  3.00000000e+01  9.75658260e-08  3.00000000e+01 -4.49346040e-03  3.00000000e+01  4.21940392e-03 
 1.00000000e+02  1.10000000e+00  1.00000000e+02  0.00000000e+00  1.00000000e+02  0.00000000e+00  1.00000000e+02  1.10000000e+00  1.00000000e+02  0.00000000e+00  1.00000000e+02  2.52581064e-04  1.00000000e+02  1.03441272e-07  1.00000000e+02 -6.44570304e-03  1.00000000e+02  6.19301854e-03 
 3.00000000e+01  1.15000000e+00  3.00000000e+01  0.00000000e+00  3.00000000e+01  0.00000000e+00  3.00000000e+01  1.15000000e+00  3.00000000e+01  0.00000000e+00  3.00000000e+01  2.85111495e-04  3.00000000e+01  1.19778424e-07  3.00000000e+01 -5.87024280e-03  3.00000000e+01  5.58501153e-03 
 1.00000000e+02  1.15000000e+00  1.00000000e+02  0.00000000e+00  1.00000000e+02  0.00000000e+00  1.00000000e+02  1.15000000e+00  1.00000000e+02  0.00000000e+00  1.00000000e+02  2.62972625e-04  1.00000000e+02  1.28687996e-07  1.00000000e+02 -7.84719588e-03  1.00000000e+02  7.58409457e-03 
 3.00000000e+01  1.20000000e+00  3.00000000e+01  0.00000000e+00  3.00000000e+01  0.00000000e+00  3.00000000e+01  1.20000000e+00  3.00000000e+01  0.00000000e+00  3.00000000e+01  2.95858110e-04  3.00000000e+01  1.49696151e-07  3.00000000e+01 -7.29264082e-03  3.00000000e+01  6.99663302e-03 
 1.00000000e+02  1.20000000e+00  1.00000000e+02  0.00000000e+00  1.00000000e+02  0.00000000e+00  1.00000000e+02  1.20000000e+00  1.00000000e+02  0.00000000e+00  1.00000000e+02  2.72992678e-04  1.00000000e+02  1.62801557e-07  1.00000000e+02 -9.28004978e-03  1.00000000e+02  9.00689430e-03 
