Title: *pmos on - w6
Date: Tue Feb 15 20:31:47  2022
Plotname: DC transfer characteristic
Flags: real
No. Variables: 10
No. Points: 2
Variables:
	0	temp-sweep	temp-sweep
	1	abs(v(alim))	voltage
	2	v(drain)	voltage
	3	v(gate)	voltage
	4	v(source)	voltage
	5	v(body)	voltage
	6	i(i(vd))	current
	7	i(i(vg))	current
	8	i(i(vs))	current
	9	i(i(vb))	current
Values:
 0	3.000000000000000e+01
	5.000000000000000e-02
	0.000000000000000e+00
	0.000000000000000e+00
	5.000000000000000e-02
	0.000000000000000e+00
	3.695713946172525e-08
	5.109393344598988e-11
	-3.700823339222810e-08
	-2.943154476086516e-18

 1	1.000000000000000e+02
	5.000000000000000e-02
	0.000000000000000e+00
	0.000000000000000e+00
	5.000000000000000e-02
	0.000000000000000e+00
	1.115388492996625e-07
	5.121361898979888e-11
	-1.115900761371220e-07
	1.321846971912926e-14

Title: *pmos on - w6
Date: Tue Feb 15 20:31:47  2022
Plotname: DC transfer characteristic
Flags: real
No. Variables: 10
No. Points: 2
Variables:
	0	temp-sweep	temp-sweep
	1	abs(v(alim))	voltage
	2	v(drain)	voltage
	3	v(gate)	voltage
	4	v(source)	voltage
	5	v(body)	voltage
	6	i(i(vd))	current
	7	i(i(vg))	current
	8	i(i(vs))	current
	9	i(i(vb))	current
Values:
 0	3.000000000000000e+01
	1.000000000000000e-01
	0.000000000000000e+00
	0.000000000000000e+00
	1.000000000000000e-01
	0.000000000000000e+00
	1.998209019889529e-07
	1.317831385967018e-10
	-1.999526850680794e-07
	-5.947014018471343e-17

 1	1.000000000000000e+02
	1.000000000000000e-01
	0.000000000000000e+00
	0.000000000000000e+00
	1.000000000000000e-01
	0.000000000000000e+00
	4.606280806589642e-07
	1.327673219721844e-10
	-4.607609237295449e-07
	7.574860838755091e-14

Title: *pmos on - w6
Date: Tue Feb 15 20:31:47  2022
Plotname: DC transfer characteristic
Flags: real
No. Variables: 10
No. Points: 2
Variables:
	0	temp-sweep	temp-sweep
	1	abs(v(alim))	voltage
	2	v(drain)	voltage
	3	v(gate)	voltage
	4	v(source)	voltage
	5	v(body)	voltage
	6	i(i(vd))	current
	7	i(i(vg))	current
	8	i(i(vs))	current
	9	i(i(vb))	current
Values:
 0	3.000000000000000e+01
	1.500000000000000e-01
	0.000000000000000e+00
	0.000000000000000e+00
	1.500000000000000e-01
	0.000000000000000e+00
	8.477930699462277e-07
	2.507425153807642e-10
	-8.480438120318448e-07
	-4.297639848294386e-16

 1	1.000000000000000e+02
	1.500000000000000e-01
	0.000000000000000e+00
	0.000000000000000e+00
	1.500000000000000e-01
	0.000000000000000e+00
	1.510776291774474e-06
	2.561799468110293e-10
	-1.511032843519031e-06
	3.717977471356261e-13

Title: *pmos on - w6
Date: Tue Feb 15 20:31:47  2022
Plotname: DC transfer characteristic
Flags: real
No. Variables: 10
No. Points: 2
Variables:
	0	temp-sweep	temp-sweep
	1	abs(v(alim))	voltage
	2	v(drain)	voltage
	3	v(gate)	voltage
	4	v(source)	voltage
	5	v(body)	voltage
	6	i(i(vd))	current
	7	i(i(vg))	current
	8	i(i(vs))	current
	9	i(i(vb))	current
Values:
 0	3.000000000000000e+01
	2.000000000000000e-01
	0.000000000000000e+00
	0.000000000000000e+00
	2.000000000000000e-01
	0.000000000000000e+00
	2.996318298179111e-06
	4.392749072228302e-10
	-2.996757571292675e-06
	-1.793660627149573e-15

 1	1.000000000000000e+02
	2.000000000000000e-01
	0.000000000000000e+00
	0.000000000000000e+00
	2.000000000000000e-01
	0.000000000000000e+00
	4.273800024364181e-06
	4.586302257718577e-10
	-4.274260429103066e-06
	1.774513110539431e-12

Title: *pmos on - w6
Date: Tue Feb 15 20:31:47  2022
Plotname: DC transfer characteristic
Flags: real
No. Variables: 10
No. Points: 2
Variables:
	0	temp-sweep	temp-sweep
	1	abs(v(alim))	voltage
	2	v(drain)	voltage
	3	v(gate)	voltage
	4	v(source)	voltage
	5	v(body)	voltage
	6	i(i(vd))	current
	7	i(i(vg))	current
	8	i(i(vs))	current
	9	i(i(vb))	current
Values:
 0	3.000000000000000e+01
	2.500000000000000e-01
	0.000000000000000e+00
	0.000000000000000e+00
	2.500000000000000e-01
	0.000000000000000e+00
	8.346003596773916e-06
	8.095337082531156e-10
	-8.346813127176366e-06
	-3.305793094412713e-15

 1	1.000000000000000e+02
	2.500000000000000e-01
	0.000000000000000e+00
	0.000000000000000e+00
	2.500000000000000e-01
	0.000000000000000e+00
	1.004300590425526e-05
	8.406286049960888e-10
	-1.004385495453035e-05
	8.421670088838958e-12

Title: *pmos on - w6
Date: Tue Feb 15 20:31:47  2022
Plotname: DC transfer characteristic
Flags: real
No. Variables: 10
No. Points: 2
Variables:
	0	temp-sweep	temp-sweep
	1	abs(v(alim))	voltage
	2	v(drain)	voltage
	3	v(gate)	voltage
	4	v(source)	voltage
	5	v(body)	voltage
	6	i(i(vd))	current
	7	i(i(vg))	current
	8	i(i(vs))	current
	9	i(i(vb))	current
Values:
 0	3.000000000000000e+01
	3.000000000000000e-01
	0.000000000000000e+00
	0.000000000000000e+00
	3.000000000000000e-01
	0.000000000000000e+00
	1.792876139360329e-05
	1.484515598806079e-09
	-1.793024592283856e-05
	1.363645731585829e-14

 1	1.000000000000000e+02
	3.000000000000000e-01
	0.000000000000000e+00
	0.000000000000000e+00
	3.000000000000000e-01
	0.000000000000000e+00
	1.940561187640652e-05
	1.512118513638938e-09
	-1.940716390691039e-05
	3.991199023228666e-11

Title: *pmos on - w6
Date: Tue Feb 15 20:31:47  2022
Plotname: DC transfer characteristic
Flags: real
No. Variables: 10
No. Points: 2
Variables:
	0	temp-sweep	temp-sweep
	1	abs(v(alim))	voltage
	2	v(drain)	voltage
	3	v(gate)	voltage
	4	v(source)	voltage
	5	v(body)	voltage
	6	i(i(vd))	current
	7	i(i(vg))	current
	8	i(i(vs))	current
	9	i(i(vb))	current
Values:
 0	3.000000000000000e+01
	3.500000000000000e-01
	0.000000000000000e+00
	0.000000000000000e+00
	3.500000000000000e-01
	0.000000000000000e+00
	3.120899552598757e-05
	2.470366435929187e-09
	-3.121146607939889e-05
	1.869753737830163e-13

 1	1.000000000000000e+02
	3.500000000000000e-01
	0.000000000000000e+00
	0.000000000000000e+00
	3.500000000000000e-01
	0.000000000000000e+00
	3.184920271944101e-05
	2.502773835493229e-09
	-3.185189454408098e-05
	1.890508044830422e-10

Title: *pmos on - w6
Date: Tue Feb 15 20:31:47  2022
Plotname: DC transfer characteristic
Flags: real
No. Variables: 10
No. Points: 2
Variables:
	0	temp-sweep	temp-sweep
	1	abs(v(alim))	voltage
	2	v(drain)	voltage
	3	v(gate)	voltage
	4	v(source)	voltage
	5	v(body)	voltage
	6	i(i(vd))	current
	7	i(i(vg))	current
	8	i(i(vs))	current
	9	i(i(vb))	current
Values:
 0	3.000000000000000e+01
	4.000000000000000e-01
	0.000000000000000e+00
	0.000000000000000e+00
	4.000000000000000e-01
	0.000000000000000e+00
	4.700536935248432e-05
	3.776214988257821e-09
	-4.700914702182990e-05
	1.454357296736209e-12

 1	1.000000000000000e+02
	4.000000000000000e-01
	0.000000000000000e+00
	0.000000000000000e+00
	4.000000000000000e-01
	0.000000000000000e+00
	4.640943050533799e-05
	3.827203737685241e-09
	-4.641415298264566e-05
	8.952735699850205e-10

Title: *pmos on - w6
Date: Tue Feb 15 20:31:47  2022
Plotname: DC transfer characteristic
Flags: real
No. Variables: 10
No. Points: 2
Variables:
	0	temp-sweep	temp-sweep
	1	abs(v(alim))	voltage
	2	v(drain)	voltage
	3	v(gate)	voltage
	4	v(source)	voltage
	5	v(body)	voltage
	6	i(i(vd))	current
	7	i(i(vg))	current
	8	i(i(vs))	current
	9	i(i(vb))	current
Values:
 0	3.000000000000000e+01
	4.500000000000000e-01
	0.000000000000000e+00
	0.000000000000000e+00
	4.500000000000000e-01
	0.000000000000000e+00
	6.435786463537223e-05
	5.438636487207135e-09
	-6.436331344306265e-05
	1.017120321625329e-11

 1	1.000000000000000e+02
	4.500000000000000e-01
	0.000000000000000e+00
	0.000000000000000e+00
	4.500000000000000e-01
	0.000000000000000e+00
	6.227137553504539e-05
	5.519622975860476e-09
	-6.228113445937222e-05
	4.239301351024187e-09

Title: *pmos on - w6
Date: Tue Feb 15 20:31:47  2022
Plotname: DC transfer characteristic
Flags: real
No. Variables: 10
No. Points: 2
Variables:
	0	temp-sweep	temp-sweep
	1	abs(v(alim))	voltage
	2	v(drain)	voltage
	3	v(gate)	voltage
	4	v(source)	voltage
	5	v(body)	voltage
	6	i(i(vd))	current
	7	i(i(vg))	current
	8	i(i(vs))	current
	9	i(i(vb))	current
Values:
 0	3.000000000000000e+01
	4.999999999999999e-01
	0.000000000000000e+00
	0.000000000000000e+00
	4.999999999999999e-01
	0.000000000000000e+00
	8.266188618607263e-05
	7.505320969953926e-09
	-8.266946093576580e-05
	6.942872316698554e-11

 1	1.000000000000000e+02
	4.999999999999999e-01
	0.000000000000000e+00
	0.000000000000000e+00
	4.999999999999999e-01
	0.000000000000000e+00
	7.890757151048393e-05
	7.626721843499761e-09
	-7.893527134137391e-05
	2.007310904645616e-08

Title: *pmos on - w6
Date: Tue Feb 15 20:31:47  2022
Plotname: DC transfer characteristic
Flags: real
No. Variables: 10
No. Points: 2
Variables:
	0	temp-sweep	temp-sweep
	1	abs(v(alim))	voltage
	2	v(drain)	voltage
	3	v(gate)	voltage
	4	v(source)	voltage
	5	v(body)	voltage
	6	i(i(vd))	current
	7	i(i(vg))	current
	8	i(i(vs))	current
	9	i(i(vb))	current
Values:
 0	3.000000000000000e+01
	5.499999999999999e-01
	0.000000000000000e+00
	0.000000000000000e+00
	5.499999999999999e-01
	0.000000000000000e+00
	1.015485654862725e-04
	1.003074666876094e-08
	-1.015590676386738e-04
	4.714057325322016e-10

 1	1.000000000000000e+02
	5.499999999999999e-01
	0.000000000000000e+00
	0.000000000000000e+00
	5.499999999999999e-01
	0.000000000000000e+00
	9.600180465157740e-05
	1.020310820346005e-08
	-9.610704765773261e-05
	9.503989795171701e-08

Title: *pmos on - w6
Date: Tue Feb 15 20:31:47  2022
Plotname: DC transfer characteristic
Flags: real
No. Variables: 10
No. Points: 2
Variables:
	0	temp-sweep	temp-sweep
	1	abs(v(alim))	voltage
	2	v(drain)	voltage
	3	v(gate)	voltage
	4	v(source)	voltage
	5	v(body)	voltage
	6	i(i(vd))	current
	7	i(i(vg))	current
	8	i(i(vs))	current
	9	i(i(vb))	current
Values:
 0	3.000000000000000e+01
	6.000000000000000e-01
	0.000000000000000e+00
	0.000000000000000e+00
	6.000000000000000e-01
	0.000000000000000e+00
	1.207750269034569e-04
	1.307598415388444e-08
	-1.207913000911035e-04
	3.197203492700997e-09

 1	1.000000000000000e+02
	6.000000000000000e-01
	0.000000000000000e+00
	0.000000000000000e+00
	6.000000000000000e-01
	0.000000000000000e+00
	1.133541176785188e-04
	1.331057871224916e-08
	-1.138172887936916e-04
	4.498605364604738e-07

Title: *pmos on - w6
Date: Tue Feb 15 20:31:47  2022
Plotname: DC transfer characteristic
Flags: real
No. Variables: 10
No. Points: 2
Variables:
	0	temp-sweep	temp-sweep
	1	abs(v(alim))	voltage
	2	v(drain)	voltage
	3	v(gate)	voltage
	4	v(source)	voltage
	5	v(body)	voltage
	6	i(i(vd))	current
	7	i(i(vg))	current
	8	i(i(vs))	current
	9	i(i(vb))	current
Values:
 0	3.000000000000000e+01
	6.500000000000000e-01
	0.000000000000000e+00
	0.000000000000000e+00
	6.500000000000000e-01
	0.000000000000000e+00
	1.401539482199762e-04
	1.670951058059013e-08
	-1.401923368900673e-04
	2.167915951053743e-08

 1	1.000000000000000e+02
	6.500000000000000e-01
	0.000000000000000e+00
	0.000000000000000e+00
	6.500000000000000e-01
	0.000000000000000e+00
	1.308111570787955e-04
	1.701880080859214e-08
	-1.329547997372857e-04
	2.126623857681726e-06

Title: *pmos on - w6
Date: Tue Feb 15 20:31:47  2022
Plotname: DC transfer characteristic
Flags: real
No. Variables: 10
No. Points: 2
Variables:
	0	temp-sweep	temp-sweep
	1	abs(v(alim))	voltage
	2	v(drain)	voltage
	3	v(gate)	voltage
	4	v(source)	voltage
	5	v(body)	voltage
	6	i(i(vd))	current
	7	i(i(vg))	current
	8	i(i(vs))	current
	9	i(i(vb))	current
Values:
 0	3.000000000000000e+01
	7.000000000000001e-01
	0.000000000000000e+00
	0.000000000000000e+00
	7.000000000000001e-01
	0.000000000000000e+00
	1.594918006454270e-04
	2.100881795724989e-08
	-1.596597835272307e-04
	1.469740638465278e-07

 1	1.000000000000000e+02
	7.000000000000001e-01
	0.000000000000000e+00
	0.000000000000000e+00
	7.000000000000001e-01
	0.000000000000000e+00
	1.482025933434271e-04
	2.140698444724869e-08
	-1.582164706441704e-04
	9.992470316296029e-06

Title: *pmos on - w6
Date: Tue Feb 15 20:31:47  2022
Plotname: DC transfer characteristic
Flags: real
No. Variables: 10
No. Points: 2
Variables:
	0	temp-sweep	temp-sweep
	1	abs(v(alim))	voltage
	2	v(drain)	voltage
	3	v(gate)	voltage
	4	v(source)	voltage
	5	v(body)	voltage
	6	i(i(vd))	current
	7	i(i(vg))	current
	8	i(i(vs))	current
	9	i(i(vb))	current
Values:
 0	3.000000000000000e+01
	7.500000000000001e-01
	0.000000000000000e+00
	0.000000000000000e+00
	7.500000000000001e-01
	0.000000000000000e+00
	1.784806381690814e-04
	2.606371437948571e-08
	-1.795022439714946e-04
	9.955420880337304e-07

 1	1.000000000000000e+02
	7.500000000000001e-01
	0.000000000000000e+00
	0.000000000000000e+00
	7.500000000000001e-01
	0.000000000000000e+00
	1.652308890493159e-04
	2.656749160782108e-08
	-2.109176979754148e-04
	4.566024143449107e-05

Title: *pmos on - w6
Date: Tue Feb 15 20:31:47  2022
Plotname: DC transfer characteristic
Flags: real
No. Variables: 10
No. Points: 2
Variables:
	0	temp-sweep	temp-sweep
	1	abs(v(alim))	voltage
	2	v(drain)	voltage
	3	v(gate)	voltage
	4	v(source)	voltage
	5	v(body)	voltage
	6	i(i(vd))	current
	7	i(i(vg))	current
	8	i(i(vs))	current
	9	i(i(vb))	current
Values:
 0	3.000000000000000e+01
	8.000000000000002e-01
	0.000000000000000e+00
	0.000000000000000e+00
	8.000000000000002e-01
	0.000000000000000e+00
	1.964207028757201e-04
	3.198329245000054e-08
	-2.031569758745274e-04
	6.704289706357326e-06

 1	1.000000000000000e+02
	8.000000000000002e-01
	0.000000000000000e+00
	0.000000000000000e+00
	8.000000000000002e-01
	0.000000000000000e+00
	1.812318277646807e-04
	3.261360327549191e-08
	-3.696466283460876e-04
	1.883821869781310e-04

Title: *pmos on - w6
Date: Tue Feb 15 20:31:47  2022
Plotname: DC transfer characteristic
Flags: real
No. Variables: 10
No. Points: 2
Variables:
	0	temp-sweep	temp-sweep
	1	abs(v(alim))	voltage
	2	v(drain)	voltage
	3	v(gate)	voltage
	4	v(source)	voltage
	5	v(body)	voltage
	6	i(i(vd))	current
	7	i(i(vg))	current
	8	i(i(vs))	current
	9	i(i(vb))	current
Values:
 0	3.000000000000000e+01
	8.500000000000002e-01
	0.000000000000000e+00
	0.000000000000000e+00
	8.500000000000002e-01
	0.000000000000000e+00
	2.119549782788041e-04
	3.889811485815006e-08
	-2.554944156065532e-04
	4.350053921289080e-05

 1	1.000000000000000e+02
	8.500000000000002e-01
	0.000000000000000e+00
	0.000000000000000e+00
	8.500000000000002e-01
	0.000000000000000e+00
	1.951831617818643e-04
	3.969121999235838e-08
	-7.938949415679159e-04
	5.986720885660561e-04

Title: *pmos on - w6
Date: Tue Feb 15 20:31:47  2022
Plotname: DC transfer characteristic
Flags: real
No. Variables: 10
No. Points: 2
Variables:
	0	temp-sweep	temp-sweep
	1	abs(v(alim))	voltage
	2	v(drain)	voltage
	3	v(gate)	voltage
	4	v(source)	voltage
	5	v(body)	voltage
	6	i(i(vd))	current
	7	i(i(vg))	current
	8	i(i(vs))	current
	9	i(i(vb))	current
Values:
 0	3.000000000000000e+01
	9.000000000000002e-01
	0.000000000000000e+00
	0.000000000000000e+00
	9.000000000000002e-01
	0.000000000000000e+00
	2.252832320589019e-04
	4.692709716935715e-08
	-4.599901627721629e-04
	2.346600036160899e-04

 1	1.000000000000000e+02
	9.000000000000002e-01
	0.000000000000000e+00
	0.000000000000000e+00
	9.000000000000002e-01
	0.000000000000000e+00
	2.074209755876377e-04
	4.799000833561740e-08
	-1.563946734783960e-03
	1.356477769187987e-03

Title: *pmos on - w6
Date: Tue Feb 15 20:31:47  2022
Plotname: DC transfer characteristic
Flags: real
No. Variables: 10
No. Points: 2
Variables:
	0	temp-sweep	temp-sweep
	1	abs(v(alim))	voltage
	2	v(drain)	voltage
	3	v(gate)	voltage
	4	v(source)	voltage
	5	v(body)	voltage
	6	i(i(vd))	current
	7	i(i(vg))	current
	8	i(i(vs))	current
	9	i(i(vb))	current
Values:
 0	3.000000000000000e+01
	9.500000000000003e-01
	0.000000000000000e+00
	0.000000000000000e+00
	9.500000000000003e-01
	0.000000000000000e+00
	2.380211982197579e-04
	5.625990222233528e-08
	-1.042689749855477e-03
	8.046122917334990e-04

 1	1.000000000000000e+02
	9.500000000000003e-01
	0.000000000000000e+00
	0.000000000000000e+00
	9.500000000000003e-01
	0.000000000000000e+00
	2.191850528192227e-04
	5.780432440023676e-08
	-2.598224391025100e-03
	2.378981533881479e-03

Title: *pmos on - w6
Date: Tue Feb 15 20:31:47  2022
Plotname: DC transfer characteristic
Flags: real
No. Variables: 10
No. Points: 2
Variables:
	0	temp-sweep	temp-sweep
	1	abs(v(alim))	voltage
	2	v(drain)	voltage
	3	v(gate)	voltage
	4	v(source)	voltage
	5	v(body)	voltage
	6	i(i(vd))	current
	7	i(i(vg))	current
	8	i(i(vs))	current
	9	i(i(vb))	current
Values:
 0	3.000000000000000e+01
	1.000000000000000e+00
	0.000000000000000e+00
	0.000000000000000e+00
	1.000000000000000e+00
	0.000000000000000e+00
	2.504062520066409e-04
	6.727566238798898e-08
	-2.003918023368243e-03
	1.753444495699217e-03

 1	1.000000000000000e+02
	1.000000000000000e+00
	0.000000000000000e+00
	0.000000000000000e+00
	1.000000000000000e+00
	0.000000000000000e+00
	2.306694761951198e-04
	6.965645275926486e-08
	-3.793757517556346e-03
	3.563018384908462e-03

Title: *pmos on - w6
Date: Tue Feb 15 20:31:47  2022
Plotname: DC transfer characteristic
Flags: real
No. Variables: 10
No. Points: 2
Variables:
	0	temp-sweep	temp-sweep
	1	abs(v(alim))	voltage
	2	v(drain)	voltage
	3	v(gate)	voltage
	4	v(source)	voltage
	5	v(body)	voltage
	6	i(i(vd))	current
	7	i(i(vg))	current
	8	i(i(vs))	current
	9	i(i(vb))	current
Values:
 0	3.000000000000000e+01
	1.050000000000000e+00
	0.000000000000000e+00
	0.000000000000000e+00
	1.050000000000000e+00
	0.000000000000000e+00
	2.623911281162238e-04
	8.065601078338029e-08
	-3.188008030626279e-03
	2.925536246499269e-03

 1	1.000000000000000e+02
	1.050000000000000e+00
	0.000000000000000e+00
	0.000000000000000e+00
	1.050000000000000e+00
	0.000000000000000e+00
	2.418116972019902e-04
	8.441601204934603e-08
	-5.087865871821161e-03
	4.845969758607115e-03

Title: *pmos on - w6
Date: Tue Feb 15 20:31:47  2022
Plotname: DC transfer characteristic
Flags: real
No. Variables: 10
No. Points: 2
Variables:
	0	temp-sweep	temp-sweep
	1	abs(v(alim))	voltage
	2	v(drain)	voltage
	3	v(gate)	voltage
	4	v(source)	voltage
	5	v(body)	voltage
	6	i(i(vd))	current
	7	i(i(vg))	current
	8	i(i(vs))	current
	9	i(i(vb))	current
Values:
 0	3.000000000000000e+01
	1.100000000000000e+00
	0.000000000000000e+00
	0.000000000000000e+00
	1.100000000000000e+00
	0.000000000000000e+00
	2.739589140357664e-04
	9.756582599952381e-08
	-4.493460399030903e-03
	4.219403919169109e-03

 1	1.000000000000000e+02
	1.100000000000000e+00
	0.000000000000000e+00
	0.000000000000000e+00
	1.100000000000000e+00
	0.000000000000000e+00
	2.525810637606441e-04
	1.034412720368304e-07
	-6.445703044737397e-03
	6.193018539704716e-03

Title: *pmos on - w6
Date: Tue Feb 15 20:31:47  2022
Plotname: DC transfer characteristic
Flags: real
No. Variables: 10
No. Points: 2
Variables:
	0	temp-sweep	temp-sweep
	1	abs(v(alim))	voltage
	2	v(drain)	voltage
	3	v(gate)	voltage
	4	v(source)	voltage
	5	v(body)	voltage
	6	i(i(vd))	current
	7	i(i(vg))	current
	8	i(i(vs))	current
	9	i(i(vb))	current
Values:
 0	3.000000000000000e+01
	1.150000000000000e+00
	0.000000000000000e+00
	0.000000000000000e+00
	1.150000000000000e+00
	0.000000000000000e+00
	2.851114950595264e-04
	1.197784241376438e-07
	-5.870242800657175e-03
	5.585011527173489e-03

 1	1.000000000000000e+02
	1.150000000000000e+00
	0.000000000000000e+00
	0.000000000000000e+00
	1.150000000000000e+00
	0.000000000000000e+00
	2.629726246971212e-04
	1.286879964626212e-07
	-7.847195883868400e-03
	7.584094571174854e-03

Title: *pmos on - w6
Date: Tue Feb 15 20:31:47  2022
Plotname: DC transfer characteristic
Flags: real
No. Variables: 10
No. Points: 2
Variables:
	0	temp-sweep	temp-sweep
	1	abs(v(alim))	voltage
	2	v(drain)	voltage
	3	v(gate)	voltage
	4	v(source)	voltage
	5	v(body)	voltage
	6	i(i(vd))	current
	7	i(i(vg))	current
	8	i(i(vs))	current
	9	i(i(vb))	current
Values:
 0	3.000000000000000e+01
	1.200000000000000e+00
	0.000000000000000e+00
	0.000000000000000e+00
	1.200000000000000e+00
	0.000000000000000e+00
	2.958581104246837e-04
	1.496961514557736e-07
	-7.292640822134381e-03
	6.996633015558191e-03

 1	1.000000000000000e+02
	1.200000000000000e+00
	0.000000000000000e+00
	0.000000000000000e+00
	1.200000000000000e+00
	0.000000000000000e+00
	2.729926777366134e-04
	1.628015570202200e-07
	-9.280049783132013e-03
	9.006894303838423e-03

