  temp-sweep      abs(v(alim))    v(drain)        v(gate)         temp-sweep      v(source)       v(body)         i(vd)           temp-sweep      i(vg)           i(vs)           i(vb)
 3.00000000e+01  5.00000000e-02  3.00000000e+01  0.00000000e+00  3.00000000e+01  0.00000000e+00  3.00000000e+01  5.00000000e-02  3.00000000e+01  0.00000000e+00  3.00000000e+01  4.97499954e-08  3.00000000e+01  6.87802950e-11  3.00000000e+01 -4.98187757e-08  3.00000000e+01 -3.96211165e-18 
 1.00000000e+02  5.00000000e-02  1.00000000e+02  0.00000000e+00  1.00000000e+02  0.00000000e+00  1.00000000e+02  5.00000000e-02  1.00000000e+02  0.00000000e+00  1.00000000e+02  1.50148451e-07  1.00000000e+02  6.89414101e-11  1.00000000e+02 -1.50217410e-07  1.00000000e+02  1.77940937e-14 
 3.00000000e+01  1.00000000e-01  3.00000000e+01  0.00000000e+00  3.00000000e+01  0.00000000e+00  3.00000000e+01  1.00000000e-01  3.00000000e+01  0.00000000e+00  3.00000000e+01  2.68989676e-07  3.00000000e+01  1.77400379e-10  3.00000000e+01 -2.69167076e-07  3.00000000e+01 -8.00563036e-17 
 1.00000000e+02  1.00000000e-01  1.00000000e+02  0.00000000e+00  1.00000000e+02  0.00000000e+00  1.00000000e+02  1.00000000e-01  1.00000000e+02  0.00000000e+00  1.00000000e+02  6.20076262e-07  1.00000000e+02  1.78725241e-10  1.00000000e+02 -6.20255089e-07  1.00000000e+02  1.01969280e-13 
 3.00000000e+01  1.50000000e-01  3.00000000e+01  0.00000000e+00  3.00000000e+01  0.00000000e+00  3.00000000e+01  1.50000000e-01  3.00000000e+01  0.00000000e+00  3.00000000e+01  1.14125990e-06  3.00000000e+01  3.37538001e-10  3.00000000e+01 -1.14159744e-06  3.00000000e+01 -5.78528958e-16 
 1.00000000e+02  1.50000000e-01  1.00000000e+02  0.00000000e+00  1.00000000e+02  0.00000000e+00  1.00000000e+02  1.50000000e-01  1.00000000e+02  0.00000000e+00  1.00000000e+02  2.03373731e-06  1.00000000e+02  3.44857620e-10  1.00000000e+02 -2.03408267e-06  1.00000000e+02  5.00496967e-13 
 3.00000000e+01  2.00000000e-01  3.00000000e+01  0.00000000e+00  3.00000000e+01  0.00000000e+00  3.00000000e+01  2.00000000e-01  3.00000000e+01  0.00000000e+00  3.00000000e+01  4.03350539e-06  3.00000000e+01  5.91331605e-10  3.00000000e+01 -4.03409672e-06  3.00000000e+01 -2.41454384e-15 
 1.00000000e+02  2.00000000e-01  1.00000000e+02  0.00000000e+00  1.00000000e+02  0.00000000e+00  1.00000000e+02  2.00000000e-01  1.00000000e+02  0.00000000e+00  1.00000000e+02  5.75319233e-06  1.00000000e+02  6.17386841e-10  1.00000000e+02 -5.75381210e-06  1.00000000e+02  2.38876765e-12 
 3.00000000e+01  2.50000000e-01  3.00000000e+01  0.00000000e+00  3.00000000e+01  0.00000000e+00  3.00000000e+01  2.50000000e-01  3.00000000e+01  0.00000000e+00  3.00000000e+01  1.12350048e-05  3.00000000e+01  1.08975691e-09  3.00000000e+01 -1.12360946e-05  3.00000000e+01 -4.45010692e-15 
 1.00000000e+02  2.50000000e-01  1.00000000e+02  0.00000000e+00  1.00000000e+02  0.00000000e+00  1.00000000e+02  2.50000000e-01  1.00000000e+02  0.00000000e+00  1.00000000e+02  1.35194310e-05  1.00000000e+02  1.13161543e-09  1.00000000e+02 -1.35205739e-05  1.00000000e+02  1.13368635e-11 
 3.00000000e+01  3.00000000e-01  3.00000000e+01  0.00000000e+00  3.00000000e+01  0.00000000e+00  3.00000000e+01  3.00000000e-01  3.00000000e+01  0.00000000e+00  3.00000000e+01  2.41348710e-05  3.00000000e+01  1.99838637e-09  3.00000000e+01 -2.41368694e-05  3.00000000e+01  1.83567685e-14 
 1.00000000e+02  3.00000000e-01  1.00000000e+02  0.00000000e+00  1.00000000e+02  0.00000000e+00  1.00000000e+02  3.00000000e-01  1.00000000e+02  0.00000000e+00  1.00000000e+02  2.61229390e-05  1.00000000e+02  2.03554414e-09  1.00000000e+02 -2.61250282e-05  1.00000000e+02  5.37276784e-11 
 3.00000000e+01  3.50000000e-01  3.00000000e+01  0.00000000e+00  3.00000000e+01  0.00000000e+00  3.00000000e+01  3.50000000e-01  3.00000000e+01  0.00000000e+00  3.00000000e+01  4.20121091e-05  3.00000000e+01  3.32549326e-09  3.00000000e+01 -4.20154349e-05  3.00000000e+01  2.51697618e-13 
 1.00000000e+02  3.50000000e-01  1.00000000e+02  0.00000000e+00  1.00000000e+02  0.00000000e+00  1.00000000e+02  3.50000000e-01  1.00000000e+02  0.00000000e+00  1.00000000e+02  4.28739265e-05  1.00000000e+02  3.36911860e-09  1.00000000e+02 -4.28775501e-05  1.00000000e+02  2.54491451e-10 
 3.00000000e+01  4.00000000e-01  3.00000000e+01  0.00000000e+00  3.00000000e+01  0.00000000e+00  3.00000000e+01  4.00000000e-01  3.00000000e+01  0.00000000e+00  3.00000000e+01  6.32764584e-05  3.00000000e+01  5.08336629e-09  3.00000000e+01 -6.32815437e-05  3.00000000e+01  1.95778867e-12 
 1.00000000e+02  4.00000000e-01  1.00000000e+02  0.00000000e+00  1.00000000e+02  0.00000000e+00  1.00000000e+02  4.00000000e-01  1.00000000e+02  0.00000000e+00  1.00000000e+02  6.24742329e-05  1.00000000e+02  5.15200499e-09  1.00000000e+02 -6.24805900e-05  1.00000000e+02  1.20517560e-09 
 3.00000000e+01  4.50000000e-01  3.00000000e+01  0.00000000e+00  3.00000000e+01  0.00000000e+00  3.00000000e+01  4.50000000e-01  3.00000000e+01  0.00000000e+00  3.00000000e+01  8.66355864e-05  3.00000000e+01  7.32124135e-09  3.00000000e+01 -8.66429214e-05  3.00000000e+01  1.36920043e-11 
 1.00000000e+02  4.50000000e-01  1.00000000e+02  0.00000000e+00  1.00000000e+02  0.00000000e+00  1.00000000e+02  4.50000000e-01  1.00000000e+02  0.00000000e+00  1.00000000e+02  8.38268502e-05  1.00000000e+02  7.43026162e-09  1.00000000e+02 -8.38399872e-05  1.00000000e+02  5.70674368e-09 
 3.00000000e+01  5.00000000e-01  3.00000000e+01  0.00000000e+00  3.00000000e+01  0.00000000e+00  3.00000000e+01  5.00000000e-01  3.00000000e+01  0.00000000e+00  3.00000000e+01  1.11275615e-04  3.00000000e+01  1.01033166e-08  3.00000000e+01 -1.11285812e-04  3.00000000e+01  9.34617400e-11 
 1.00000000e+02  5.00000000e-01  1.00000000e+02  0.00000000e+00  1.00000000e+02  0.00000000e+00  1.00000000e+02  5.00000000e-01  1.00000000e+02  0.00000000e+00  1.00000000e+02  1.06221725e-04  1.00000000e+02  1.02667408e-08  1.00000000e+02 -1.06259013e-04  1.00000000e+02  2.70213105e-08 
 3.00000000e+01  5.50000000e-01  3.00000000e+01  0.00000000e+00  3.00000000e+01  0.00000000e+00  3.00000000e+01  5.50000000e-01  3.00000000e+01  0.00000000e+00  3.00000000e+01  1.36699991e-04  3.00000000e+01  1.35029280e-08  3.00000000e+01 -1.36714128e-04  3.00000000e+01  6.34584516e-10 
 1.00000000e+02  5.50000000e-01  1.00000000e+02  0.00000000e+00  1.00000000e+02  0.00000000e+00  1.00000000e+02  5.50000000e-01  1.00000000e+02  0.00000000e+00  1.00000000e+02  1.29233171e-04  1.00000000e+02  1.37349533e-08  1.00000000e+02 -1.29374841e-04  1.00000000e+02  1.27934234e-07 
 3.00000000e+01  6.00000000e-01  3.00000000e+01  0.00000000e+00  3.00000000e+01  0.00000000e+00  3.00000000e+01  6.00000000e-01  3.00000000e+01  0.00000000e+00  3.00000000e+01  1.62581764e-04  3.00000000e+01  1.76022860e-08  3.00000000e+01 -1.62603671e-04  3.00000000e+01  4.30392208e-09 
 1.00000000e+02  6.00000000e-01  1.00000000e+02  0.00000000e+00  1.00000000e+02  0.00000000e+00  1.00000000e+02  6.00000000e-01  1.00000000e+02  0.00000000e+00  1.00000000e+02  1.52591944e-04  1.00000000e+02  1.79180872e-08  1.00000000e+02 -1.53215352e-04  1.00000000e+02  6.05489857e-07 
 3.00000000e+01  6.50000000e-01  3.00000000e+01  0.00000000e+00  3.00000000e+01  0.00000000e+00  3.00000000e+01  6.50000000e-01  3.00000000e+01  0.00000000e+00  3.00000000e+01  1.88668766e-04  3.00000000e+01  2.24935715e-08  3.00000000e+01 -1.88720443e-04  3.00000000e+01  2.91832220e-08 
 1.00000000e+02  6.50000000e-01  1.00000000e+02  0.00000000e+00  1.00000000e+02  0.00000000e+00  1.00000000e+02  6.50000000e-01  1.00000000e+02  0.00000000e+00  1.00000000e+02  1.76091247e-04  1.00000000e+02  2.29099283e-08  1.00000000e+02 -1.78974874e-04  1.00000000e+02  2.86071635e-06 
 3.00000000e+01  7.00000000e-01  3.00000000e+01  0.00000000e+00  3.00000000e+01  0.00000000e+00  3.00000000e+01  7.00000000e-01  3.00000000e+01  0.00000000e+00  3.00000000e+01  2.14700438e-04  3.00000000e+01  2.82811005e-08  3.00000000e+01 -2.14926557e-04  3.00000000e+01  1.97837663e-07 
 1.00000000e+02  7.00000000e-01  1.00000000e+02  0.00000000e+00  1.00000000e+02  0.00000000e+00  1.00000000e+02  7.00000000e-01  1.00000000e+02  0.00000000e+00  1.00000000e+02  1.99500168e-04  1.00000000e+02  2.88171187e-08  1.00000000e+02 -2.12935336e-04  1.00000000e+02  1.34063503e-05 
 3.00000000e+01  7.50000000e-01  3.00000000e+01  0.00000000e+00  3.00000000e+01  0.00000000e+00  3.00000000e+01  7.50000000e-01  3.00000000e+01  0.00000000e+00  3.00000000e+01  2.40262004e-04  3.00000000e+01  3.50857680e-08  3.00000000e+01 -2.41636691e-04  3.00000000e+01  1.33960133e-06 
 1.00000000e+02  7.50000000e-01  1.00000000e+02  0.00000000e+00  1.00000000e+02  0.00000000e+00  1.00000000e+02  7.50000000e-01  1.00000000e+02  0.00000000e+00  1.00000000e+02  2.22412781e-04  1.00000000e+02  3.57639923e-08  1.00000000e+02 -2.83084921e-04  1.00000000e+02  6.06363757e-05 
 3.00000000e+01  8.00000000e-01  3.00000000e+01  0.00000000e+00  3.00000000e+01  0.00000000e+00  3.00000000e+01  8.00000000e-01  3.00000000e+01  0.00000000e+00  3.00000000e+01  2.64410744e-04  3.00000000e+01  4.30544093e-08  3.00000000e+01 -2.73454050e-04  3.00000000e+01  9.00025121e-06 
 1.00000000e+02  8.00000000e-01  1.00000000e+02  0.00000000e+00  1.00000000e+02  0.00000000e+00  1.00000000e+02  8.00000000e-01  1.00000000e+02  0.00000000e+00  1.00000000e+02  2.43937967e-04  1.00000000e+02  4.39031616e-08  1.00000000e+02 -4.84938734e-04  1.00000000e+02  2.40956864e-04 
 3.00000000e+01  8.50000000e-01  3.00000000e+01  0.00000000e+00  3.00000000e+01  0.00000000e+00  3.00000000e+01  8.50000000e-01  3.00000000e+01  0.00000000e+00  3.00000000e+01  2.85324114e-04  3.00000000e+01  5.23625905e-08  3.00000000e+01 -3.42956833e-04  3.00000000e+01  5.75803565e-05 
 1.00000000e+02  8.50000000e-01  1.00000000e+02  0.00000000e+00  1.00000000e+02  0.00000000e+00  1.00000000e+02  8.50000000e-01  1.00000000e+02  0.00000000e+00  1.00000000e+02  2.62761201e-04  1.00000000e+02  5.34304653e-08  1.00000000e+02 -9.80613206e-04  1.00000000e+02  7.17798575e-04 
 3.00000000e+01  9.00000000e-01  3.00000000e+01  0.00000000e+00  3.00000000e+01  0.00000000e+00  3.00000000e+01  9.00000000e-01  3.00000000e+01  0.00000000e+00  3.00000000e+01  3.03278528e-04  3.00000000e+01  6.31703775e-08  3.00000000e+01 -5.97520594e-04  3.00000000e+01  2.94178895e-04 
 1.00000000e+02  9.00000000e-01  1.00000000e+02  0.00000000e+00  1.00000000e+02  0.00000000e+00  1.00000000e+02  9.00000000e-01  1.00000000e+02  0.00000000e+00  1.00000000e+02  2.79278769e-04  1.00000000e+02  6.46026242e-08  1.00000000e+02 -1.81386803e-03  1.00000000e+02  1.53452466e-03 
 3.00000000e+01  9.50000000e-01  3.00000000e+01  0.00000000e+00  3.00000000e+01  0.00000000e+00  3.00000000e+01  9.50000000e-01  3.00000000e+01  0.00000000e+00  3.00000000e+01  3.20432753e-04  3.00000000e+01  7.57337354e-08  3.00000000e+01 -1.25157802e-03  3.00000000e+01  9.31069537e-04 
 1.00000000e+02  9.50000000e-01  1.00000000e+02  0.00000000e+00  1.00000000e+02  0.00000000e+00  1.00000000e+02  9.50000000e-01  1.00000000e+02  0.00000000e+00  1.00000000e+02  2.95108228e-04  1.00000000e+02  7.78143305e-08  1.00000000e+02 -2.89044274e-03  1.00000000e+02  2.59525669e-03 
 3.00000000e+01  1.00000000e+00  3.00000000e+01  0.00000000e+00  3.00000000e+01  0.00000000e+00  3.00000000e+01  1.00000000e+00  3.00000000e+01  0.00000000e+00  3.00000000e+01  3.37104507e-04  3.00000000e+01  9.05630924e-08  3.00000000e+01 -2.26142540e-03  3.00000000e+01  1.92423033e-03 
 1.00000000e+02  1.00000000e+00  1.00000000e+02  0.00000000e+00  1.00000000e+02  0.00000000e+00  1.00000000e+02  1.00000000e+00  1.00000000e+02  0.00000000e+00  1.00000000e+02  3.10555292e-04  1.00000000e+02  9.37702323e-08  1.00000000e+02 -4.11251977e-03  1.00000000e+02  3.80187071e-03 
 3.00000000e+01  1.05000000e+00  3.00000000e+01  0.00000000e+00  3.00000000e+01  0.00000000e+00  3.00000000e+01  1.05000000e+00  3.00000000e+01  0.00000000e+00  3.00000000e+01  3.53235667e-04  3.00000000e+01  1.08575896e-07  3.00000000e+01 -3.47351756e-03  3.00000000e+01  3.12017332e-03 
 1.00000000e+02  1.05000000e+00  1.00000000e+02  0.00000000e+00  1.00000000e+02  0.00000000e+00  1.00000000e+02  1.05000000e+00  1.00000000e+02  0.00000000e+00  1.00000000e+02  3.25545261e-04  1.00000000e+02  1.13640297e-07  1.00000000e+02 -5.42467724e-03  1.00000000e+02  5.09901834e-03 
 3.00000000e+01  1.10000000e+00  3.00000000e+01  0.00000000e+00  3.00000000e+01  0.00000000e+00  3.00000000e+01  1.10000000e+00  3.00000000e+01  0.00000000e+00  3.00000000e+01  3.68805409e-04  3.00000000e+01  1.31340306e-07  3.00000000e+01 -4.79655213e-03  3.00000000e+01  4.42761538e-03 
 1.00000000e+02  1.10000000e+00  1.00000000e+02  0.00000000e+00  1.00000000e+02  0.00000000e+00  1.00000000e+02  1.10000000e+00  1.00000000e+02  0.00000000e+00  1.00000000e+02  3.40036324e-04  1.00000000e+02  1.39253078e-07  1.00000000e+02 -6.79575747e-03  1.00000000e+02  6.45558189e-03 
 3.00000000e+01  1.15000000e+00  3.00000000e+01  0.00000000e+00  3.00000000e+01  0.00000000e+00  3.00000000e+01  1.15000000e+00  3.00000000e+01  0.00000000e+00  3.00000000e+01  3.83816606e-04  3.00000000e+01  1.61243488e-07  3.00000000e+01 -6.18565127e-03  3.00000000e+01  5.80167343e-03 
 1.00000000e+02  1.15000000e+00  1.00000000e+02  0.00000000e+00  1.00000000e+02  0.00000000e+00  1.00000000e+02  1.15000000e+00  1.00000000e+02  0.00000000e+00  1.00000000e+02  3.54020725e-04  1.00000000e+02  1.73241423e-07  1.00000000e+02 -8.20758651e-03  1.00000000e+02  7.85339254e-03 
 3.00000000e+01  1.20000000e+00  3.00000000e+01  0.00000000e+00  3.00000000e+01  0.00000000e+00  3.00000000e+01  1.20000000e+00  3.00000000e+01  0.00000000e+00  3.00000000e+01  3.98281674e-04  3.00000000e+01  2.01519494e-07  3.00000000e+01 -7.61744128e-03  3.00000000e+01  7.21895808e-03 
 1.00000000e+02  1.20000000e+00  1.00000000e+02  0.00000000e+00  1.00000000e+02  0.00000000e+00  1.00000000e+02  1.20000000e+00  1.00000000e+02  0.00000000e+00  1.00000000e+02  3.67506226e-04  1.00000000e+02  2.19166515e-07  1.00000000e+02 -9.64889792e-03  1.00000000e+02  9.28117252e-03 
