Title: *pmos on - w8
Date: Tue Feb 15 20:31:49  2022
Plotname: DC transfer characteristic
Flags: real
No. Variables: 10
No. Points: 2
Variables:
	0	temp-sweep	temp-sweep
	1	abs(v(alim))	voltage
	2	v(drain)	voltage
	3	v(gate)	voltage
	4	v(source)	voltage
	5	v(body)	voltage
	6	i(i(vd))	current
	7	i(i(vg))	current
	8	i(i(vs))	current
	9	i(i(vb))	current
Values:
 0	3.000000000000000e+01
	5.000000000000000e-02
	0.000000000000000e+00
	0.000000000000000e+00
	5.000000000000000e-02
	0.000000000000000e+00
	4.974999540976792e-08
	6.878029498355511e-11
	-4.981877570078936e-08
	-3.962111653846960e-18

 1	1.000000000000000e+02
	5.000000000000000e-02
	0.000000000000000e+00
	0.000000000000000e+00
	5.000000000000000e-02
	0.000000000000000e+00
	1.501484509335422e-07
	6.894141013847326e-11
	-1.502174101377743e-07
	1.779409368119924e-14

Title: *pmos on - w8
Date: Tue Feb 15 20:31:49  2022
Plotname: DC transfer characteristic
Flags: real
No. Variables: 10
No. Points: 2
Variables:
	0	temp-sweep	temp-sweep
	1	abs(v(alim))	voltage
	2	v(drain)	voltage
	3	v(gate)	voltage
	4	v(source)	voltage
	5	v(body)	voltage
	6	i(i(vd))	current
	7	i(i(vg))	current
	8	i(i(vs))	current
	9	i(i(vb))	current
Values:
 0	3.000000000000000e+01
	1.000000000000000e-01
	0.000000000000000e+00
	0.000000000000000e+00
	1.000000000000000e-01
	0.000000000000000e+00
	2.689896755045044e-07
	1.774003787445395e-10
	-2.691670758031926e-07
	-8.005630363365597e-17

 1	1.000000000000000e+02
	1.000000000000000e-01
	0.000000000000000e+00
	0.000000000000000e+00
	1.000000000000000e-01
	0.000000000000000e+00
	6.200762619547877e-07
	1.787252409778790e-10
	-6.202550891650462e-07
	1.019692801776591e-13

Title: *pmos on - w8
Date: Tue Feb 15 20:31:49  2022
Plotname: DC transfer characteristic
Flags: real
No. Variables: 10
No. Points: 2
Variables:
	0	temp-sweep	temp-sweep
	1	abs(v(alim))	voltage
	2	v(drain)	voltage
	3	v(gate)	voltage
	4	v(source)	voltage
	5	v(body)	voltage
	6	i(i(vd))	current
	7	i(i(vg))	current
	8	i(i(vs))	current
	9	i(i(vb))	current
Values:
 0	3.000000000000000e+01
	1.500000000000000e-01
	0.000000000000000e+00
	0.000000000000000e+00
	1.500000000000000e-01
	0.000000000000000e+00
	1.141259900035055e-06
	3.375380011275365e-10
	-1.141597437457654e-06
	-5.785289584871858e-16

 1	1.000000000000000e+02
	1.500000000000000e-01
	0.000000000000000e+00
	0.000000000000000e+00
	1.500000000000000e-01
	0.000000000000000e+00
	2.033737313121643e-06
	3.448576203368166e-10
	-2.034082671238946e-06
	5.004969667272429e-13

Title: *pmos on - w8
Date: Tue Feb 15 20:31:49  2022
Plotname: DC transfer characteristic
Flags: real
No. Variables: 10
No. Points: 2
Variables:
	0	temp-sweep	temp-sweep
	1	abs(v(alim))	voltage
	2	v(drain)	voltage
	3	v(gate)	voltage
	4	v(source)	voltage
	5	v(body)	voltage
	6	i(i(vd))	current
	7	i(i(vg))	current
	8	i(i(vs))	current
	9	i(i(vb))	current
Values:
 0	3.000000000000000e+01
	2.000000000000000e-01
	0.000000000000000e+00
	0.000000000000000e+00
	2.000000000000000e-01
	0.000000000000000e+00
	4.033505391843393e-06
	5.913316049116513e-10
	-4.034096721033765e-06
	-2.414543835476472e-15

 1	1.000000000000000e+02
	2.000000000000000e-01
	0.000000000000000e+00
	0.000000000000000e+00
	2.000000000000000e-01
	0.000000000000000e+00
	5.753192328615290e-06
	6.173868413144050e-10
	-5.753812104224252e-06
	2.388767646710461e-12

Title: *pmos on - w8
Date: Tue Feb 15 20:31:49  2022
Plotname: DC transfer characteristic
Flags: real
No. Variables: 10
No. Points: 2
Variables:
	0	temp-sweep	temp-sweep
	1	abs(v(alim))	voltage
	2	v(drain)	voltage
	3	v(gate)	voltage
	4	v(source)	voltage
	5	v(body)	voltage
	6	i(i(vd))	current
	7	i(i(vg))	current
	8	i(i(vs))	current
	9	i(i(vb))	current
Values:
 0	3.000000000000000e+01
	2.500000000000000e-01
	0.000000000000000e+00
	0.000000000000000e+00
	2.500000000000000e-01
	0.000000000000000e+00
	1.123500480421381e-05
	1.089756911563582e-09
	-1.123609455667528e-05
	-4.450106919698536e-15

 1	1.000000000000000e+02
	2.500000000000000e-01
	0.000000000000000e+00
	0.000000000000000e+00
	2.500000000000000e-01
	0.000000000000000e+00
	1.351943098432651e-05
	1.131615426272175e-09
	-1.352057393661633e-05
	1.133686354817452e-11

Title: *pmos on - w8
Date: Tue Feb 15 20:31:49  2022
Plotname: DC transfer characteristic
Flags: real
No. Variables: 10
No. Points: 2
Variables:
	0	temp-sweep	temp-sweep
	1	abs(v(alim))	voltage
	2	v(drain)	voltage
	3	v(gate)	voltage
	4	v(source)	voltage
	5	v(body)	voltage
	6	i(i(vd))	current
	7	i(i(vg))	current
	8	i(i(vs))	current
	9	i(i(vb))	current
Values:
 0	3.000000000000000e+01
	3.000000000000000e-01
	0.000000000000000e+00
	0.000000000000000e+00
	3.000000000000000e-01
	0.000000000000000e+00
	2.413487100043782e-05
	1.998386373208005e-09
	-2.413686940516779e-05
	1.835676852411719e-14

 1	1.000000000000000e+02
	3.000000000000000e-01
	0.000000000000000e+00
	0.000000000000000e+00
	3.000000000000000e-01
	0.000000000000000e+00
	2.612293895605317e-05
	2.035544143022164e-09
	-2.612502822787464e-05
	5.372767843604930e-11

Title: *pmos on - w8
Date: Tue Feb 15 20:31:49  2022
Plotname: DC transfer characteristic
Flags: real
No. Variables: 10
No. Points: 2
Variables:
	0	temp-sweep	temp-sweep
	1	abs(v(alim))	voltage
	2	v(drain)	voltage
	3	v(gate)	voltage
	4	v(source)	voltage
	5	v(body)	voltage
	6	i(i(vd))	current
	7	i(i(vg))	current
	8	i(i(vs))	current
	9	i(i(vb))	current
Values:
 0	3.000000000000000e+01
	3.500000000000000e-01
	0.000000000000000e+00
	0.000000000000000e+00
	3.500000000000000e-01
	0.000000000000000e+00
	4.201210914167021e-05
	3.325493257048621e-09
	-4.201543488662486e-05
	2.516976175480198e-13

 1	1.000000000000000e+02
	3.500000000000000e-01
	0.000000000000000e+00
	0.000000000000000e+00
	3.500000000000000e-01
	0.000000000000000e+00
	4.287392650073148e-05
	3.369118602152699e-09
	-4.287755011078503e-05
	2.544914513817513e-10

Title: *pmos on - w8
Date: Tue Feb 15 20:31:49  2022
Plotname: DC transfer characteristic
Flags: real
No. Variables: 10
No. Points: 2
Variables:
	0	temp-sweep	temp-sweep
	1	abs(v(alim))	voltage
	2	v(drain)	voltage
	3	v(gate)	voltage
	4	v(source)	voltage
	5	v(body)	voltage
	6	i(i(vd))	current
	7	i(i(vg))	current
	8	i(i(vs))	current
	9	i(i(vb))	current
Values:
 0	3.000000000000000e+01
	4.000000000000000e-01
	0.000000000000000e+00
	0.000000000000000e+00
	4.000000000000000e-01
	0.000000000000000e+00
	6.327645837026508e-05
	5.083366286997306e-09
	-6.328154369434074e-05
	1.957788666575860e-12

 1	1.000000000000000e+02
	4.000000000000000e-01
	0.000000000000000e+00
	0.000000000000000e+00
	4.000000000000000e-01
	0.000000000000000e+00
	6.247423285809119e-05
	5.152004987345800e-09
	-6.248059003867509e-05
	1.205175596571431e-09

Title: *pmos on - w8
Date: Tue Feb 15 20:31:49  2022
Plotname: DC transfer characteristic
Flags: real
No. Variables: 10
No. Points: 2
Variables:
	0	temp-sweep	temp-sweep
	1	abs(v(alim))	voltage
	2	v(drain)	voltage
	3	v(gate)	voltage
	4	v(source)	voltage
	5	v(body)	voltage
	6	i(i(vd))	current
	7	i(i(vg))	current
	8	i(i(vs))	current
	9	i(i(vb))	current
Values:
 0	3.000000000000000e+01
	4.500000000000000e-01
	0.000000000000000e+00
	0.000000000000000e+00
	4.500000000000000e-01
	0.000000000000000e+00
	8.663558644464484e-05
	7.321241347067893e-09
	-8.664292137799620e-05
	1.369200427092312e-11

 1	1.000000000000000e+02
	4.500000000000000e-01
	0.000000000000000e+00
	0.000000000000000e+00
	4.500000000000000e-01
	0.000000000000000e+00
	8.382685024408120e-05
	7.430261621174174e-09
	-8.383998724938197e-05
	5.706743679577615e-09

Title: *pmos on - w8
Date: Tue Feb 15 20:31:49  2022
Plotname: DC transfer characteristic
Flags: real
No. Variables: 10
No. Points: 2
Variables:
	0	temp-sweep	temp-sweep
	1	abs(v(alim))	voltage
	2	v(drain)	voltage
	3	v(gate)	voltage
	4	v(source)	voltage
	5	v(body)	voltage
	6	i(i(vd))	current
	7	i(i(vg))	current
	8	i(i(vs))	current
	9	i(i(vb))	current
Values:
 0	3.000000000000000e+01
	4.999999999999999e-01
	0.000000000000000e+00
	0.000000000000000e+00
	4.999999999999999e-01
	0.000000000000000e+00
	1.112756152129055e-04
	1.010331655830877e-08
	-1.112858119912038e-04
	9.346174003216396e-11

 1	1.000000000000000e+02
	4.999999999999999e-01
	0.000000000000000e+00
	0.000000000000000e+00
	4.999999999999999e-01
	0.000000000000000e+00
	1.062217252085606e-04
	1.026674082948104e-08
	-1.062590132598624e-04
	2.702131047231381e-08

Title: *pmos on - w8
Date: Tue Feb 15 20:31:49  2022
Plotname: DC transfer characteristic
Flags: real
No. Variables: 10
No. Points: 2
Variables:
	0	temp-sweep	temp-sweep
	1	abs(v(alim))	voltage
	2	v(drain)	voltage
	3	v(gate)	voltage
	4	v(source)	voltage
	5	v(body)	voltage
	6	i(i(vd))	current
	7	i(i(vg))	current
	8	i(i(vs))	current
	9	i(i(vb))	current
Values:
 0	3.000000000000000e+01
	5.499999999999999e-01
	0.000000000000000e+00
	0.000000000000000e+00
	5.499999999999999e-01
	0.000000000000000e+00
	1.366999907963765e-04
	1.350292799500244e-08
	-1.367141283088876e-04
	6.345845160068114e-10

 1	1.000000000000000e+02
	5.499999999999999e-01
	0.000000000000000e+00
	0.000000000000000e+00
	5.499999999999999e-01
	0.000000000000000e+00
	1.292331713858022e-04
	1.373495327120521e-08
	-1.293748405727993e-04
	1.279342337258848e-07

Title: *pmos on - w8
Date: Tue Feb 15 20:31:49  2022
Plotname: DC transfer characteristic
Flags: real
No. Variables: 10
No. Points: 2
Variables:
	0	temp-sweep	temp-sweep
	1	abs(v(alim))	voltage
	2	v(drain)	voltage
	3	v(gate)	voltage
	4	v(source)	voltage
	5	v(body)	voltage
	6	i(i(vd))	current
	7	i(i(vg))	current
	8	i(i(vs))	current
	9	i(i(vb))	current
Values:
 0	3.000000000000000e+01
	6.000000000000000e-01
	0.000000000000000e+00
	0.000000000000000e+00
	6.000000000000000e-01
	0.000000000000000e+00
	1.625817644607885e-04
	1.760228603218154e-08
	-1.626036706689004e-04
	4.303922079782374e-09

 1	1.000000000000000e+02
	6.000000000000000e-01
	0.000000000000000e+00
	0.000000000000000e+00
	6.000000000000000e-01
	0.000000000000000e+00
	1.525919436565013e-04
	1.791808721585206e-08
	-1.532153516008533e-04
	6.054898571360478e-07

Title: *pmos on - w8
Date: Tue Feb 15 20:31:49  2022
Plotname: DC transfer characteristic
Flags: real
No. Variables: 10
No. Points: 2
Variables:
	0	temp-sweep	temp-sweep
	1	abs(v(alim))	voltage
	2	v(drain)	voltage
	3	v(gate)	voltage
	4	v(source)	voltage
	5	v(body)	voltage
	6	i(i(vd))	current
	7	i(i(vg))	current
	8	i(i(vs))	current
	9	i(i(vb))	current
Values:
 0	3.000000000000000e+01
	6.500000000000000e-01
	0.000000000000000e+00
	0.000000000000000e+00
	6.500000000000000e-01
	0.000000000000000e+00
	1.886687661258850e-04
	2.249357145809621e-08
	-1.887204429193146e-04
	2.918322197148843e-08

 1	1.000000000000000e+02
	6.500000000000000e-01
	0.000000000000000e+00
	0.000000000000000e+00
	6.500000000000000e-01
	0.000000000000000e+00
	1.760912472481979e-04
	2.290992834665183e-08
	-1.789748735240153e-04
	2.860716347470828e-06

Title: *pmos on - w8
Date: Tue Feb 15 20:31:49  2022
Plotname: DC transfer characteristic
Flags: real
No. Variables: 10
No. Points: 2
Variables:
	0	temp-sweep	temp-sweep
	1	abs(v(alim))	voltage
	2	v(drain)	voltage
	3	v(gate)	voltage
	4	v(source)	voltage
	5	v(body)	voltage
	6	i(i(vd))	current
	7	i(i(vg))	current
	8	i(i(vs))	current
	9	i(i(vb))	current
Values:
 0	3.000000000000000e+01
	7.000000000000001e-01
	0.000000000000000e+00
	0.000000000000000e+00
	7.000000000000001e-01
	0.000000000000000e+00
	2.147004378277236e-04
	2.828110048288150e-08
	-2.149265565912517e-04
	1.978376630450950e-07

 1	1.000000000000000e+02
	7.000000000000001e-01
	0.000000000000000e+00
	0.000000000000000e+00
	7.000000000000001e-01
	0.000000000000000e+00
	1.995001681624102e-04
	2.881711872709651e-08
	-2.129353355940422e-04
	1.340635031290475e-05

Title: *pmos on - w8
Date: Tue Feb 15 20:31:49  2022
Plotname: DC transfer characteristic
Flags: real
No. Variables: 10
No. Points: 2
Variables:
	0	temp-sweep	temp-sweep
	1	abs(v(alim))	voltage
	2	v(drain)	voltage
	3	v(gate)	voltage
	4	v(source)	voltage
	5	v(body)	voltage
	6	i(i(vd))	current
	7	i(i(vg))	current
	8	i(i(vs))	current
	9	i(i(vb))	current
Values:
 0	3.000000000000000e+01
	7.500000000000001e-01
	0.000000000000000e+00
	0.000000000000000e+00
	7.500000000000001e-01
	0.000000000000000e+00
	2.402620043920187e-04
	3.508576802885758e-08
	-2.416366914889776e-04
	1.339601328930164e-06

 1	1.000000000000000e+02
	7.500000000000001e-01
	0.000000000000000e+00
	0.000000000000000e+00
	7.500000000000001e-01
	0.000000000000000e+00
	2.224127808570669e-04
	3.576399231176855e-08
	-2.830849205787290e-04
	6.063637572935033e-05

Title: *pmos on - w8
Date: Tue Feb 15 20:31:49  2022
Plotname: DC transfer characteristic
Flags: real
No. Variables: 10
No. Points: 2
Variables:
	0	temp-sweep	temp-sweep
	1	abs(v(alim))	voltage
	2	v(drain)	voltage
	3	v(gate)	voltage
	4	v(source)	voltage
	5	v(body)	voltage
	6	i(i(vd))	current
	7	i(i(vg))	current
	8	i(i(vs))	current
	9	i(i(vb))	current
Values:
 0	3.000000000000000e+01
	8.000000000000002e-01
	0.000000000000000e+00
	0.000000000000000e+00
	8.000000000000002e-01
	0.000000000000000e+00
	2.644107439444765e-04
	4.305440927576352e-08
	-2.734540495664823e-04
	9.000251212730112e-06

 1	1.000000000000000e+02
	8.000000000000002e-01
	0.000000000000000e+00
	0.000000000000000e+00
	8.000000000000002e-01
	0.000000000000000e+00
	2.439379674491874e-04
	4.390316162691493e-08
	-4.849387341917495e-04
	2.409568635809360e-04

Title: *pmos on - w8
Date: Tue Feb 15 20:31:49  2022
Plotname: DC transfer characteristic
Flags: real
No. Variables: 10
No. Points: 2
Variables:
	0	temp-sweep	temp-sweep
	1	abs(v(alim))	voltage
	2	v(drain)	voltage
	3	v(gate)	voltage
	4	v(source)	voltage
	5	v(body)	voltage
	6	i(i(vd))	current
	7	i(i(vg))	current
	8	i(i(vs))	current
	9	i(i(vb))	current
Values:
 0	3.000000000000000e+01
	8.500000000000002e-01
	0.000000000000000e+00
	0.000000000000000e+00
	8.500000000000002e-01
	0.000000000000000e+00
	2.853241143746438e-04
	5.236259050676641e-08
	-3.429568334463623e-04
	5.758035648121137e-05

 1	1.000000000000000e+02
	8.500000000000002e-01
	0.000000000000000e+00
	0.000000000000000e+00
	8.500000000000002e-01
	0.000000000000000e+00
	2.627612005873401e-04
	5.343046527568388e-08
	-9.806132059645642e-04
	7.177985749119487e-04

Title: *pmos on - w8
Date: Tue Feb 15 20:31:49  2022
Plotname: DC transfer characteristic
Flags: real
No. Variables: 10
No. Points: 2
Variables:
	0	temp-sweep	temp-sweep
	1	abs(v(alim))	voltage
	2	v(drain)	voltage
	3	v(gate)	voltage
	4	v(source)	voltage
	5	v(body)	voltage
	6	i(i(vd))	current
	7	i(i(vg))	current
	8	i(i(vs))	current
	9	i(i(vb))	current
Values:
 0	3.000000000000000e+01
	9.000000000000002e-01
	0.000000000000000e+00
	0.000000000000000e+00
	9.000000000000002e-01
	0.000000000000000e+00
	3.032785278253901e-04
	6.317037749817158e-08
	-5.975205936939474e-04
	2.941788954910573e-04

 1	1.000000000000000e+02
	9.000000000000002e-01
	0.000000000000000e+00
	0.000000000000000e+00
	9.000000000000002e-01
	0.000000000000000e+00
	2.792787691759292e-04
	6.460262419988991e-08
	-1.813868028125658e-03
	1.534524656325539e-03

Title: *pmos on - w8
Date: Tue Feb 15 20:31:49  2022
Plotname: DC transfer characteristic
Flags: real
No. Variables: 10
No. Points: 2
Variables:
	0	temp-sweep	temp-sweep
	1	abs(v(alim))	voltage
	2	v(drain)	voltage
	3	v(gate)	voltage
	4	v(source)	voltage
	5	v(body)	voltage
	6	i(i(vd))	current
	7	i(i(vg))	current
	8	i(i(vs))	current
	9	i(i(vb))	current
Values:
 0	3.000000000000000e+01
	9.500000000000003e-01
	0.000000000000000e+00
	0.000000000000000e+00
	9.500000000000003e-01
	0.000000000000000e+00
	3.204327528587726e-04
	7.573373535450802e-08
	-1.251578023590266e-03
	9.310695369961368e-04

 1	1.000000000000000e+02
	9.500000000000003e-01
	0.000000000000000e+00
	0.000000000000000e+00
	9.500000000000003e-01
	0.000000000000000e+00
	2.951082277984853e-04
	7.781433052887708e-08
	-2.890442736237343e-03
	2.595256694108313e-03

Title: *pmos on - w8
Date: Tue Feb 15 20:31:49  2022
Plotname: DC transfer characteristic
Flags: real
No. Variables: 10
No. Points: 2
Variables:
	0	temp-sweep	temp-sweep
	1	abs(v(alim))	voltage
	2	v(drain)	voltage
	3	v(gate)	voltage
	4	v(source)	voltage
	5	v(body)	voltage
	6	i(i(vd))	current
	7	i(i(vg))	current
	8	i(i(vs))	current
	9	i(i(vb))	current
Values:
 0	3.000000000000000e+01
	1.000000000000000e+00
	0.000000000000000e+00
	0.000000000000000e+00
	1.000000000000000e+00
	0.000000000000000e+00
	3.371045072842703e-04
	9.056309237530635e-08
	-2.261425402049243e-03
	1.924230331672602e-03

 1	1.000000000000000e+02
	1.000000000000000e+00
	0.000000000000000e+00
	0.000000000000000e+00
	1.000000000000000e+00
	0.000000000000000e+00
	3.105552920958804e-04
	9.377023226926301e-08
	-4.112519774478368e-03
	3.801870712150206e-03

Title: *pmos on - w8
Date: Tue Feb 15 20:31:49  2022
Plotname: DC transfer characteristic
Flags: real
No. Variables: 10
No. Points: 2
Variables:
	0	temp-sweep	temp-sweep
	1	abs(v(alim))	voltage
	2	v(drain)	voltage
	3	v(gate)	voltage
	4	v(source)	voltage
	5	v(body)	voltage
	6	i(i(vd))	current
	7	i(i(vg))	current
	8	i(i(vs))	current
	9	i(i(vb))	current
Values:
 0	3.000000000000000e+01
	1.050000000000000e+00
	0.000000000000000e+00
	0.000000000000000e+00
	1.050000000000000e+00
	0.000000000000000e+00
	3.532356667617064e-04
	1.085758964452633e-07
	-3.473517560267164e-03
	3.120173317609023e-03

 1	1.000000000000000e+02
	1.050000000000000e+00
	0.000000000000000e+00
	0.000000000000000e+00
	1.050000000000000e+00
	0.000000000000000e+00
	3.255452609295124e-04
	1.136402970336064e-07
	-5.424677239335656e-03
	5.099018338109096e-03

Title: *pmos on - w8
Date: Tue Feb 15 20:31:49  2022
Plotname: DC transfer characteristic
Flags: real
No. Variables: 10
No. Points: 2
Variables:
	0	temp-sweep	temp-sweep
	1	abs(v(alim))	voltage
	2	v(drain)	voltage
	3	v(gate)	voltage
	4	v(source)	voltage
	5	v(body)	voltage
	6	i(i(vd))	current
	7	i(i(vg))	current
	8	i(i(vs))	current
	9	i(i(vb))	current
Values:
 0	3.000000000000000e+01
	1.100000000000000e+00
	0.000000000000000e+00
	0.000000000000000e+00
	1.100000000000000e+00
	0.000000000000000e+00
	3.688054087635738e-04
	1.313403064849583e-07
	-4.796552128035434e-03
	4.427615378965394e-03

 1	1.000000000000000e+02
	1.100000000000000e+00
	0.000000000000000e+00
	0.000000000000000e+00
	1.100000000000000e+00
	0.000000000000000e+00
	3.400363237403272e-04
	1.392530780864172e-07
	-6.795757468738959e-03
	6.455581891920562e-03

Title: *pmos on - w8
Date: Tue Feb 15 20:31:49  2022
Plotname: DC transfer characteristic
Flags: real
No. Variables: 10
No. Points: 2
Variables:
	0	temp-sweep	temp-sweep
	1	abs(v(alim))	voltage
	2	v(drain)	voltage
	3	v(gate)	voltage
	4	v(source)	voltage
	5	v(body)	voltage
	6	i(i(vd))	current
	7	i(i(vg))	current
	8	i(i(vs))	current
	9	i(i(vb))	current
Values:
 0	3.000000000000000e+01
	1.150000000000000e+00
	0.000000000000000e+00
	0.000000000000000e+00
	1.150000000000000e+00
	0.000000000000000e+00
	3.838166058715922e-04
	1.612434879879709e-07
	-6.185651274892895e-03
	5.801673425533356e-03

 1	1.000000000000000e+02
	1.150000000000000e+00
	0.000000000000000e+00
	0.000000000000000e+00
	1.150000000000000e+00
	0.000000000000000e+00
	3.540207251620869e-04
	1.732414226896372e-07
	-8.207586508112171e-03
	7.853392541527410e-03

Title: *pmos on - w8
Date: Tue Feb 15 20:31:49  2022
Plotname: DC transfer characteristic
Flags: real
No. Variables: 10
No. Points: 2
Variables:
	0	temp-sweep	temp-sweep
	1	abs(v(alim))	voltage
	2	v(drain)	voltage
	3	v(gate)	voltage
	4	v(source)	voltage
	5	v(body)	voltage
	6	i(i(vd))	current
	7	i(i(vg))	current
	8	i(i(vs))	current
	9	i(i(vb))	current
Values:
 0	3.000000000000000e+01
	1.200000000000000e+00
	0.000000000000000e+00
	0.000000000000000e+00
	1.200000000000000e+00
	0.000000000000000e+00
	3.982816742715036e-04
	2.015194937805235e-07
	-7.617441278509782e-03
	7.218958084744460e-03

 1	1.000000000000000e+02
	1.200000000000000e+00
	0.000000000000000e+00
	0.000000000000000e+00
	1.200000000000000e+00
	0.000000000000000e+00
	3.675062264513248e-04
	2.191665149428265e-07
	-9.648897916089067e-03
	9.281172523122751e-03

