Title: *nmos on - w1
Date: Tue Feb 15 20:18:59  2022
Plotname: DC transfer characteristic
Flags: real
No. Variables: 10
No. Points: 2
Variables:
	0	temp-sweep	temp-sweep
	1	abs(v(alim))	voltage
	2	v(drain)	voltage
	3	v(gate)	voltage
	4	v(source)	voltage
	5	v(body)	voltage
	6	i(i(vd))	current
	7	i(i(vg))	current
	8	i(i(vs))	current
	9	i(i(vb))	current
Values:
 0	3.000000000000000e+01
	5.000000000000000e-02
	1.200000000000000e+00
	5.000000000000000e-02
	0.000000000000000e+00
	0.000000000000000e+00
	-4.303238578743109e-08
	2.213076721879759e-09
	4.071084246476791e-08
	1.084665845925248e-10

 1	1.000000000000000e+02
	5.000000000000000e-02
	1.200000000000000e+00
	5.000000000000000e-02
	0.000000000000000e+00
	0.000000000000000e+00
	-1.427161376767277e-07
	2.213075556145583e-09
	1.403929519252162e-07
	1.101102335590131e-10

Title: *nmos on - w1
Date: Tue Feb 15 20:18:59  2022
Plotname: DC transfer characteristic
Flags: real
No. Variables: 10
No. Points: 2
Variables:
	0	temp-sweep	temp-sweep
	1	abs(v(alim))	voltage
	2	v(drain)	voltage
	3	v(gate)	voltage
	4	v(source)	voltage
	5	v(body)	voltage
	6	i(i(vd))	current
	7	i(i(vg))	current
	8	i(i(vs))	current
	9	i(i(vb))	current
Values:
 0	3.000000000000000e+01
	1.000000000000000e-01
	1.200000000000000e+00
	1.000000000000000e-01
	0.000000000000000e+00
	0.000000000000000e+00
	-1.391740879501358e-07
	1.809735250546396e-09
	1.373549558213540e-07
	9.396814291201861e-12

 1	1.000000000000000e+02
	1.000000000000000e-01
	1.200000000000000e+00
	1.000000000000000e-01
	0.000000000000000e+00
	0.000000000000000e+00
	-3.704389637590045e-07
	1.809729033297458e-09
	3.686166235969953e-07
	1.261118602612149e-11

Title: *nmos on - w1
Date: Tue Feb 15 20:18:59  2022
Plotname: DC transfer characteristic
Flags: real
No. Variables: 10
No. Points: 2
Variables:
	0	temp-sweep	temp-sweep
	1	abs(v(alim))	voltage
	2	v(drain)	voltage
	3	v(gate)	voltage
	4	v(source)	voltage
	5	v(body)	voltage
	6	i(i(vd))	current
	7	i(i(vg))	current
	8	i(i(vs))	current
	9	i(i(vb))	current
Values:
 0	3.000000000000000e+01
	1.500000000000000e-01
	1.200000000000000e+00
	1.500000000000000e-01
	0.000000000000000e+00
	0.000000000000000e+00
	-4.244188526931054e-07
	1.463025256498440e-09
	4.229466621843763e-07
	9.165263701771837e-12

 1	1.000000000000000e+02
	1.500000000000000e-01
	1.200000000000000e+00
	1.500000000000000e-01
	0.000000000000000e+00
	0.000000000000000e+00
	-9.085586144446145e-07
	1.462990284473165e-09
	9.070819273406747e-07
	1.369676143766449e-11

Title: *nmos on - w1
Date: Tue Feb 15 20:18:59  2022
Plotname: DC transfer characteristic
Flags: real
No. Variables: 10
No. Points: 2
Variables:
	0	temp-sweep	temp-sweep
	1	abs(v(alim))	voltage
	2	v(drain)	voltage
	3	v(gate)	voltage
	4	v(source)	voltage
	5	v(body)	voltage
	6	i(i(vd))	current
	7	i(i(vg))	current
	8	i(i(vs))	current
	9	i(i(vb))	current
Values:
 0	3.000000000000000e+01
	2.000000000000000e-01
	1.200000000000000e+00
	2.000000000000000e-01
	0.000000000000000e+00
	0.000000000000000e+00
	-1.165247193169451e-06
	1.162799745380028e-09
	1.164063815994696e-06
	2.057733398315313e-11

 1	1.000000000000000e+02
	2.000000000000000e-01
	1.200000000000000e+00
	2.000000000000000e-01
	0.000000000000000e+00
	0.000000000000000e+00
	-2.050749057583302e-06
	1.162609120086699e-09
	2.049563116310786e-06
	2.333225963228028e-11

Title: *nmos on - w1
Date: Tue Feb 15 20:18:59  2022
Plotname: DC transfer characteristic
Flags: real
No. Variables: 10
No. Points: 2
Variables:
	0	temp-sweep	temp-sweep
	1	abs(v(alim))	voltage
	2	v(drain)	voltage
	3	v(gate)	voltage
	4	v(source)	voltage
	5	v(body)	voltage
	6	i(i(vd))	current
	7	i(i(vg))	current
	8	i(i(vs))	current
	9	i(i(vb))	current
Values:
 0	3.000000000000000e+01
	2.500000000000000e-01
	1.200000000000000e+00
	2.500000000000000e-01
	0.000000000000000e+00
	0.000000000000000e+00
	-2.779578509344653e-06
	8.994538447382183e-10
	2.778644094695968e-06
	3.496080212752846e-11

 1	1.000000000000000e+02
	2.500000000000000e-01
	1.200000000000000e+00
	2.500000000000000e-01
	0.000000000000000e+00
	0.000000000000000e+00
	-4.137228472616731e-06
	8.985137078809657e-10
	4.136299103087291e-06
	3.085597473886920e-11

Title: *nmos on - w1
Date: Tue Feb 15 20:18:59  2022
Plotname: DC transfer characteristic
Flags: real
No. Variables: 10
No. Points: 2
Variables:
	0	temp-sweep	temp-sweep
	1	abs(v(alim))	voltage
	2	v(drain)	voltage
	3	v(gate)	voltage
	4	v(source)	voltage
	5	v(body)	voltage
	6	i(i(vd))	current
	7	i(i(vg))	current
	8	i(i(vs))	current
	9	i(i(vb))	current
Values:
 0	3.000000000000000e+01
	3.000000000000000e-01
	1.200000000000000e+00
	3.000000000000000e-01
	0.000000000000000e+00
	0.000000000000000e+00
	-5.596402751657503e-06
	6.611338143613921e-10
	5.595698730947192e-06
	4.288664652067744e-11

 1	1.000000000000000e+02
	3.000000000000000e-01
	1.200000000000000e+00
	3.000000000000000e-01
	0.000000000000000e+00
	0.000000000000000e+00
	-7.329797237801101e-06
	6.575919808682329e-10
	7.329108606844139e-06
	3.103874966364990e-11

Title: *nmos on - w1
Date: Tue Feb 15 20:18:59  2022
Plotname: DC transfer characteristic
Flags: real
No. Variables: 10
No. Points: 2
Variables:
	0	temp-sweep	temp-sweep
	1	abs(v(alim))	voltage
	2	v(drain)	voltage
	3	v(gate)	voltage
	4	v(source)	voltage
	5	v(body)	voltage
	6	i(i(vd))	current
	7	i(i(vg))	current
	8	i(i(vs))	current
	9	i(i(vb))	current
Values:
 0	3.000000000000000e+01
	3.500000000000000e-01
	1.200000000000000e+00
	3.500000000000000e-01
	0.000000000000000e+00
	0.000000000000000e+00
	-9.550605647049776e-06
	4.231470729365583e-10
	9.550143210038602e-06
	3.928996885422959e-11

 1	1.000000000000000e+02
	3.500000000000000e-01
	1.200000000000000e+00
	3.500000000000000e-01
	0.000000000000000e+00
	0.000000000000000e+00
	-1.147786396586477e-05
	4.159357303024080e-10
	1.147742346477510e-05
	2.456541455507810e-11

Title: *nmos on - w1
Date: Tue Feb 15 20:18:59  2022
Plotname: DC transfer characteristic
Flags: real
No. Variables: 10
No. Points: 2
Variables:
	0	temp-sweep	temp-sweep
	1	abs(v(alim))	voltage
	2	v(drain)	voltage
	3	v(gate)	voltage
	4	v(source)	voltage
	5	v(body)	voltage
	6	i(i(vd))	current
	7	i(i(vg))	current
	8	i(i(vs))	current
	9	i(i(vb))	current
Values:
 0	3.000000000000000e+01
	4.000000000000000e-01
	1.200000000000000e+00
	4.000000000000000e-01
	0.000000000000000e+00
	0.000000000000000e+00
	-1.427183176630447e-05
	1.523818848880865e-10
	1.427165057546901e-05
	2.880887760585860e-11

 1	1.000000000000000e+02
	4.000000000000000e-01
	1.200000000000000e+00
	4.000000000000000e-01
	0.000000000000000e+00
	0.000000000000000e+00
	-1.624968552447298e-05
	1.437627794587115e-10
	1.624952561044729e-05
	1.615131409888310e-11

Title: *nmos on - w1
Date: Tue Feb 15 20:18:59  2022
Plotname: DC transfer characteristic
Flags: real
No. Variables: 10
No. Points: 2
Variables:
	0	temp-sweep	temp-sweep
	1	abs(v(alim))	voltage
	2	v(drain)	voltage
	3	v(gate)	voltage
	4	v(source)	voltage
	5	v(body)	voltage
	6	i(i(vd))	current
	7	i(i(vg))	current
	8	i(i(vs))	current
	9	i(i(vb))	current
Values:
 0	3.000000000000000e+01
	4.500000000000000e-01
	1.200000000000000e+00
	4.500000000000000e-01
	0.000000000000000e+00
	0.000000000000000e+00
	-1.938437620619835e-05
	-1.610578337363222e-10
	1.938451925752628e-05
	1.800662420380444e-11

 1	1.000000000000000e+02
	4.500000000000000e-01
	1.200000000000000e+00
	4.500000000000000e-01
	0.000000000000000e+00
	0.000000000000000e+00
	-2.133189134155321e-05
	-1.734035137701539e-10
	2.133205540426416e-05
	9.340818594255240e-12

Title: *nmos on - w1
Date: Tue Feb 15 20:18:59  2022
Plotname: DC transfer characteristic
Flags: real
No. Variables: 10
No. Points: 2
Variables:
	0	temp-sweep	temp-sweep
	1	abs(v(alim))	voltage
	2	v(drain)	voltage
	3	v(gate)	voltage
	4	v(source)	voltage
	5	v(body)	voltage
	6	i(i(vd))	current
	7	i(i(vg))	current
	8	i(i(vs))	current
	9	i(i(vb))	current
Values:
 0	3.000000000000000e+01
	4.999999999999999e-01
	1.200000000000000e+00
	4.999999999999999e-01
	0.000000000000000e+00
	0.000000000000000e+00
	-2.464517757625590e-05
	-5.239311207105857e-10
	2.464569148417134e-05
	1.002305635193761e-11

 1	1.000000000000000e+02
	4.999999999999999e-01
	1.200000000000000e+00
	4.999999999999999e-01
	0.000000000000000e+00
	0.000000000000000e+00
	-2.651572324834087e-05
	-5.445128792302967e-10
	2.651626261079745e-05
	5.150745880700709e-12

Title: *nmos on - w1
Date: Tue Feb 15 20:18:59  2022
Plotname: DC transfer characteristic
Flags: real
No. Variables: 10
No. Points: 2
Variables:
	0	temp-sweep	temp-sweep
	1	abs(v(alim))	voltage
	2	v(drain)	voltage
	3	v(gate)	voltage
	4	v(source)	voltage
	5	v(body)	voltage
	6	i(i(vd))	current
	7	i(i(vg))	current
	8	i(i(vs))	current
	9	i(i(vb))	current
Values:
 0	3.000000000000000e+01
	5.499999999999999e-01
	1.200000000000000e+00
	5.499999999999999e-01
	0.000000000000000e+00
	0.000000000000000e+00
	-2.992884054062287e-05
	-9.501870401606993e-10
	2.992978557383373e-05
	5.153993681234427e-12

 1	1.000000000000000e+02
	5.499999999999999e-01
	1.200000000000000e+00
	5.499999999999999e-01
	0.000000000000000e+00
	0.000000000000000e+00
	-3.168868582255996e-05
	-9.834661973684433e-10
	3.168966597518238e-05
	3.313392695271752e-12

Title: *nmos on - w1
Date: Tue Feb 15 20:18:59  2022
Plotname: DC transfer characteristic
Flags: real
No. Variables: 10
No. Points: 2
Variables:
	0	temp-sweep	temp-sweep
	1	abs(v(alim))	voltage
	2	v(drain)	voltage
	3	v(gate)	voltage
	4	v(source)	voltage
	5	v(body)	voltage
	6	i(i(vd))	current
	7	i(i(vg))	current
	8	i(i(vs))	current
	9	i(i(vb))	current
Values:
 0	3.000000000000000e+01
	6.000000000000000e-01
	1.200000000000000e+00
	6.000000000000000e-01
	0.000000000000000e+00
	0.000000000000000e+00
	-3.517842962206208e-05
	-1.457285847550338e-09
	3.517988424719158e-05
	2.661080184558023e-12

 1	1.000000000000000e+02
	6.000000000000000e-01
	1.200000000000000e+00
	6.000000000000000e-01
	0.000000000000000e+00
	0.000000000000000e+00
	-3.679941987749871e-05
	-1.508189129140192e-09
	3.680092456477104e-05
	3.502181068574910e-12

Title: *nmos on - w1
Date: Tue Feb 15 20:18:59  2022
Plotname: DC transfer characteristic
Flags: real
No. Variables: 10
No. Points: 2
Variables:
	0	temp-sweep	temp-sweep
	1	abs(v(alim))	voltage
	2	v(drain)	voltage
	3	v(gate)	voltage
	4	v(source)	voltage
	5	v(body)	voltage
	6	i(i(vd))	current
	7	i(i(vg))	current
	8	i(i(vs))	current
	9	i(i(vb))	current
Values:
 0	3.000000000000000e+01
	6.500000000000000e-01
	1.200000000000000e+00
	6.500000000000000e-01
	0.000000000000000e+00
	0.000000000000000e+00
	-4.037007729378105e-05
	-2.065112081339748e-09
	4.037214057054095e-05
	1.835460143525037e-12

 1	1.000000000000000e+02
	6.500000000000000e-01
	1.200000000000000e+00
	6.500000000000000e-01
	0.000000000000000e+00
	0.000000000000000e+00
	-4.182860724244777e-05
	-2.139773247478161e-09
	4.183074099207826e-05
	6.024025845903129e-12

Title: *nmos on - w1
Date: Tue Feb 15 20:18:59  2022
Plotname: DC transfer characteristic
Flags: real
No. Variables: 10
No. Points: 2
Variables:
	0	temp-sweep	temp-sweep
	1	abs(v(alim))	voltage
	2	v(drain)	voltage
	3	v(gate)	voltage
	4	v(source)	voltage
	5	v(body)	voltage
	6	i(i(vd))	current
	7	i(i(vg))	current
	8	i(i(vs))	current
	9	i(i(vb))	current
Values:
 0	3.000000000000000e+01
	7.000000000000001e-01
	1.200000000000000e+00
	7.000000000000001e-01
	0.000000000000000e+00
	0.000000000000000e+00
	-4.549431082629347e-05
	-2.796214371159067e-09
	4.549710458344817e-05
	2.457268177398572e-12

 1	1.000000000000000e+02
	7.000000000000001e-01
	1.200000000000000e+00
	7.000000000000001e-01
	0.000000000000000e+00
	0.000000000000000e+00
	-4.677150872291233e-05
	-2.902924567393939e-09
	4.677439911225471e-05
	1.253501691434017e-11

Title: *nmos on - w1
Date: Tue Feb 15 20:18:59  2022
Plotname: DC transfer characteristic
Flags: real
No. Variables: 10
No. Points: 2
Variables:
	0	temp-sweep	temp-sweep
	1	abs(v(alim))	voltage
	2	v(drain)	voltage
	3	v(gate)	voltage
	4	v(source)	voltage
	5	v(body)	voltage
	6	i(i(vd))	current
	7	i(i(vg))	current
	8	i(i(vs))	current
	9	i(i(vb))	current
Values:
 0	3.000000000000000e+01
	7.500000000000001e-01
	1.200000000000000e+00
	7.500000000000001e-01
	0.000000000000000e+00
	0.000000000000000e+00
	-5.054749035552871e-05
	-3.676511983741193e-09
	5.055116157652660e-05
	5.290897834682615e-12

 1	1.000000000000000e+02
	7.500000000000001e-01
	1.200000000000000e+00
	7.500000000000001e-01
	0.000000000000000e+00
	0.000000000000000e+00
	-5.162904292256209e-05
	-3.827350436580446e-09
	5.163284366874889e-05
	2.660387768453122e-11

Title: *nmos on - w1
Date: Tue Feb 15 20:18:59  2022
Plotname: DC transfer characteristic
Flags: real
No. Variables: 10
No. Points: 2
Variables:
	0	temp-sweep	temp-sweep
	1	abs(v(alim))	voltage
	2	v(drain)	voltage
	3	v(gate)	voltage
	4	v(source)	voltage
	5	v(body)	voltage
	6	i(i(vd))	current
	7	i(i(vg))	current
	8	i(i(vs))	current
	9	i(i(vb))	current
Values:
 0	3.000000000000000e+01
	8.000000000000002e-01
	1.200000000000000e+00
	8.000000000000002e-01
	0.000000000000000e+00
	0.000000000000000e+00
	-5.552819911639018e-05
	-4.736529390925170e-09
	5.553292333527334e-05
	1.231033344474822e-11

 1	1.000000000000000e+02
	8.000000000000002e-01
	1.200000000000000e+00
	8.000000000000002e-01
	0.000000000000000e+00
	0.000000000000000e+00
	-5.640373442883004e-05
	-4.950376553125579e-09
	5.640862854401391e-05
	5.626176539035572e-11

Title: *nmos on - w1
Date: Tue Feb 15 20:18:59  2022
Plotname: DC transfer characteristic
Flags: real
No. Variables: 10
No. Points: 2
Variables:
	0	temp-sweep	temp-sweep
	1	abs(v(alim))	voltage
	2	v(drain)	voltage
	3	v(gate)	voltage
	4	v(source)	voltage
	5	v(body)	voltage
	6	i(i(vd))	current
	7	i(i(vg))	current
	8	i(i(vs))	current
	9	i(i(vb))	current
Values:
 0	3.000000000000000e+01
	8.500000000000002e-01
	1.200000000000000e+00
	8.500000000000002e-01
	0.000000000000000e+00
	0.000000000000000e+00
	-6.043581897640236e-05
	-6.013725073472642e-09
	6.044180374854865e-05
	2.895290953878386e-11

 1	1.000000000000000e+02
	8.500000000000002e-01
	1.200000000000000e+00
	8.500000000000002e-01
	0.000000000000000e+00
	0.000000000000000e+00
	-6.109809644947479e-05
	-6.321752454852003e-09
	6.110430004930485e-05
	1.181524470860102e-10

Title: *nmos on - w1
Date: Tue Feb 15 20:18:59  2022
Plotname: DC transfer characteristic
Flags: real
No. Variables: 10
No. Points: 2
Variables:
	0	temp-sweep	temp-sweep
	1	abs(v(alim))	voltage
	2	v(drain)	voltage
	3	v(gate)	voltage
	4	v(source)	voltage
	5	v(body)	voltage
	6	i(i(vd))	current
	7	i(i(vg))	current
	8	i(i(vs))	current
	9	i(i(vb))	current
Values:
 0	3.000000000000000e+01
	9.000000000000002e-01
	1.200000000000000e+00
	9.000000000000002e-01
	0.000000000000000e+00
	0.000000000000000e+00
	-6.527000154776668e-05
	-7.557201087138310e-09
	6.527749063918807e-05
	6.810965064809970e-11

 1	1.000000000000000e+02
	9.000000000000002e-01
	1.200000000000000e+00
	9.000000000000002e-01
	0.000000000000000e+00
	0.000000000000000e+00
	-6.571411701264567e-05
	-8.012368102328082e-09
	6.572188381479394e-05
	2.455660786155885e-10

Title: *nmos on - w1
Date: Tue Feb 15 20:18:59  2022
Plotname: DC transfer characteristic
Flags: real
No. Variables: 10
No. Points: 2
Variables:
	0	temp-sweep	temp-sweep
	1	abs(v(alim))	voltage
	2	v(drain)	voltage
	3	v(gate)	voltage
	4	v(source)	voltage
	5	v(body)	voltage
	6	i(i(vd))	current
	7	i(i(vg))	current
	8	i(i(vs))	current
	9	i(i(vb))	current
Values:
 0	3.000000000000000e+01
	9.500000000000003e-01
	1.200000000000000e+00
	9.500000000000003e-01
	0.000000000000000e+00
	0.000000000000000e+00
	-7.003048194374783e-05
	-9.437407744172788e-09
	7.003976025734572e-05
	1.590940678648683e-10

 1	1.000000000000000e+02
	9.500000000000003e-01
	1.200000000000000e+00
	9.500000000000003e-01
	0.000000000000000e+00
	0.000000000000000e+00
	-7.025319203958318e-05
	-1.012940575861876e-08
	7.026281850519453e-05
	5.029407988559193e-10

Title: *nmos on - w1
Date: Tue Feb 15 20:18:59  2022
Plotname: DC transfer characteristic
Flags: real
No. Variables: 10
No. Points: 2
Variables:
	0	temp-sweep	temp-sweep
	1	abs(v(alim))	voltage
	2	v(drain)	voltage
	3	v(gate)	voltage
	4	v(source)	voltage
	5	v(body)	voltage
	6	i(i(vd))	current
	7	i(i(vg))	current
	8	i(i(vs))	current
	9	i(i(vb))	current
Values:
 0	3.000000000000000e+01
	1.000000000000000e+00
	1.200000000000000e+00
	1.000000000000000e+00
	0.000000000000000e+00
	0.000000000000000e+00
	-7.471701184882305e-05
	-1.176514619061209e-08
	7.472841074138137e-05
	3.662539367131828e-10

 1	1.000000000000000e+02
	1.000000000000000e+00
	1.200000000000000e+00
	1.000000000000000e+00
	0.000000000000000e+00
	0.000000000000000e+00
	-7.471620637349380e-05
	-1.284002149049002e-08
	7.472803726401669e-05
	1.009131295759160e-09

Title: *nmos on - w1
Date: Tue Feb 15 20:18:59  2022
Plotname: DC transfer characteristic
Flags: real
No. Variables: 10
No. Points: 2
Variables:
	0	temp-sweep	temp-sweep
	1	abs(v(alim))	voltage
	2	v(drain)	voltage
	3	v(gate)	voltage
	4	v(source)	voltage
	5	v(body)	voltage
	6	i(i(vd))	current
	7	i(i(vg))	current
	8	i(i(vs))	current
	9	i(i(vb))	current
Values:
 0	3.000000000000000e+01
	1.050000000000000e+00
	1.200000000000000e+00
	1.050000000000000e+00
	0.000000000000000e+00
	0.000000000000000e+00
	-7.932932914577330e-05
	-1.472341626396201e-08
	7.934322983460832e-05
	8.227268222035215e-10

 1	1.000000000000000e+02
	1.050000000000000e+00
	1.200000000000000e+00
	1.050000000000000e+00
	0.000000000000000e+00
	0.000000000000000e+00
	-7.910364028298915e-05
	-1.640109204004148e-08
	7.911807233579375e-05
	1.969039269100072e-09

Title: *nmos on - w1
Date: Tue Feb 15 20:18:59  2022
Plotname: DC transfer characteristic
Flags: real
No. Variables: 10
No. Points: 2
Variables:
	0	temp-sweep	temp-sweep
	1	abs(v(alim))	voltage
	2	v(drain)	voltage
	3	v(gate)	voltage
	4	v(source)	voltage
	5	v(body)	voltage
	6	i(i(vd))	current
	7	i(i(vg))	current
	8	i(i(vs))	current
	9	i(i(vb))	current
Values:
 0	3.000000000000000e+01
	1.100000000000000e+00
	1.200000000000000e+00
	1.100000000000000e+00
	0.000000000000000e+00
	0.000000000000000e+00
	-8.386711701577104e-05
	-1.862965692822627e-08
	8.388396736111065e-05
	1.779310622070898e-09

 1	1.000000000000000e+02
	1.100000000000000e+00
	1.200000000000000e+00
	1.100000000000000e+00
	0.000000000000000e+00
	0.000000000000000e+00
	-8.341563886653739e-05
	-2.120557418550106e-08
	8.343313788094921e-05
	3.706559928431885e-09

Title: *nmos on - w1
Date: Tue Feb 15 20:18:59  2022
Plotname: DC transfer characteristic
Flags: real
No. Variables: 10
No. Points: 2
Variables:
	0	temp-sweep	temp-sweep
	1	abs(v(alim))	voltage
	2	v(drain)	voltage
	3	v(gate)	voltage
	4	v(source)	voltage
	5	v(body)	voltage
	6	i(i(vd))	current
	7	i(i(vg))	current
	8	i(i(vs))	current
	9	i(i(vb))	current
Values:
 0	3.000000000000000e+01
	1.150000000000000e+00
	1.200000000000000e+00
	1.150000000000000e+00
	0.000000000000000e+00
	0.000000000000000e+00
	-8.832998560586617e-05
	-2.396705856000381e-08
	8.835030325610396e-05
	3.649408112090717e-09

 1	1.000000000000000e+02
	1.150000000000000e+00
	1.200000000000000e+00
	1.150000000000000e+00
	0.000000000000000e+00
	0.000000000000000e+00
	-8.765207505833091e-05
	-2.779060537250189e-08
	8.767317938589427e-05
	6.686277886680142e-09

Title: *nmos on - w1
Date: Tue Feb 15 20:18:59  2022
Plotname: DC transfer characteristic
Flags: real
No. Variables: 10
No. Points: 2
Variables:
	0	temp-sweep	temp-sweep
	1	abs(v(alim))	voltage
	2	v(drain)	voltage
	3	v(gate)	voltage
	4	v(source)	voltage
	5	v(body)	voltage
	6	i(i(vd))	current
	7	i(i(vg))	current
	8	i(i(vs))	current
	9	i(i(vb))	current
Values:
 0	3.000000000000000e+01
	1.200000000000000e+00
	1.200000000000000e+00
	1.200000000000000e+00
	0.000000000000000e+00
	0.000000000000000e+00
	-9.271742709074642e-05
	-3.139570914356682e-08
	9.274180837735839e-05
	7.014421992244637e-09

 1	1.000000000000000e+02
	1.200000000000000e+00
	1.200000000000000e+00
	1.200000000000000e+00
	0.000000000000000e+00
	0.000000000000000e+00
	-9.181256031513344e-05
	-3.684827820649161e-08
	9.183789014891852e-05
	1.151844476868048e-08

