  temp-sweep      abs(v(alim))    v(drain)        v(gate)         temp-sweep      v(source)       v(body)         i(vd)           temp-sweep      i(vg)           i(vs)           i(vb)
 3.00000000e+01  5.00000000e-02  3.00000000e+01  1.20000000e+00  3.00000000e+01  5.00000000e-02  3.00000000e+01  0.00000000e+00  3.00000000e+01  0.00000000e+00  3.00000000e+01 -4.30323858e-08  3.00000000e+01  2.21307672e-09  3.00000000e+01  4.07108425e-08  3.00000000e+01  1.08466585e-10 
 1.00000000e+02  5.00000000e-02  1.00000000e+02  1.20000000e+00  1.00000000e+02  5.00000000e-02  1.00000000e+02  0.00000000e+00  1.00000000e+02  0.00000000e+00  1.00000000e+02 -1.42716138e-07  1.00000000e+02  2.21307556e-09  1.00000000e+02  1.40392952e-07  1.00000000e+02  1.10110234e-10 
 3.00000000e+01  1.00000000e-01  3.00000000e+01  1.20000000e+00  3.00000000e+01  1.00000000e-01  3.00000000e+01  0.00000000e+00  3.00000000e+01  0.00000000e+00  3.00000000e+01 -1.39174088e-07  3.00000000e+01  1.80973525e-09  3.00000000e+01  1.37354956e-07  3.00000000e+01  9.39681429e-12 
 1.00000000e+02  1.00000000e-01  1.00000000e+02  1.20000000e+00  1.00000000e+02  1.00000000e-01  1.00000000e+02  0.00000000e+00  1.00000000e+02  0.00000000e+00  1.00000000e+02 -3.70438964e-07  1.00000000e+02  1.80972903e-09  1.00000000e+02  3.68616624e-07  1.00000000e+02  1.26111860e-11 
 3.00000000e+01  1.50000000e-01  3.00000000e+01  1.20000000e+00  3.00000000e+01  1.50000000e-01  3.00000000e+01  0.00000000e+00  3.00000000e+01  0.00000000e+00  3.00000000e+01 -4.24418853e-07  3.00000000e+01  1.46302526e-09  3.00000000e+01  4.22946662e-07  3.00000000e+01  9.16526370e-12 
 1.00000000e+02  1.50000000e-01  1.00000000e+02  1.20000000e+00  1.00000000e+02  1.50000000e-01  1.00000000e+02  0.00000000e+00  1.00000000e+02  0.00000000e+00  1.00000000e+02 -9.08558614e-07  1.00000000e+02  1.46299028e-09  1.00000000e+02  9.07081927e-07  1.00000000e+02  1.36967614e-11 
 3.00000000e+01  2.00000000e-01  3.00000000e+01  1.20000000e+00  3.00000000e+01  2.00000000e-01  3.00000000e+01  0.00000000e+00  3.00000000e+01  0.00000000e+00  3.00000000e+01 -1.16524719e-06  3.00000000e+01  1.16279975e-09  3.00000000e+01  1.16406382e-06  3.00000000e+01  2.05773340e-11 
 1.00000000e+02  2.00000000e-01  1.00000000e+02  1.20000000e+00  1.00000000e+02  2.00000000e-01  1.00000000e+02  0.00000000e+00  1.00000000e+02  0.00000000e+00  1.00000000e+02 -2.05074906e-06  1.00000000e+02  1.16260912e-09  1.00000000e+02  2.04956312e-06  1.00000000e+02  2.33322596e-11 
 3.00000000e+01  2.50000000e-01  3.00000000e+01  1.20000000e+00  3.00000000e+01  2.50000000e-01  3.00000000e+01  0.00000000e+00  3.00000000e+01  0.00000000e+00  3.00000000e+01 -2.77957851e-06  3.00000000e+01  8.99453845e-10  3.00000000e+01  2.77864409e-06  3.00000000e+01  3.49608021e-11 
 1.00000000e+02  2.50000000e-01  1.00000000e+02  1.20000000e+00  1.00000000e+02  2.50000000e-01  1.00000000e+02  0.00000000e+00  1.00000000e+02  0.00000000e+00  1.00000000e+02 -4.13722847e-06  1.00000000e+02  8.98513708e-10  1.00000000e+02  4.13629910e-06  1.00000000e+02  3.08559747e-11 
 3.00000000e+01  3.00000000e-01  3.00000000e+01  1.20000000e+00  3.00000000e+01  3.00000000e-01  3.00000000e+01  0.00000000e+00  3.00000000e+01  0.00000000e+00  3.00000000e+01 -5.59640275e-06  3.00000000e+01  6.61133814e-10  3.00000000e+01  5.59569873e-06  3.00000000e+01  4.28866465e-11 
 1.00000000e+02  3.00000000e-01  1.00000000e+02  1.20000000e+00  1.00000000e+02  3.00000000e-01  1.00000000e+02  0.00000000e+00  1.00000000e+02  0.00000000e+00  1.00000000e+02 -7.32979724e-06  1.00000000e+02  6.57591981e-10  1.00000000e+02  7.32910861e-06  1.00000000e+02  3.10387497e-11 
 3.00000000e+01  3.50000000e-01  3.00000000e+01  1.20000000e+00  3.00000000e+01  3.50000000e-01  3.00000000e+01  0.00000000e+00  3.00000000e+01  0.00000000e+00  3.00000000e+01 -9.55060565e-06  3.00000000e+01  4.23147073e-10  3.00000000e+01  9.55014321e-06  3.00000000e+01  3.92899689e-11 
 1.00000000e+02  3.50000000e-01  1.00000000e+02  1.20000000e+00  1.00000000e+02  3.50000000e-01  1.00000000e+02  0.00000000e+00  1.00000000e+02  0.00000000e+00  1.00000000e+02 -1.14778640e-05  1.00000000e+02  4.15935730e-10  1.00000000e+02  1.14774235e-05  1.00000000e+02  2.45654146e-11 
 3.00000000e+01  4.00000000e-01  3.00000000e+01  1.20000000e+00  3.00000000e+01  4.00000000e-01  3.00000000e+01  0.00000000e+00  3.00000000e+01  0.00000000e+00  3.00000000e+01 -1.42718318e-05  3.00000000e+01  1.52381885e-10  3.00000000e+01  1.42716506e-05  3.00000000e+01  2.88088776e-11 
 1.00000000e+02  4.00000000e-01  1.00000000e+02  1.20000000e+00  1.00000000e+02  4.00000000e-01  1.00000000e+02  0.00000000e+00  1.00000000e+02  0.00000000e+00  1.00000000e+02 -1.62496855e-05  1.00000000e+02  1.43762779e-10  1.00000000e+02  1.62495256e-05  1.00000000e+02  1.61513141e-11 
 3.00000000e+01  4.50000000e-01  3.00000000e+01  1.20000000e+00  3.00000000e+01  4.50000000e-01  3.00000000e+01  0.00000000e+00  3.00000000e+01  0.00000000e+00  3.00000000e+01 -1.93843762e-05  3.00000000e+01 -1.61057834e-10  3.00000000e+01  1.93845193e-05  3.00000000e+01  1.80066242e-11 
 1.00000000e+02  4.50000000e-01  1.00000000e+02  1.20000000e+00  1.00000000e+02  4.50000000e-01  1.00000000e+02  0.00000000e+00  1.00000000e+02  0.00000000e+00  1.00000000e+02 -2.13318913e-05  1.00000000e+02 -1.73403514e-10  1.00000000e+02  2.13320554e-05  1.00000000e+02  9.34081859e-12 
 3.00000000e+01  5.00000000e-01  3.00000000e+01  1.20000000e+00  3.00000000e+01  5.00000000e-01  3.00000000e+01  0.00000000e+00  3.00000000e+01  0.00000000e+00  3.00000000e+01 -2.46451776e-05  3.00000000e+01 -5.23931121e-10  3.00000000e+01  2.46456915e-05  3.00000000e+01  1.00230564e-11 
 1.00000000e+02  5.00000000e-01  1.00000000e+02  1.20000000e+00  1.00000000e+02  5.00000000e-01  1.00000000e+02  0.00000000e+00  1.00000000e+02  0.00000000e+00  1.00000000e+02 -2.65157232e-05  1.00000000e+02 -5.44512879e-10  1.00000000e+02  2.65162626e-05  1.00000000e+02  5.15074588e-12 
 3.00000000e+01  5.50000000e-01  3.00000000e+01  1.20000000e+00  3.00000000e+01  5.50000000e-01  3.00000000e+01  0.00000000e+00  3.00000000e+01  0.00000000e+00  3.00000000e+01 -2.99288405e-05  3.00000000e+01 -9.50187040e-10  3.00000000e+01  2.99297856e-05  3.00000000e+01  5.15399368e-12 
 1.00000000e+02  5.50000000e-01  1.00000000e+02  1.20000000e+00  1.00000000e+02  5.50000000e-01  1.00000000e+02  0.00000000e+00  1.00000000e+02  0.00000000e+00  1.00000000e+02 -3.16886858e-05  1.00000000e+02 -9.83466197e-10  1.00000000e+02  3.16896660e-05  1.00000000e+02  3.31339270e-12 
 3.00000000e+01  6.00000000e-01  3.00000000e+01  1.20000000e+00  3.00000000e+01  6.00000000e-01  3.00000000e+01  0.00000000e+00  3.00000000e+01  0.00000000e+00  3.00000000e+01 -3.51784296e-05  3.00000000e+01 -1.45728585e-09  3.00000000e+01  3.51798842e-05  3.00000000e+01  2.66108018e-12 
 1.00000000e+02  6.00000000e-01  1.00000000e+02  1.20000000e+00  1.00000000e+02  6.00000000e-01  1.00000000e+02  0.00000000e+00  1.00000000e+02  0.00000000e+00  1.00000000e+02 -3.67994199e-05  1.00000000e+02 -1.50818913e-09  1.00000000e+02  3.68009246e-05  1.00000000e+02  3.50218107e-12 
 3.00000000e+01  6.50000000e-01  3.00000000e+01  1.20000000e+00  3.00000000e+01  6.50000000e-01  3.00000000e+01  0.00000000e+00  3.00000000e+01  0.00000000e+00  3.00000000e+01 -4.03700773e-05  3.00000000e+01 -2.06511208e-09  3.00000000e+01  4.03721406e-05  3.00000000e+01  1.83546014e-12 
 1.00000000e+02  6.50000000e-01  1.00000000e+02  1.20000000e+00  1.00000000e+02  6.50000000e-01  1.00000000e+02  0.00000000e+00  1.00000000e+02  0.00000000e+00  1.00000000e+02 -4.18286072e-05  1.00000000e+02 -2.13977325e-09  1.00000000e+02  4.18307410e-05  1.00000000e+02  6.02402585e-12 
 3.00000000e+01  7.00000000e-01  3.00000000e+01  1.20000000e+00  3.00000000e+01  7.00000000e-01  3.00000000e+01  0.00000000e+00  3.00000000e+01  0.00000000e+00  3.00000000e+01 -4.54943108e-05  3.00000000e+01 -2.79621437e-09  3.00000000e+01  4.54971046e-05  3.00000000e+01  2.45726818e-12 
 1.00000000e+02  7.00000000e-01  1.00000000e+02  1.20000000e+00  1.00000000e+02  7.00000000e-01  1.00000000e+02  0.00000000e+00  1.00000000e+02  0.00000000e+00  1.00000000e+02 -4.67715087e-05  1.00000000e+02 -2.90292457e-09  1.00000000e+02  4.67743991e-05  1.00000000e+02  1.25350169e-11 
 3.00000000e+01  7.50000000e-01  3.00000000e+01  1.20000000e+00  3.00000000e+01  7.50000000e-01  3.00000000e+01  0.00000000e+00  3.00000000e+01  0.00000000e+00  3.00000000e+01 -5.05474904e-05  3.00000000e+01 -3.67651198e-09  3.00000000e+01  5.05511616e-05  3.00000000e+01  5.29089783e-12 
 1.00000000e+02  7.50000000e-01  1.00000000e+02  1.20000000e+00  1.00000000e+02  7.50000000e-01  1.00000000e+02  0.00000000e+00  1.00000000e+02  0.00000000e+00  1.00000000e+02 -5.16290429e-05  1.00000000e+02 -3.82735044e-09  1.00000000e+02  5.16328437e-05  1.00000000e+02  2.66038777e-11 
 3.00000000e+01  8.00000000e-01  3.00000000e+01  1.20000000e+00  3.00000000e+01  8.00000000e-01  3.00000000e+01  0.00000000e+00  3.00000000e+01  0.00000000e+00  3.00000000e+01 -5.55281991e-05  3.00000000e+01 -4.73652939e-09  3.00000000e+01  5.55329233e-05  3.00000000e+01  1.23103334e-11 
 1.00000000e+02  8.00000000e-01  1.00000000e+02  1.20000000e+00  1.00000000e+02  8.00000000e-01  1.00000000e+02  0.00000000e+00  1.00000000e+02  0.00000000e+00  1.00000000e+02 -5.64037344e-05  1.00000000e+02 -4.95037655e-09  1.00000000e+02  5.64086285e-05  1.00000000e+02  5.62617654e-11 
 3.00000000e+01  8.50000000e-01  3.00000000e+01  1.20000000e+00  3.00000000e+01  8.50000000e-01  3.00000000e+01  0.00000000e+00  3.00000000e+01  0.00000000e+00  3.00000000e+01 -6.04358190e-05  3.00000000e+01 -6.01372507e-09  3.00000000e+01  6.04418037e-05  3.00000000e+01  2.89529095e-11 
 1.00000000e+02  8.50000000e-01  1.00000000e+02  1.20000000e+00  1.00000000e+02  8.50000000e-01  1.00000000e+02  0.00000000e+00  1.00000000e+02  0.00000000e+00  1.00000000e+02 -6.10980964e-05  1.00000000e+02 -6.32175245e-09  1.00000000e+02  6.11043000e-05  1.00000000e+02  1.18152447e-10 
 3.00000000e+01  9.00000000e-01  3.00000000e+01  1.20000000e+00  3.00000000e+01  9.00000000e-01  3.00000000e+01  0.00000000e+00  3.00000000e+01  0.00000000e+00  3.00000000e+01 -6.52700015e-05  3.00000000e+01 -7.55720109e-09  3.00000000e+01  6.52774906e-05  3.00000000e+01  6.81096506e-11 
 1.00000000e+02  9.00000000e-01  1.00000000e+02  1.20000000e+00  1.00000000e+02  9.00000000e-01  1.00000000e+02  0.00000000e+00  1.00000000e+02  0.00000000e+00  1.00000000e+02 -6.57141170e-05  1.00000000e+02 -8.01236810e-09  1.00000000e+02  6.57218838e-05  1.00000000e+02  2.45566079e-10 
 3.00000000e+01  9.50000000e-01  3.00000000e+01  1.20000000e+00  3.00000000e+01  9.50000000e-01  3.00000000e+01  0.00000000e+00  3.00000000e+01  0.00000000e+00  3.00000000e+01 -7.00304819e-05  3.00000000e+01 -9.43740774e-09  3.00000000e+01  7.00397603e-05  3.00000000e+01  1.59094068e-10 
 1.00000000e+02  9.50000000e-01  1.00000000e+02  1.20000000e+00  1.00000000e+02  9.50000000e-01  1.00000000e+02  0.00000000e+00  1.00000000e+02  0.00000000e+00  1.00000000e+02 -7.02531920e-05  1.00000000e+02 -1.01294058e-08  1.00000000e+02  7.02628185e-05  1.00000000e+02  5.02940799e-10 
 3.00000000e+01  1.00000000e+00  3.00000000e+01  1.20000000e+00  3.00000000e+01  1.00000000e+00  3.00000000e+01  0.00000000e+00  3.00000000e+01  0.00000000e+00  3.00000000e+01 -7.47170118e-05  3.00000000e+01 -1.17651462e-08  3.00000000e+01  7.47284107e-05  3.00000000e+01  3.66253937e-10 
 1.00000000e+02  1.00000000e+00  1.00000000e+02  1.20000000e+00  1.00000000e+02  1.00000000e+00  1.00000000e+02  0.00000000e+00  1.00000000e+02  0.00000000e+00  1.00000000e+02 -7.47162064e-05  1.00000000e+02 -1.28400215e-08  1.00000000e+02  7.47280373e-05  1.00000000e+02  1.00913130e-09 
 3.00000000e+01  1.05000000e+00  3.00000000e+01  1.20000000e+00  3.00000000e+01  1.05000000e+00  3.00000000e+01  0.00000000e+00  3.00000000e+01  0.00000000e+00  3.00000000e+01 -7.93293291e-05  3.00000000e+01 -1.47234163e-08  3.00000000e+01  7.93432298e-05  3.00000000e+01  8.22726822e-10 
 1.00000000e+02  1.05000000e+00  1.00000000e+02  1.20000000e+00  1.00000000e+02  1.05000000e+00  1.00000000e+02  0.00000000e+00  1.00000000e+02  0.00000000e+00  1.00000000e+02 -7.91036403e-05  1.00000000e+02 -1.64010920e-08  1.00000000e+02  7.91180723e-05  1.00000000e+02  1.96903927e-09 
 3.00000000e+01  1.10000000e+00  3.00000000e+01  1.20000000e+00  3.00000000e+01  1.10000000e+00  3.00000000e+01  0.00000000e+00  3.00000000e+01  0.00000000e+00  3.00000000e+01 -8.38671170e-05  3.00000000e+01 -1.86296569e-08  3.00000000e+01  8.38839674e-05  3.00000000e+01  1.77931062e-09 
 1.00000000e+02  1.10000000e+00  1.00000000e+02  1.20000000e+00  1.00000000e+02  1.10000000e+00  1.00000000e+02  0.00000000e+00  1.00000000e+02  0.00000000e+00  1.00000000e+02 -8.34156389e-05  1.00000000e+02 -2.12055742e-08  1.00000000e+02  8.34331379e-05  1.00000000e+02  3.70655993e-09 
 3.00000000e+01  1.15000000e+00  3.00000000e+01  1.20000000e+00  3.00000000e+01  1.15000000e+00  3.00000000e+01  0.00000000e+00  3.00000000e+01  0.00000000e+00  3.00000000e+01 -8.83299856e-05  3.00000000e+01 -2.39670586e-08  3.00000000e+01  8.83503033e-05  3.00000000e+01  3.64940811e-09 
 1.00000000e+02  1.15000000e+00  1.00000000e+02  1.20000000e+00  1.00000000e+02  1.15000000e+00  1.00000000e+02  0.00000000e+00  1.00000000e+02  0.00000000e+00  1.00000000e+02 -8.76520751e-05  1.00000000e+02 -2.77906054e-08  1.00000000e+02  8.76731794e-05  1.00000000e+02  6.68627789e-09 
 3.00000000e+01  1.20000000e+00  3.00000000e+01  1.20000000e+00  3.00000000e+01  1.20000000e+00  3.00000000e+01  0.00000000e+00  3.00000000e+01  0.00000000e+00  3.00000000e+01 -9.27174271e-05  3.00000000e+01 -3.13957091e-08  3.00000000e+01  9.27418084e-05  3.00000000e+01  7.01442199e-09 
 1.00000000e+02  1.20000000e+00  1.00000000e+02  1.20000000e+00  1.00000000e+02  1.20000000e+00  1.00000000e+02  0.00000000e+00  1.00000000e+02  0.00000000e+00  1.00000000e+02 -9.18125603e-05  1.00000000e+02 -3.68482782e-08  1.00000000e+02  9.18378901e-05  1.00000000e+02  1.15184448e-08 
