  temp-sweep      abs(v(alim))    v(drain)        v(gate)         temp-sweep      v(source)       v(body)         i(vd)           temp-sweep      i(vg)           i(vs)           i(vb)
 3.00000000e+01  5.00000000e-02  3.00000000e+01  1.20000000e+00  3.00000000e+01  5.00000000e-02  3.00000000e+01  0.00000000e+00  3.00000000e+01  0.00000000e+00  3.00000000e+01 -9.83944085e-08  3.00000000e+01  5.05846107e-09  3.00000000e+01  9.31187484e-08  3.00000000e+01  2.17199026e-10 
 1.00000000e+02  5.00000000e-02  1.00000000e+02  1.20000000e+00  1.00000000e+02  5.00000000e-02  1.00000000e+02  0.00000000e+00  1.00000000e+02  0.00000000e+00  1.00000000e+02 -3.26237011e-07  1.00000000e+02  5.05845831e-09  1.00000000e+02  3.20957610e-07  1.00000000e+02  2.20942005e-10 
 3.00000000e+01  1.00000000e-01  3.00000000e+01  1.20000000e+00  3.00000000e+01  1.00000000e-01  3.00000000e+01  0.00000000e+00  3.00000000e+01  0.00000000e+00  3.00000000e+01 -3.18126697e-07  3.00000000e+01  4.13653783e-09  3.00000000e+01  3.13970480e-07  3.00000000e+01  1.96797145e-11 
 1.00000000e+02  1.00000000e-01  1.00000000e+02  1.20000000e+00  1.00000000e+02  1.00000000e-01  1.00000000e+02  0.00000000e+00  1.00000000e+02  0.00000000e+00  1.00000000e+02 -8.45877350e-07  1.00000000e+02  4.13652335e-09  1.00000000e+02  8.41713850e-07  1.00000000e+02  2.69768549e-11 
 3.00000000e+01  1.50000000e-01  3.00000000e+01  1.20000000e+00  3.00000000e+01  1.50000000e-01  3.00000000e+01  0.00000000e+00  3.00000000e+01  0.00000000e+00  3.00000000e+01 -9.68483324e-07  3.00000000e+01  3.34405770e-09  3.00000000e+01  9.65118459e-07  3.00000000e+01  2.08068925e-11 
 1.00000000e+02  1.50000000e-01  1.00000000e+02  1.20000000e+00  1.00000000e+02  1.50000000e-01  1.00000000e+02  0.00000000e+00  1.00000000e+02  0.00000000e+00  1.00000000e+02 -2.06970988e-06  1.00000000e+02  3.34397793e-09  1.00000000e+02  2.06633490e-06  1.00000000e+02  3.10063411e-11 
 3.00000000e+01  2.00000000e-01  3.00000000e+01  1.20000000e+00  3.00000000e+01  2.00000000e-01  3.00000000e+01  0.00000000e+00  3.00000000e+01  0.00000000e+00  3.00000000e+01 -2.64947901e-06  3.00000000e+01  2.65782824e-09  3.00000000e+01  2.64677462e-06  3.00000000e+01  4.65591256e-11 
 1.00000000e+02  2.00000000e-01  1.00000000e+02  1.20000000e+00  1.00000000e+02  2.00000000e-01  1.00000000e+02  0.00000000e+00  1.00000000e+02  0.00000000e+00  1.00000000e+02 -4.65333517e-06  1.00000000e+02  2.65739208e-09  1.00000000e+02  4.65062525e-06  1.00000000e+02  5.25239281e-11 
 3.00000000e+01  2.50000000e-01  3.00000000e+01  1.20000000e+00  3.00000000e+01  2.50000000e-01  3.00000000e+01  0.00000000e+00  3.00000000e+01  0.00000000e+00  3.00000000e+01 -6.28530564e-06  3.00000000e+01  2.05589479e-09  3.00000000e+01  6.28317138e-06  3.00000000e+01  7.83672077e-11 
 1.00000000e+02  2.50000000e-01  1.00000000e+02  1.20000000e+00  1.00000000e+02  2.50000000e-01  1.00000000e+02  0.00000000e+00  1.00000000e+02  0.00000000e+00  1.00000000e+02 -9.33977624e-06  1.00000000e+02  2.05374617e-09  1.00000000e+02  9.33765378e-06  1.00000000e+02  6.87104402e-11 
 3.00000000e+01  3.00000000e-01  3.00000000e+01  1.20000000e+00  3.00000000e+01  3.00000000e-01  3.00000000e+01  0.00000000e+00  3.00000000e+01  0.00000000e+00  3.00000000e+01 -1.25751919e-05  3.00000000e+01  1.51116741e-09  3.00000000e+01  1.25735859e-05  3.00000000e+01  9.47741627e-11 
 1.00000000e+02  3.00000000e-01  1.00000000e+02  1.20000000e+00  1.00000000e+02  3.00000000e-01  1.00000000e+02  0.00000000e+00  1.00000000e+02  0.00000000e+00  1.00000000e+02 -1.64583186e-05  1.00000000e+02  1.50307677e-09  1.00000000e+02  1.64567474e-05  1.00000000e+02  6.80534590e-11 
 3.00000000e+01  3.50000000e-01  3.00000000e+01  1.20000000e+00  3.00000000e+01  3.50000000e-01  3.00000000e+01  0.00000000e+00  3.00000000e+01  0.00000000e+00  3.00000000e+01 -2.13377619e-05  3.00000000e+01  9.67232072e-10  3.00000000e+01  2.13367095e-05  3.00000000e+01  8.52094252e-11 
 1.00000000e+02  3.50000000e-01  1.00000000e+02  1.20000000e+00  1.00000000e+02  3.50000000e-01  1.00000000e+02  0.00000000e+00  1.00000000e+02  0.00000000e+00  1.00000000e+02 -2.56498088e-05  1.00000000e+02  9.50770018e-10  1.00000000e+02  2.56488053e-05  1.00000000e+02  5.27965456e-11 
 3.00000000e+01  4.00000000e-01  3.00000000e+01  1.20000000e+00  3.00000000e+01  4.00000000e-01  3.00000000e+01  0.00000000e+00  3.00000000e+01  0.00000000e+00  3.00000000e+01 -3.17420402e-05  3.00000000e+01  3.48500229e-10  3.00000000e+01  3.17416306e-05  3.00000000e+01  6.10819122e-11 
 1.00000000e+02  4.00000000e-01  1.00000000e+02  1.20000000e+00  1.00000000e+02  4.00000000e-01  1.00000000e+02  0.00000000e+00  1.00000000e+02  0.00000000e+00  1.00000000e+02 -3.61751514e-05  1.00000000e+02  3.28852612e-10  1.00000000e+02  3.61747887e-05  1.00000000e+02  3.39040241e-11 
 3.00000000e+01  4.50000000e-01  3.00000000e+01  1.20000000e+00  3.00000000e+01  4.50000000e-01  3.00000000e+01  0.00000000e+00  3.00000000e+01  0.00000000e+00  3.00000000e+01 -4.29685110e-05  3.00000000e+01 -3.67532893e-10  3.00000000e+01  4.29688413e-05  3.00000000e+01  3.72101015e-11 
 1.00000000e+02  4.50000000e-01  1.00000000e+02  1.20000000e+00  1.00000000e+02  4.50000000e-01  1.00000000e+02  0.00000000e+00  1.00000000e+02  0.00000000e+00  1.00000000e+02 -4.73512231e-05  1.00000000e+02 -3.95640187e-10  1.00000000e+02  4.73515996e-05  1.00000000e+02  1.91221473e-11 
 3.00000000e+01  5.00000000e-01  3.00000000e+01  1.20000000e+00  3.00000000e+01  5.00000000e-01  3.00000000e+01  0.00000000e+00  3.00000000e+01  0.00000000e+00  3.00000000e+01 -5.44960585e-05  3.00000000e+01 -1.19619514e-09  3.00000000e+01  5.44972345e-05  3.00000000e+01  2.01406920e-11 
 1.00000000e+02  5.00000000e-01  1.00000000e+02  1.20000000e+00  1.00000000e+02  5.00000000e-01  1.00000000e+02  0.00000000e+00  1.00000000e+02  0.00000000e+00  1.00000000e+02 -5.87295374e-05  1.00000000e+02 -1.24303678e-09  1.00000000e+02  5.87307701e-05  1.00000000e+02  1.03554319e-11 
 3.00000000e+01  5.50000000e-01  3.00000000e+01  1.20000000e+00  3.00000000e+01  5.50000000e-01  3.00000000e+01  0.00000000e+00  3.00000000e+01  0.00000000e+00  3.00000000e+01 -6.60600756e-05  3.00000000e+01 -2.16923079e-09  3.00000000e+01  6.60622347e-05  3.00000000e+01  1.00753659e-11 
 1.00000000e+02  5.50000000e-01  1.00000000e+02  1.20000000e+00  1.00000000e+02  5.50000000e-01  1.00000000e+02  0.00000000e+00  1.00000000e+02  0.00000000e+00  1.00000000e+02 -7.00718271e-05  1.00000000e+02 -2.24496155e-09  1.00000000e+02  7.00740653e-05  1.00000000e+02  6.77419541e-12 
 3.00000000e+01  6.00000000e-01  3.00000000e+01  1.20000000e+00  3.00000000e+01  6.00000000e-01  3.00000000e+01  0.00000000e+00  3.00000000e+01  0.00000000e+00  3.00000000e+01 -7.75428276e-05  3.00000000e+01 -3.32637828e-09  3.00000000e+01  7.75461488e-05  3.00000000e+01  5.14126160e-12 
 1.00000000e+02  6.00000000e-01  1.00000000e+02  1.20000000e+00  1.00000000e+02  6.00000000e-01  1.00000000e+02  0.00000000e+00  1.00000000e+02  0.00000000e+00  1.00000000e+02 -8.12715203e-05  1.00000000e+02 -3.44221651e-09  1.00000000e+02  8.12749549e-05  1.00000000e+02  7.59762616e-12 
 3.00000000e+01  6.50000000e-01  3.00000000e+01  1.20000000e+00  3.00000000e+01  6.50000000e-01  3.00000000e+01  0.00000000e+00  3.00000000e+01  0.00000000e+00  3.00000000e+01 -8.88965214e-05  3.00000000e+01 -4.71288786e-09  3.00000000e+01  8.89012306e-05  3.00000000e+01  3.72338866e-12 
 1.00000000e+02  6.50000000e-01  1.00000000e+02  1.20000000e+00  1.00000000e+02  6.50000000e-01  1.00000000e+02  0.00000000e+00  1.00000000e+02  0.00000000e+00  1.00000000e+02 -9.22902594e-05  1.00000000e+02 -4.88280327e-09  1.00000000e+02  9.22951287e-05  1.00000000e+02  1.35778717e-11 
 3.00000000e+01  7.00000000e-01  3.00000000e+01  1.20000000e+00  3.00000000e+01  7.00000000e-01  3.00000000e+01  0.00000000e+00  3.00000000e+01  0.00000000e+00  3.00000000e+01 -1.00103249e-04  3.00000000e+01 -6.38006803e-09  3.00000000e+01  1.00109624e-04  3.00000000e+01  5.39853972e-12 
 1.00000000e+02  7.00000000e-01  1.00000000e+02  1.20000000e+00  1.00000000e+02  7.00000000e-01  1.00000000e+02  0.00000000e+00  1.00000000e+02  0.00000000e+00  1.00000000e+02 -1.03120238e-04  1.00000000e+02 -6.62295263e-09  1.00000000e+02  1.03126832e-04  1.00000000e+02  2.86133150e-11 
 3.00000000e+01  7.50000000e-01  3.00000000e+01  1.20000000e+00  3.00000000e+01  7.50000000e-01  3.00000000e+01  0.00000000e+00  3.00000000e+01  0.00000000e+00  3.00000000e+01 -1.11156841e-04  3.00000000e+01 -8.38689052e-09  3.00000000e+01  1.11165216e-04  3.00000000e+01  1.20513750e-11 
 1.00000000e+02  7.50000000e-01  1.00000000e+02  1.20000000e+00  1.00000000e+02  7.50000000e-01  1.00000000e+02  0.00000000e+00  1.00000000e+02  0.00000000e+00  1.00000000e+02 -1.13765135e-04  1.00000000e+02 -8.73029116e-09  1.00000000e+02  1.13773805e-04  1.00000000e+02  6.07680349e-11 
 3.00000000e+01  8.00000000e-01  3.00000000e+01  1.20000000e+00  3.00000000e+01  8.00000000e-01  3.00000000e+01  0.00000000e+00  3.00000000e+01  0.00000000e+00  3.00000000e+01 -1.22055339e-04  3.00000000e+01 -1.08028122e-08  3.00000000e+01  1.22066114e-04  3.00000000e+01  2.80930033e-11 
 1.00000000e+02  8.00000000e-01  1.00000000e+02  1.20000000e+00  1.00000000e+02  8.00000000e-01  1.00000000e+02  0.00000000e+00  1.00000000e+02  0.00000000e+00  1.00000000e+02 -1.24231559e-04  1.00000000e+02 -1.12898149e-08  1.00000000e+02  1.24242721e-04  1.00000000e+02  1.28554983e-10 
 3.00000000e+01  8.50000000e-01  3.00000000e+01  1.20000000e+00  3.00000000e+01  8.50000000e-01  3.00000000e+01  0.00000000e+00  3.00000000e+01  0.00000000e+00  3.00000000e+01 -1.32798105e-04  3.00000000e+01 -1.37130907e-08  3.00000000e+01  1.32811752e-04  3.00000000e+01  6.61305614e-11 
 1.00000000e+02  8.50000000e-01  1.00000000e+02  1.20000000e+00  1.00000000e+02  8.50000000e-01  1.00000000e+02  0.00000000e+00  1.00000000e+02  0.00000000e+00  1.00000000e+02 -1.34525700e-04  1.00000000e+02 -1.44148606e-08  1.00000000e+02  1.34539845e-04  1.00000000e+02  2.70017056e-10 
 3.00000000e+01  9.00000000e-01  3.00000000e+01  1.20000000e+00  3.00000000e+01  9.00000000e-01  3.00000000e+01  0.00000000e+00  3.00000000e+01  0.00000000e+00  3.00000000e+01 -1.43384797e-04  3.00000000e+01 -1.72295436e-08  3.00000000e+01  1.43401871e-04  3.00000000e+01  1.55629249e-10 
 1.00000000e+02  9.00000000e-01  1.00000000e+02  1.20000000e+00  1.00000000e+02  9.00000000e-01  1.00000000e+02  0.00000000e+00  1.00000000e+02  0.00000000e+00  1.00000000e+02 -1.44652326e-04  1.00000000e+02 -1.82670443e-08  1.00000000e+02  1.44670032e-04  1.00000000e+02  5.61246029e-10 
 3.00000000e+01  9.50000000e-01  3.00000000e+01  1.20000000e+00  3.00000000e+01  9.50000000e-01  3.00000000e+01  0.00000000e+00  3.00000000e+01  0.00000000e+00  3.00000000e+01 -1.53815053e-04  3.00000000e+01 -2.15127263e-08  3.00000000e+01  1.53836202e-04  3.00000000e+01  3.63591367e-10 
 1.00000000e+02  9.50000000e-01  1.00000000e+02  1.20000000e+00  1.00000000e+02  9.50000000e-01  1.00000000e+02  0.00000000e+00  1.00000000e+02  0.00000000e+00  1.00000000e+02 -1.54614711e-04  1.00000000e+02 -2.30908703e-08  1.00000000e+02  1.54636652e-04  1.00000000e+02  1.14952905e-09 
 3.00000000e+01  1.00000000e+00  3.00000000e+01  1.20000000e+00  3.00000000e+01  1.00000000e+00  3.00000000e+01  0.00000000e+00  3.00000000e+01  0.00000000e+00  3.00000000e+01 -1.64088393e-04  3.00000000e+01 -2.68153624e-08  3.00000000e+01  1.64114371e-04  3.00000000e+01  8.37097511e-10 
 1.00000000e+02  1.00000000e+00  1.00000000e+02  1.20000000e+00  1.00000000e+02  1.00000000e+00  1.00000000e+02  0.00000000e+00  1.00000000e+02  0.00000000e+00  1.00000000e+02 -1.64414861e-04  1.00000000e+02 -2.92678610e-08  1.00000000e+02  1.64441822e-04  1.00000000e+02  2.30653390e-09 
 3.00000000e+01  1.05000000e+00  3.00000000e+01  1.20000000e+00  3.00000000e+01  1.05000000e+00  3.00000000e+01  0.00000000e+00  3.00000000e+01  0.00000000e+00  3.00000000e+01 -1.74204189e-04  3.00000000e+01 -3.35551249e-08  3.00000000e+01  1.74235864e-04  3.00000000e+01  1.88046202e-09 
 1.00000000e+02  1.05000000e+00  1.00000000e+02  1.20000000e+00  1.00000000e+02  1.05000000e+00  1.00000000e+02  0.00000000e+00  1.00000000e+02  0.00000000e+00  1.00000000e+02 -1.74053777e-04  1.00000000e+02 -3.73845492e-08  1.00000000e+02  1.74086661e-04  1.00000000e+02  4.50060716e-09 
 3.00000000e+01  1.10000000e+00  3.00000000e+01  1.20000000e+00  3.00000000e+01  1.10000000e+00  3.00000000e+01  0.00000000e+00  3.00000000e+01  0.00000000e+00  3.00000000e+01 -1.84161594e-04  3.00000000e+01 -4.24569095e-08  3.00000000e+01  1.84199984e-04  3.00000000e+01  4.06693702e-09 
 1.00000000e+02  1.10000000e+00  1.00000000e+02  1.20000000e+00  1.00000000e+02  1.10000000e+00  1.00000000e+02  0.00000000e+00  1.00000000e+02  0.00000000e+00  1.00000000e+02 -1.83531621e-04  1.00000000e+02 -4.83384341e-08  1.00000000e+02  1.83571487e-04  1.00000000e+02  8.47208037e-09 
 3.00000000e+01  1.15000000e+00  3.00000000e+01  1.20000000e+00  3.00000000e+01  1.15000000e+00  3.00000000e+01  0.00000000e+00  3.00000000e+01  0.00000000e+00  3.00000000e+01 -1.93959511e-04  3.00000000e+01 -5.46243886e-08  3.00000000e+01  1.94005794e-04  3.00000000e+01  8.34144264e-09 
 1.00000000e+02  1.15000000e+00  1.00000000e+02  1.20000000e+00  1.00000000e+02  1.15000000e+00  1.00000000e+02  0.00000000e+00  1.00000000e+02  0.00000000e+00  1.00000000e+02 -1.92847864e-04  1.00000000e+02 -6.33564898e-08  1.00000000e+02  1.92895937e-04  1.00000000e+02  1.52828605e-08 
 3.00000000e+01  1.20000000e+00  3.00000000e+01  1.20000000e+00  3.00000000e+01  1.20000000e+00  3.00000000e+01  0.00000000e+00  3.00000000e+01  0.00000000e+00  3.00000000e+01 -2.03596503e-04  3.00000000e+01 -7.15654793e-08  3.00000000e+01  2.03652035e-04  3.00000000e+01  1.60328984e-08 
 1.00000000e+02  1.20000000e+00  1.00000000e+02  1.20000000e+00  1.00000000e+02  1.20000000e+00  1.00000000e+02  0.00000000e+00  1.00000000e+02  0.00000000e+00  1.00000000e+02 -2.02001310e-04  1.00000000e+02 -8.40197978e-08  1.00000000e+02  2.02059002e-04  1.00000000e+02  2.63278069e-08 
