Title: *nmos on - w2
Date: Tue Feb 15 20:20:34  2022
Plotname: DC transfer characteristic
Flags: real
No. Variables: 10
No. Points: 2
Variables:
	0	temp-sweep	temp-sweep
	1	abs(v(alim))	voltage
	2	v(drain)	voltage
	3	v(gate)	voltage
	4	v(source)	voltage
	5	v(body)	voltage
	6	i(i(vd))	current
	7	i(i(vg))	current
	8	i(i(vs))	current
	9	i(i(vb))	current
Values:
 0	3.000000000000000e+01
	5.000000000000000e-02
	1.200000000000000e+00
	5.000000000000000e-02
	0.000000000000000e+00
	0.000000000000000e+00
	-9.839440846184191e-08
	5.058461066687059e-09
	9.311874835844008e-08
	2.171990255527617e-10

 1	1.000000000000000e+02
	5.000000000000000e-02
	1.200000000000000e+00
	5.000000000000000e-02
	0.000000000000000e+00
	0.000000000000000e+00
	-3.262370107324094e-07
	5.058458305007285e-09
	3.209576104383196e-07
	2.209420050004502e-10

Title: *nmos on - w2
Date: Tue Feb 15 20:20:34  2022
Plotname: DC transfer characteristic
Flags: real
No. Variables: 10
No. Points: 2
Variables:
	0	temp-sweep	temp-sweep
	1	abs(v(alim))	voltage
	2	v(drain)	voltage
	3	v(gate)	voltage
	4	v(source)	voltage
	5	v(body)	voltage
	6	i(i(vd))	current
	7	i(i(vg))	current
	8	i(i(vs))	current
	9	i(i(vb))	current
Values:
 0	3.000000000000000e+01
	1.000000000000000e-01
	1.200000000000000e+00
	1.000000000000000e-01
	0.000000000000000e+00
	0.000000000000000e+00
	-3.181266973954472e-07
	4.136537834487086e-09
	3.139704798456215e-07
	1.967971450456591e-11

 1	1.000000000000000e+02
	1.000000000000000e-01
	1.200000000000000e+00
	1.000000000000000e-01
	0.000000000000000e+00
	0.000000000000000e+00
	-8.458773502918110e-07
	4.136523346076615e-09
	8.417138500887012e-07
	2.697685491396159e-11

Title: *nmos on - w2
Date: Tue Feb 15 20:20:34  2022
Plotname: DC transfer characteristic
Flags: real
No. Variables: 10
No. Points: 2
Variables:
	0	temp-sweep	temp-sweep
	1	abs(v(alim))	voltage
	2	v(drain)	voltage
	3	v(gate)	voltage
	4	v(source)	voltage
	5	v(body)	voltage
	6	i(i(vd))	current
	7	i(i(vg))	current
	8	i(i(vs))	current
	9	i(i(vb))	current
Values:
 0	3.000000000000000e+01
	1.500000000000000e-01
	1.200000000000000e+00
	1.500000000000000e-01
	0.000000000000000e+00
	0.000000000000000e+00
	-9.684833240626110e-07
	3.344057697418634e-09
	9.651184594844474e-07
	2.080689245597062e-11

 1	1.000000000000000e+02
	1.500000000000000e-01
	1.200000000000000e+00
	1.500000000000000e-01
	0.000000000000000e+00
	0.000000000000000e+00
	-2.069709881800905e-06
	3.343977927894315e-09
	2.066334897543012e-06
	3.100634110285198e-11

Title: *nmos on - w2
Date: Tue Feb 15 20:20:34  2022
Plotname: DC transfer characteristic
Flags: real
No. Variables: 10
No. Points: 2
Variables:
	0	temp-sweep	temp-sweep
	1	abs(v(alim))	voltage
	2	v(drain)	voltage
	3	v(gate)	voltage
	4	v(source)	voltage
	5	v(body)	voltage
	6	i(i(vd))	current
	7	i(i(vg))	current
	8	i(i(vs))	current
	9	i(i(vb))	current
Values:
 0	3.000000000000000e+01
	2.000000000000000e-01
	1.200000000000000e+00
	2.000000000000000e-01
	0.000000000000000e+00
	0.000000000000000e+00
	-2.649479006254894e-06
	2.657828235275161e-09
	2.646774618917288e-06
	4.655912557261364e-11

 1	1.000000000000000e+02
	2.000000000000000e-01
	1.200000000000000e+00
	2.000000000000000e-01
	0.000000000000000e+00
	0.000000000000000e+00
	-4.653335168206826e-06
	2.657392084159937e-09
	4.650625252166780e-06
	5.252392807424154e-11

Title: *nmos on - w2
Date: Tue Feb 15 20:20:34  2022
Plotname: DC transfer characteristic
Flags: real
No. Variables: 10
No. Points: 2
Variables:
	0	temp-sweep	temp-sweep
	1	abs(v(alim))	voltage
	2	v(drain)	voltage
	3	v(gate)	voltage
	4	v(source)	voltage
	5	v(body)	voltage
	6	i(i(vd))	current
	7	i(i(vg))	current
	8	i(i(vs))	current
	9	i(i(vb))	current
Values:
 0	3.000000000000000e+01
	2.500000000000000e-01
	1.200000000000000e+00
	2.500000000000000e-01
	0.000000000000000e+00
	0.000000000000000e+00
	-6.285305642211705e-06
	2.055894787744705e-09
	6.283171380238008e-06
	7.836720766048917e-11

 1	1.000000000000000e+02
	2.500000000000000e-01
	1.200000000000000e+00
	2.500000000000000e-01
	0.000000000000000e+00
	0.000000000000000e+00
	-9.339776236981552e-06
	2.053746173125148e-09
	9.337653780309865e-06
	6.871044016761633e-11

Title: *nmos on - w2
Date: Tue Feb 15 20:20:34  2022
Plotname: DC transfer characteristic
Flags: real
No. Variables: 10
No. Points: 2
Variables:
	0	temp-sweep	temp-sweep
	1	abs(v(alim))	voltage
	2	v(drain)	voltage
	3	v(gate)	voltage
	4	v(source)	voltage
	5	v(body)	voltage
	6	i(i(vd))	current
	7	i(i(vg))	current
	8	i(i(vs))	current
	9	i(i(vb))	current
Values:
 0	3.000000000000000e+01
	3.000000000000000e-01
	1.200000000000000e+00
	3.000000000000000e-01
	0.000000000000000e+00
	0.000000000000000e+00
	-1.257519186980866e-05
	1.511167413426051e-09
	1.257358592816427e-05
	9.477416273349110e-11

 1	1.000000000000000e+02
	3.000000000000000e-01
	1.200000000000000e+00
	3.000000000000000e-01
	0.000000000000000e+00
	0.000000000000000e+00
	-1.645831857105048e-05
	1.503076774156398e-09
	1.645674744077892e-05
	6.805345903312619e-11

Title: *nmos on - w2
Date: Tue Feb 15 20:20:34  2022
Plotname: DC transfer characteristic
Flags: real
No. Variables: 10
No. Points: 2
Variables:
	0	temp-sweep	temp-sweep
	1	abs(v(alim))	voltage
	2	v(drain)	voltage
	3	v(gate)	voltage
	4	v(source)	voltage
	5	v(body)	voltage
	6	i(i(vd))	current
	7	i(i(vg))	current
	8	i(i(vs))	current
	9	i(i(vb))	current
Values:
 0	3.000000000000000e+01
	3.500000000000000e-01
	1.200000000000000e+00
	3.500000000000000e-01
	0.000000000000000e+00
	0.000000000000000e+00
	-2.133776190162086e-05
	9.672320722131644e-10
	2.133670945997230e-05
	8.520942521759917e-11

 1	1.000000000000000e+02
	3.500000000000000e-01
	1.200000000000000e+00
	3.500000000000000e-01
	0.000000000000000e+00
	0.000000000000000e+00
	-2.564980884513458e-05
	9.507700182709300e-10
	2.564880527850198e-05
	5.279654563580858e-11

Title: *nmos on - w2
Date: Tue Feb 15 20:20:34  2022
Plotname: DC transfer characteristic
Flags: real
No. Variables: 10
No. Points: 2
Variables:
	0	temp-sweep	temp-sweep
	1	abs(v(alim))	voltage
	2	v(drain)	voltage
	3	v(gate)	voltage
	4	v(source)	voltage
	5	v(body)	voltage
	6	i(i(vd))	current
	7	i(i(vg))	current
	8	i(i(vs))	current
	9	i(i(vb))	current
Values:
 0	3.000000000000000e+01
	4.000000000000000e-01
	1.200000000000000e+00
	4.000000000000000e-01
	0.000000000000000e+00
	0.000000000000000e+00
	-3.174204018533491e-05
	3.485002286751637e-10
	3.174163060325456e-05
	6.108191216098856e-11

 1	1.000000000000000e+02
	4.000000000000000e-01
	1.200000000000000e+00
	4.000000000000000e-01
	0.000000000000000e+00
	0.000000000000000e+00
	-3.617515144896516e-05
	3.288526118083723e-10
	3.617478869240495e-05
	3.390402407175413e-11

Title: *nmos on - w2
Date: Tue Feb 15 20:20:34  2022
Plotname: DC transfer characteristic
Flags: real
No. Variables: 10
No. Points: 2
Variables:
	0	temp-sweep	temp-sweep
	1	abs(v(alim))	voltage
	2	v(drain)	voltage
	3	v(gate)	voltage
	4	v(source)	voltage
	5	v(body)	voltage
	6	i(i(vd))	current
	7	i(i(vg))	current
	8	i(i(vs))	current
	9	i(i(vb))	current
Values:
 0	3.000000000000000e+01
	4.500000000000000e-01
	1.200000000000000e+00
	4.500000000000000e-01
	0.000000000000000e+00
	0.000000000000000e+00
	-4.296851096451849e-05
	-3.675328930086152e-10
	4.296884128739330e-05
	3.721010152435694e-11

 1	1.000000000000000e+02
	4.500000000000000e-01
	1.200000000000000e+00
	4.500000000000000e-01
	0.000000000000000e+00
	0.000000000000000e+00
	-4.735122311888184e-05
	-3.956401872784454e-10
	4.735159963680378e-05
	1.912214733494683e-11

Title: *nmos on - w2
Date: Tue Feb 15 20:20:34  2022
Plotname: DC transfer characteristic
Flags: real
No. Variables: 10
No. Points: 2
Variables:
	0	temp-sweep	temp-sweep
	1	abs(v(alim))	voltage
	2	v(drain)	voltage
	3	v(gate)	voltage
	4	v(source)	voltage
	5	v(body)	voltage
	6	i(i(vd))	current
	7	i(i(vg))	current
	8	i(i(vs))	current
	9	i(i(vb))	current
Values:
 0	3.000000000000000e+01
	4.999999999999999e-01
	1.200000000000000e+00
	4.999999999999999e-01
	0.000000000000000e+00
	0.000000000000000e+00
	-5.449605848272895e-05
	-1.196195142938450e-09
	5.449723453736148e-05
	2.014069198822389e-11

 1	1.000000000000000e+02
	4.999999999999999e-01
	1.200000000000000e+00
	4.999999999999999e-01
	0.000000000000000e+00
	0.000000000000000e+00
	-5.872953742065567e-05
	-1.243036784615015e-09
	5.873077010213914e-05
	1.035543185307023e-11

Title: *nmos on - w2
Date: Tue Feb 15 20:20:34  2022
Plotname: DC transfer characteristic
Flags: real
No. Variables: 10
No. Points: 2
Variables:
	0	temp-sweep	temp-sweep
	1	abs(v(alim))	voltage
	2	v(drain)	voltage
	3	v(gate)	voltage
	4	v(source)	voltage
	5	v(body)	voltage
	6	i(i(vd))	current
	7	i(i(vg))	current
	8	i(i(vs))	current
	9	i(i(vb))	current
Values:
 0	3.000000000000000e+01
	5.499999999999999e-01
	1.200000000000000e+00
	5.499999999999999e-01
	0.000000000000000e+00
	0.000000000000000e+00
	-6.606007557343555e-05
	-2.169230794990540e-09
	6.606223472897811e-05
	1.007536590029891e-11

 1	1.000000000000000e+02
	5.499999999999999e-01
	1.200000000000000e+00
	5.499999999999999e-01
	0.000000000000000e+00
	0.000000000000000e+00
	-7.007182706637688e-05
	-2.244961549990876e-09
	7.007406525364801e-05
	6.774195406496537e-12

Title: *nmos on - w2
Date: Tue Feb 15 20:20:34  2022
Plotname: DC transfer characteristic
Flags: real
No. Variables: 10
No. Points: 2
Variables:
	0	temp-sweep	temp-sweep
	1	abs(v(alim))	voltage
	2	v(drain)	voltage
	3	v(gate)	voltage
	4	v(source)	voltage
	5	v(body)	voltage
	6	i(i(vd))	current
	7	i(i(vg))	current
	8	i(i(vs))	current
	9	i(i(vb))	current
Values:
 0	3.000000000000000e+01
	6.000000000000000e-01
	1.200000000000000e+00
	6.000000000000000e-01
	0.000000000000000e+00
	0.000000000000000e+00
	-7.754282756028368e-05
	-3.326378283929898e-09
	7.754614879727143e-05
	5.141261604482824e-12

 1	1.000000000000000e+02
	6.000000000000000e-01
	1.200000000000000e+00
	6.000000000000000e-01
	0.000000000000000e+00
	0.000000000000000e+00
	-8.127152030092293e-05
	-3.442216511828633e-09
	8.127495491983678e-05
	7.597626157419055e-12

Title: *nmos on - w2
Date: Tue Feb 15 20:20:34  2022
Plotname: DC transfer characteristic
Flags: real
No. Variables: 10
No. Points: 2
Variables:
	0	temp-sweep	temp-sweep
	1	abs(v(alim))	voltage
	2	v(drain)	voltage
	3	v(gate)	voltage
	4	v(source)	voltage
	5	v(body)	voltage
	6	i(i(vd))	current
	7	i(i(vg))	current
	8	i(i(vs))	current
	9	i(i(vb))	current
Values:
 0	3.000000000000000e+01
	6.500000000000000e-01
	1.200000000000000e+00
	6.500000000000000e-01
	0.000000000000000e+00
	0.000000000000000e+00
	-8.889652142832537e-05
	-4.712887857749593e-09
	8.890123059287770e-05
	3.723388655161512e-12

 1	1.000000000000000e+02
	6.500000000000000e-01
	1.200000000000000e+00
	6.500000000000000e-01
	0.000000000000000e+00
	0.000000000000000e+00
	-9.229025944850955e-05
	-4.882803272820979e-09
	9.229512867393717e-05
	1.357787168950980e-11

Title: *nmos on - w2
Date: Tue Feb 15 20:20:34  2022
Plotname: DC transfer characteristic
Flags: real
No. Variables: 10
No. Points: 2
Variables:
	0	temp-sweep	temp-sweep
	1	abs(v(alim))	voltage
	2	v(drain)	voltage
	3	v(gate)	voltage
	4	v(source)	voltage
	5	v(body)	voltage
	6	i(i(vd))	current
	7	i(i(vg))	current
	8	i(i(vs))	current
	9	i(i(vb))	current
Values:
 0	3.000000000000000e+01
	7.000000000000001e-01
	1.200000000000000e+00
	7.000000000000001e-01
	0.000000000000000e+00
	0.000000000000000e+00
	-1.001032489140984e-04
	-6.380068029443464e-09
	1.001096235835127e-04
	5.398539724291927e-12

 1	1.000000000000000e+02
	7.000000000000001e-01
	1.200000000000000e+00
	7.000000000000001e-01
	0.000000000000000e+00
	0.000000000000000e+00
	-1.031202378254089e-04
	-6.622952630763734e-09
	1.031268321647104e-04
	2.861331496656979e-11

Title: *nmos on - w2
Date: Tue Feb 15 20:20:34  2022
Plotname: DC transfer characteristic
Flags: real
No. Variables: 10
No. Points: 2
Variables:
	0	temp-sweep	temp-sweep
	1	abs(v(alim))	voltage
	2	v(drain)	voltage
	3	v(gate)	voltage
	4	v(source)	voltage
	5	v(body)	voltage
	6	i(i(vd))	current
	7	i(i(vg))	current
	8	i(i(vs))	current
	9	i(i(vb))	current
Values:
 0	3.000000000000000e+01
	7.500000000000001e-01
	1.200000000000000e+00
	7.500000000000001e-01
	0.000000000000000e+00
	0.000000000000000e+00
	-1.111568409604553e-04
	-8.386890515410528e-09
	1.111652157996786e-04
	1.205137502911184e-11

 1	1.000000000000000e+02
	7.500000000000001e-01
	1.200000000000000e+00
	7.500000000000001e-01
	0.000000000000000e+00
	0.000000000000000e+00
	-1.137651351599091e-04
	-8.730291156666681e-09
	1.137738046832355e-04
	6.076803489319361e-11

Title: *nmos on - w2
Date: Tue Feb 15 20:20:34  2022
Plotname: DC transfer characteristic
Flags: real
No. Variables: 10
No. Points: 2
Variables:
	0	temp-sweep	temp-sweep
	1	abs(v(alim))	voltage
	2	v(drain)	voltage
	3	v(gate)	voltage
	4	v(source)	voltage
	5	v(body)	voltage
	6	i(i(vd))	current
	7	i(i(vg))	current
	8	i(i(vs))	current
	9	i(i(vb))	current
Values:
 0	3.000000000000000e+01
	8.000000000000002e-01
	1.200000000000000e+00
	8.000000000000002e-01
	0.000000000000000e+00
	0.000000000000000e+00
	-1.220553392275964e-04
	-1.080281220033896e-08
	1.220661139467721e-04
	2.809300329371335e-11

 1	1.000000000000000e+02
	8.000000000000002e-01
	1.200000000000000e+00
	8.000000000000002e-01
	0.000000000000000e+00
	0.000000000000000e+00
	-1.242315593129475e-04
	-1.128981486075986e-08
	1.242427205726640e-04
	1.285549829453692e-10

Title: *nmos on - w2
Date: Tue Feb 15 20:20:34  2022
Plotname: DC transfer characteristic
Flags: real
No. Variables: 10
No. Points: 2
Variables:
	0	temp-sweep	temp-sweep
	1	abs(v(alim))	voltage
	2	v(drain)	voltage
	3	v(gate)	voltage
	4	v(source)	voltage
	5	v(body)	voltage
	6	i(i(vd))	current
	7	i(i(vg))	current
	8	i(i(vs))	current
	9	i(i(vb))	current
Values:
 0	3.000000000000000e+01
	8.500000000000002e-01
	1.200000000000000e+00
	8.500000000000002e-01
	0.000000000000000e+00
	0.000000000000000e+00
	-1.327981046745862e-04
	-1.371309066300341e-08
	1.328117516346085e-04
	6.613056137816895e-11

 1	1.000000000000000e+02
	8.500000000000002e-01
	1.200000000000000e+00
	8.500000000000002e-01
	0.000000000000000e+00
	0.000000000000000e+00
	-1.345257001992130e-04
	-1.441486063846753e-08
	1.345398450426248e-04
	2.700170556013996e-10

Title: *nmos on - w2
Date: Tue Feb 15 20:20:34  2022
Plotname: DC transfer characteristic
Flags: real
No. Variables: 10
No. Points: 2
Variables:
	0	temp-sweep	temp-sweep
	1	abs(v(alim))	voltage
	2	v(drain)	voltage
	3	v(gate)	voltage
	4	v(source)	voltage
	5	v(body)	voltage
	6	i(i(vd))	current
	7	i(i(vg))	current
	8	i(i(vs))	current
	9	i(i(vb))	current
Values:
 0	3.000000000000000e+01
	9.000000000000002e-01
	1.200000000000000e+00
	9.000000000000002e-01
	0.000000000000000e+00
	0.000000000000000e+00
	-1.433847971157194e-04
	-1.722954356964124e-08
	1.434018710297007e-04
	1.556292488972111e-10

 1	1.000000000000000e+02
	9.000000000000002e-01
	1.200000000000000e+00
	9.000000000000002e-01
	0.000000000000000e+00
	0.000000000000000e+00
	-1.446523257744966e-04
	-1.826704432161819e-08
	1.446700315727572e-04
	5.612460285367467e-10

Title: *nmos on - w2
Date: Tue Feb 15 20:20:34  2022
Plotname: DC transfer characteristic
Flags: real
No. Variables: 10
No. Points: 2
Variables:
	0	temp-sweep	temp-sweep
	1	abs(v(alim))	voltage
	2	v(drain)	voltage
	3	v(gate)	voltage
	4	v(source)	voltage
	5	v(body)	voltage
	6	i(i(vd))	current
	7	i(i(vg))	current
	8	i(i(vs))	current
	9	i(i(vb))	current
Values:
 0	3.000000000000000e+01
	9.500000000000003e-01
	1.200000000000000e+00
	9.500000000000003e-01
	0.000000000000000e+00
	0.000000000000000e+00
	-1.538150531188732e-04
	-2.151272626704781e-08
	1.538362022536034e-04
	3.635913670812463e-10

 1	1.000000000000000e+02
	9.500000000000003e-01
	1.200000000000000e+00
	9.500000000000003e-01
	0.000000000000000e+00
	0.000000000000000e+00
	-1.546147107099743e-04
	-2.309087032692503e-08
	1.546366520512993e-04
	1.149529047523382e-09

Title: *nmos on - w2
Date: Tue Feb 15 20:20:34  2022
Plotname: DC transfer characteristic
Flags: real
No. Variables: 10
No. Points: 2
Variables:
	0	temp-sweep	temp-sweep
	1	abs(v(alim))	voltage
	2	v(drain)	voltage
	3	v(gate)	voltage
	4	v(source)	voltage
	5	v(body)	voltage
	6	i(i(vd))	current
	7	i(i(vg))	current
	8	i(i(vs))	current
	9	i(i(vb))	current
Values:
 0	3.000000000000000e+01
	1.000000000000000e+00
	1.200000000000000e+00
	1.000000000000000e+00
	0.000000000000000e+00
	0.000000000000000e+00
	-1.640883932035842e-04
	-2.681536237503224e-08
	1.641143714683498e-04
	8.370975114478546e-10

 1	1.000000000000000e+02
	1.000000000000000e+00
	1.200000000000000e+00
	1.000000000000000e+00
	0.000000000000000e+00
	0.000000000000000e+00
	-1.644148610507588e-04
	-2.926786102364076e-08
	1.644418223777950e-04
	2.306533898380659e-09

Title: *nmos on - w2
Date: Tue Feb 15 20:20:34  2022
Plotname: DC transfer characteristic
Flags: real
No. Variables: 10
No. Points: 2
Variables:
	0	temp-sweep	temp-sweep
	1	abs(v(alim))	voltage
	2	v(drain)	voltage
	3	v(gate)	voltage
	4	v(source)	voltage
	5	v(body)	voltage
	6	i(i(vd))	current
	7	i(i(vg))	current
	8	i(i(vs))	current
	9	i(i(vb))	current
Values:
 0	3.000000000000000e+01
	1.050000000000000e+00
	1.200000000000000e+00
	1.050000000000000e+00
	0.000000000000000e+00
	0.000000000000000e+00
	-1.742041892005317e-04
	-3.355512490088586e-08
	1.742358638636391e-04
	1.880462023843042e-09

 1	1.000000000000000e+02
	1.050000000000000e+00
	1.200000000000000e+00
	1.050000000000000e+00
	0.000000000000000e+00
	0.000000000000000e+00
	-1.740537769940295e-04
	-3.738454923407630e-08
	1.740866609361922e-04
	4.500607156957442e-09

Title: *nmos on - w2
Date: Tue Feb 15 20:20:34  2022
Plotname: DC transfer characteristic
Flags: real
No. Variables: 10
No. Points: 2
Variables:
	0	temp-sweep	temp-sweep
	1	abs(v(alim))	voltage
	2	v(drain)	voltage
	3	v(gate)	voltage
	4	v(source)	voltage
	5	v(body)	voltage
	6	i(i(vd))	current
	7	i(i(vg))	current
	8	i(i(vs))	current
	9	i(i(vb))	current
Values:
 0	3.000000000000000e+01
	1.100000000000000e+00
	1.200000000000000e+00
	1.100000000000000e+00
	0.000000000000000e+00
	0.000000000000000e+00
	-1.841615936088582e-04
	-4.245690954363113e-08
	1.841999835817028e-04
	4.066937018748830e-09

 1	1.000000000000000e+02
	1.100000000000000e+00
	1.200000000000000e+00
	1.100000000000000e+00
	0.000000000000000e+00
	0.000000000000000e+00
	-1.835316207406962e-04
	-4.833843414431271e-08
	1.835714870943290e-04
	8.472080369829555e-09

Title: *nmos on - w2
Date: Tue Feb 15 20:20:34  2022
Plotname: DC transfer characteristic
Flags: real
No. Variables: 10
No. Points: 2
Variables:
	0	temp-sweep	temp-sweep
	1	abs(v(alim))	voltage
	2	v(drain)	voltage
	3	v(gate)	voltage
	4	v(source)	voltage
	5	v(body)	voltage
	6	i(i(vd))	current
	7	i(i(vg))	current
	8	i(i(vs))	current
	9	i(i(vb))	current
Values:
 0	3.000000000000000e+01
	1.150000000000000e+00
	1.200000000000000e+00
	1.150000000000000e+00
	0.000000000000000e+00
	0.000000000000000e+00
	-1.939595111992567e-04
	-5.462438856795870e-08
	1.940057941449825e-04
	8.341442639003280e-09

 1	1.000000000000000e+02
	1.150000000000000e+00
	1.200000000000000e+00
	1.150000000000000e+00
	0.000000000000000e+00
	0.000000000000000e+00
	-1.928478637402880e-04
	-6.335648983224473e-08
	1.928959373694106e-04
	1.528286048518397e-08

Title: *nmos on - w2
Date: Tue Feb 15 20:20:34  2022
Plotname: DC transfer characteristic
Flags: real
No. Variables: 10
No. Points: 2
Variables:
	0	temp-sweep	temp-sweep
	1	abs(v(alim))	voltage
	2	v(drain)	voltage
	3	v(gate)	voltage
	4	v(source)	voltage
	5	v(body)	voltage
	6	i(i(vd))	current
	7	i(i(vg))	current
	8	i(i(vs))	current
	9	i(i(vb))	current
Values:
 0	3.000000000000000e+01
	1.200000000000000e+00
	1.200000000000000e+00
	1.200000000000000e+00
	0.000000000000000e+00
	0.000000000000000e+00
	-2.035965026556450e-04
	-7.156547932041235e-08
	2.036520352364750e-04
	1.603289836825580e-08

 1	1.000000000000000e+02
	1.200000000000000e+00
	1.200000000000000e+00
	1.200000000000000e+00
	0.000000000000000e+00
	0.000000000000000e+00
	-2.020013097044947e-04
	-8.401979778582813e-08
	2.020590016952976e-04
	2.632780692354433e-08

