  temp-sweep      abs(v(alim))    v(drain)        v(gate)         temp-sweep      v(source)       v(body)         i(vd)           temp-sweep      i(vg)           i(vs)           i(vb)
 3.00000000e+01  5.00000000e-02  3.00000000e+01  1.20000000e+00  3.00000000e+01  5.00000000e-02  3.00000000e+01  0.00000000e+00  3.00000000e+01  0.00000000e+00  3.00000000e+01 -1.53760363e-07  3.00000000e+01  7.90384534e-09  3.00000000e+01  1.45530586e-07  3.00000000e+01  3.25931163e-10 
 1.00000000e+02  5.00000000e-02  1.00000000e+02  1.20000000e+00  1.00000000e+02  5.00000000e-02  1.00000000e+02  0.00000000e+00  1.00000000e+02  0.00000000e+00  1.00000000e+02 -5.09757748e-07  1.00000000e+02  7.90384098e-09  1.00000000e+02  5.01522134e-07  1.00000000e+02  3.31772403e-10 
 3.00000000e+01  1.00000000e-01  3.00000000e+01  1.20000000e+00  3.00000000e+01  1.00000000e-01  3.00000000e+01  0.00000000e+00  3.00000000e+01  0.00000000e+00  3.00000000e+01 -4.97075629e-07  3.00000000e+01  6.46334031e-09  3.00000000e+01  4.90582328e-07  3.00000000e+01  2.99612688e-11 
 1.00000000e+02  1.00000000e-01  1.00000000e+02  1.20000000e+00  1.00000000e+02  1.00000000e-01  1.00000000e+02  0.00000000e+00  1.00000000e+02  0.00000000e+00  1.00000000e+02 -1.32123420e-06  1.00000000e+02  6.46331766e-09  1.00000000e+02  1.31472954e-06  1.00000000e+02  4.13373818e-11 
 3.00000000e+01  1.50000000e-01  3.00000000e+01  1.20000000e+00  3.00000000e+01  1.50000000e-01  3.00000000e+01  0.00000000e+00  3.00000000e+01  0.00000000e+00  3.00000000e+01 -1.51240149e-06  3.00000000e+01  5.22509008e-09  3.00000000e+01  1.50714396e-06  3.00000000e+01  3.24410696e-11 
 1.00000000e+02  1.50000000e-01  1.00000000e+02  1.20000000e+00  1.00000000e+02  1.50000000e-01  1.00000000e+02  0.00000000e+00  1.00000000e+02  0.00000000e+00  1.00000000e+02 -3.23027205e-06  1.00000000e+02  5.22496546e-09  1.00000000e+02  3.22499879e-06  1.00000000e+02  4.82969391e-11 
 3.00000000e+01  2.00000000e-01  3.00000000e+01  1.20000000e+00  3.00000000e+01  2.00000000e-01  3.00000000e+01  0.00000000e+00  3.00000000e+01  0.00000000e+00  3.00000000e+01 -4.13257974e-06  3.00000000e+01  4.15285656e-09  3.00000000e+01  4.12835438e-06  3.00000000e+01  7.25066854e-11 
 1.00000000e+02  2.00000000e-01  1.00000000e+02  1.20000000e+00  1.00000000e+02  2.00000000e-01  1.00000000e+02  0.00000000e+00  1.00000000e+02  0.00000000e+00  1.00000000e+02 -7.25324224e-06  1.00000000e+02  4.15217521e-09  1.00000000e+02  7.24900841e-06  1.00000000e+02  8.16596125e-11 
 3.00000000e+01  2.50000000e-01  3.00000000e+01  1.20000000e+00  3.00000000e+01  2.50000000e-01  3.00000000e+01  0.00000000e+00  3.00000000e+01  0.00000000e+00  3.00000000e+01 -9.78591860e-06  3.00000000e+01  3.21233562e-09  3.00000000e+01  9.78258459e-06  3.00000000e+01  1.21669662e-10 
 1.00000000e+02  2.50000000e-01  1.00000000e+02  1.20000000e+00  1.00000000e+02  2.50000000e-01  1.00000000e+02  0.00000000e+00  1.00000000e+02  0.00000000e+00  1.00000000e+02 -1.45337276e-05  1.00000000e+02  3.20897892e-09  1.00000000e+02  1.45304122e-05  1.00000000e+02  1.06449168e-10 
 3.00000000e+01  3.00000000e-01  3.00000000e+01  1.20000000e+00  3.00000000e+01  3.00000000e-01  3.00000000e+01  0.00000000e+00  3.00000000e+01  0.00000000e+00  3.00000000e+01 -1.95388923e-05  3.00000000e+01  2.36120112e-09  3.00000000e+01  1.95363846e-05  3.00000000e+01  1.46468315e-10 
 1.00000000e+02  3.00000000e-01  1.00000000e+02  1.20000000e+00  1.00000000e+02  3.00000000e-01  1.00000000e+02  0.00000000e+00  1.00000000e+02  0.00000000e+00  1.00000000e+02 -2.55664484e-05  1.00000000e+02  2.34856201e-09  1.00000000e+02  2.55639949e-05  1.00000000e+02  1.04906641e-10 
 3.00000000e+01  3.50000000e-01  3.00000000e+01  1.20000000e+00  3.00000000e+01  3.50000000e-01  3.00000000e+01  0.00000000e+00  3.00000000e+01  0.00000000e+00  3.00000000e+01 -3.30929574e-05  3.00000000e+01  1.51131985e-09  3.00000000e+01  3.30913152e-05  3.00000000e+01  1.30897997e-10 
 1.00000000e+02  3.50000000e-01  1.00000000e+02  1.20000000e+00  1.00000000e+02  3.50000000e-01  1.00000000e+02  0.00000000e+00  1.00000000e+02  0.00000000e+00  1.00000000e+02 -3.97836724e-05  1.00000000e+02  1.48560825e-09  1.00000000e+02  3.97821059e-05  1.00000000e+02  8.08704616e-11 
 3.00000000e+01  4.00000000e-01  3.00000000e+01  1.20000000e+00  3.00000000e+01  4.00000000e-01  3.00000000e+01  0.00000000e+00  3.00000000e+01  0.00000000e+00  3.00000000e+01 -4.91583655e-05  3.00000000e+01  5.44630341e-10  3.00000000e+01  4.91577277e-05  3.00000000e+01  9.31614881e-11 
 1.00000000e+02  4.00000000e-01  1.00000000e+02  1.20000000e+00  1.00000000e+02  4.00000000e-01  1.00000000e+02  0.00000000e+00  1.00000000e+02  0.00000000e+00  1.00000000e+02 -5.60407049e-05  1.00000000e+02  5.13957765e-10  1.00000000e+02  5.60401394e-05  1.00000000e+02  5.15441638e-11 
 3.00000000e+01  4.50000000e-01  3.00000000e+01  1.20000000e+00  3.00000000e+01  4.50000000e-01  3.00000000e+01  0.00000000e+00  3.00000000e+01  0.00000000e+00  3.00000000e+01 -6.64742083e-05  3.00000000e+01 -5.73972647e-10  3.00000000e+01  6.64747260e-05  3.00000000e+01  5.62919460e-11 
 1.00000000e+02  4.50000000e-01  1.00000000e+02  1.20000000e+00  1.00000000e+02  4.50000000e-01  1.00000000e+02  0.00000000e+00  1.00000000e+02  0.00000000e+00  1.00000000e+02 -7.32866559e-05  1.00000000e+02 -6.17834228e-10  1.00000000e+02  7.32872449e-05  1.00000000e+02  2.88421978e-11 
 3.00000000e+01  5.00000000e-01  3.00000000e+01  1.20000000e+00  3.00000000e+01  5.00000000e-01  3.00000000e+01  0.00000000e+00  3.00000000e+01  0.00000000e+00  3.00000000e+01 -8.42429535e-05  3.00000000e+01 -1.86838134e-09  3.00000000e+01  8.42447916e-05  3.00000000e+01  3.02003662e-11 
 1.00000000e+02  5.00000000e-01  1.00000000e+02  1.20000000e+00  1.00000000e+02  5.00000000e-01  1.00000000e+02  0.00000000e+00  1.00000000e+02  0.00000000e+00  1.00000000e+02 -9.08346926e-05  1.00000000e+02 -1.94146921e-09  1.00000000e+02  9.08366185e-05  1.00000000e+02  1.55354899e-11 
 3.00000000e+01  5.50000000e-01  3.00000000e+01  1.20000000e+00  3.00000000e+01  5.50000000e-01  3.00000000e+01  0.00000000e+00  3.00000000e+01  0.00000000e+00  3.00000000e+01 -1.02061623e-04  3.00000000e+01 -3.38812634e-09  3.00000000e+01  1.02064996e-04  3.00000000e+01  1.49782131e-11 
 1.00000000e+02  5.50000000e-01  1.00000000e+02  1.20000000e+00  1.00000000e+02  5.50000000e-01  1.00000000e+02  0.00000000e+00  1.00000000e+02  0.00000000e+00  1.00000000e+02 -1.08321528e-04  1.00000000e+02 -3.50628671e-09  1.00000000e+02  1.08325024e-04  1.00000000e+02  1.02294328e-11 
 3.00000000e+01  6.00000000e-01  3.00000000e+01  1.20000000e+00  3.00000000e+01  6.00000000e-01  3.00000000e+01  0.00000000e+00  3.00000000e+01  0.00000000e+00  3.00000000e+01 -1.19752057e-04  3.00000000e+01 -5.19521604e-09  3.00000000e+01  1.19757244e-04  3.00000000e+01  7.62094926e-12 
 1.00000000e+02  6.00000000e-01  1.00000000e+02  1.20000000e+00  1.00000000e+02  6.00000000e-01  1.00000000e+02  0.00000000e+00  1.00000000e+02  0.00000000e+00  1.00000000e+02 -1.25585725e-04  1.00000000e+02 -5.37595557e-09  1.00000000e+02  1.25591089e-04  1.00000000e+02  1.16945703e-11 
 3.00000000e+01  6.50000000e-01  3.00000000e+01  1.20000000e+00  3.00000000e+01  6.50000000e-01  3.00000000e+01  0.00000000e+00  3.00000000e+01  0.00000000e+00  3.00000000e+01 -1.37242686e-04  3.00000000e+01 -7.36025718e-09  3.00000000e+01  1.37250041e-04  3.00000000e+01  5.61606822e-12 
 1.00000000e+02  6.50000000e-01  1.00000000e+02  1.20000000e+00  1.00000000e+02  6.50000000e-01  1.00000000e+02  0.00000000e+00  1.00000000e+02  0.00000000e+00  1.00000000e+02 -1.42570023e-04  1.00000000e+02 -7.62537711e-09  1.00000000e+02  1.42577627e-04  1.00000000e+02  2.11344325e-11 
 3.00000000e+01  7.00000000e-01  3.00000000e+01  1.20000000e+00  3.00000000e+01  7.00000000e-01  3.00000000e+01  0.00000000e+00  3.00000000e+01  0.00000000e+00  3.00000000e+01 -1.54507221e-04  3.00000000e+01 -9.96330485e-09  3.00000000e+01  1.54517176e-04  3.00000000e+01  8.34428998e-12 
 1.00000000e+02  7.00000000e-01  1.00000000e+02  1.20000000e+00  1.00000000e+02  7.00000000e-01  1.00000000e+02  0.00000000e+00  1.00000000e+02  0.00000000e+00  1.00000000e+02 -1.59263585e-04  1.00000000e+02 -1.03422945e-08  1.00000000e+02  1.59273883e-04  1.00000000e+02  4.46903250e-11 
 3.00000000e+01  7.50000000e-01  3.00000000e+01  1.20000000e+00  3.00000000e+01  7.50000000e-01  3.00000000e+01  0.00000000e+00  3.00000000e+01  0.00000000e+00  3.00000000e+01 -1.71536977e-04  3.00000000e+01 -1.30963695e-08  3.00000000e+01  1.71550055e-04  3.00000000e+01  1.88104254e-11 
 1.00000000e+02  7.50000000e-01  1.00000000e+02  1.20000000e+00  1.00000000e+02  7.50000000e-01  1.00000000e+02  0.00000000e+00  1.00000000e+02  0.00000000e+00  1.00000000e+02 -1.75672851e-04  1.00000000e+02 -1.36322382e-08  1.00000000e+02  1.75686388e-04  1.00000000e+02  9.49307865e-11 
 3.00000000e+01  8.00000000e-01  3.00000000e+01  1.20000000e+00  3.00000000e+01  8.00000000e-01  3.00000000e+01  0.00000000e+00  3.00000000e+01  0.00000000e+00  3.00000000e+01 -1.88329456e-04  3.00000000e+01 -1.68678231e-08  3.00000000e+01  1.88346280e-04  3.00000000e+01  4.38741301e-11 
 1.00000000e+02  8.00000000e-01  1.00000000e+02  1.20000000e+00  1.00000000e+02  8.00000000e-01  1.00000000e+02  0.00000000e+00  1.00000000e+02  0.00000000e+00  1.00000000e+02 -1.91808496e-04  1.00000000e+02 -1.76278552e-08  1.00000000e+02  1.91825923e-04  1.00000000e+02  2.00846680e-10 
 3.00000000e+01  8.50000000e-01  3.00000000e+01  1.20000000e+00  3.00000000e+01  8.50000000e-01  3.00000000e+01  0.00000000e+00  3.00000000e+01  0.00000000e+00  3.00000000e+01 -2.04883992e-04  3.00000000e+01 -2.14107041e-08  3.00000000e+01  2.04905299e-04  3.00000000e+01  1.03306558e-10 
 1.00000000e+02  8.50000000e-01  1.00000000e+02  1.20000000e+00  1.00000000e+02  8.50000000e-01  1.00000000e+02  0.00000000e+00  1.00000000e+02  0.00000000e+00  1.00000000e+02 -2.07680371e-04  1.00000000e+02 -2.25060532e-08  1.00000000e+02  2.07702455e-04  1.00000000e+02  4.21880018e-10 
 3.00000000e+01  9.00000000e-01  3.00000000e+01  1.20000000e+00  3.00000000e+01  9.00000000e-01  3.00000000e+01  0.00000000e+00  3.00000000e+01  0.00000000e+00  3.00000000e+01 -2.21200246e-04  3.00000000e+01 -2.68995231e-08  3.00000000e+01  2.21226902e-04  3.00000000e+01  2.43147072e-10 
 1.00000000e+02  9.00000000e-01  1.00000000e+02  1.20000000e+00  1.00000000e+02  9.00000000e-01  1.00000000e+02  0.00000000e+00  1.00000000e+02  0.00000000e+00  1.00000000e+02 -2.23296006e-04  1.00000000e+02 -2.85191490e-08  1.00000000e+02  2.23323648e-04  1.00000000e+02  8.76924170e-10 
 3.00000000e+01  9.50000000e-01  3.00000000e+01  1.20000000e+00  3.00000000e+01  9.50000000e-01  3.00000000e+01  0.00000000e+00  3.00000000e+01  0.00000000e+00  3.00000000e+01 -2.37277748e-04  3.00000000e+01 -3.35849166e-08  3.00000000e+01  2.37310765e-04  3.00000000e+01  5.68086734e-10 
 1.00000000e+02  9.50000000e-01  1.00000000e+02  1.20000000e+00  1.00000000e+02  9.50000000e-01  1.00000000e+02  0.00000000e+00  1.00000000e+02  0.00000000e+00  1.00000000e+02 -2.38660540e-04  1.00000000e+02 -3.60489434e-08  1.00000000e+02  2.38694793e-04  1.00000000e+02  1.79611522e-09 
 3.00000000e+01  1.00000000e+00  3.00000000e+01  1.20000000e+00  3.00000000e+01  1.00000000e+00  3.00000000e+01  0.00000000e+00  3.00000000e+01  0.00000000e+00  3.00000000e+01 -2.53115781e-04  3.00000000e+01 -4.18615005e-08  3.00000000e+01  2.53156334e-04  3.00000000e+01  1.30793888e-09 
 1.00000000e+02  1.00000000e+00  1.00000000e+02  1.20000000e+00  1.00000000e+02  1.00000000e+00  1.00000000e+02  0.00000000e+00  1.00000000e+02  0.00000000e+00  1.00000000e+02 -2.53777086e-04  1.00000000e+02 -4.56912956e-08  1.00000000e+02  2.53819173e-04  1.00000000e+02  3.60393388e-09 
 3.00000000e+01  1.05000000e+00  3.00000000e+01  1.20000000e+00  3.00000000e+01  1.05000000e+00  3.00000000e+01  0.00000000e+00  3.00000000e+01  0.00000000e+00  3.00000000e+01 -2.68713340e-04  3.00000000e+01 -5.23815915e-08  3.00000000e+01  2.68762783e-04  3.00000000e+01  2.93819441e-09 
 1.00000000e+02  1.05000000e+00  1.00000000e+02  1.20000000e+00  1.00000000e+02  1.05000000e+00  1.00000000e+02  0.00000000e+00  1.00000000e+02  0.00000000e+00  1.00000000e+02 -2.68647151e-04  1.00000000e+02 -5.83623607e-08  1.00000000e+02  2.68698481e-04  1.00000000e+02  7.03217126e-09 
 3.00000000e+01  1.10000000e+00  3.00000000e+01  1.20000000e+00  3.00000000e+01  1.10000000e+00  3.00000000e+01  0.00000000e+00  3.00000000e+01  0.00000000e+00  3.00000000e+01 -2.84069037e-04  3.00000000e+01 -6.62775010e-08  3.00000000e+01  2.84128960e-04  3.00000000e+01  6.35455919e-09 
 1.00000000e+02  1.10000000e+00  1.00000000e+02  1.20000000e+00  1.00000000e+02  1.10000000e+00  1.00000000e+02  0.00000000e+00  1.00000000e+02  0.00000000e+00  1.00000000e+02 -2.83270900e-04  1.00000000e+02 -7.54641414e-08  1.00000000e+02  2.83333127e-04  1.00000000e+02  1.32375945e-08 
 3.00000000e+01  1.15000000e+00  3.00000000e+01  1.20000000e+00  3.00000000e+01  1.15000000e+00  3.00000000e+01  0.00000000e+00  3.00000000e+01  0.00000000e+00  3.00000000e+01 -2.99181058e-04  3.00000000e+01 -8.52733419e-08  3.00000000e+01  2.99253298e-04  3.00000000e+01  1.30334697e-08 
 1.00000000e+02  1.15000000e+00  1.00000000e+02  1.20000000e+00  1.00000000e+02  1.15000000e+00  1.00000000e+02  0.00000000e+00  1.00000000e+02  0.00000000e+00  1.00000000e+02 -2.97647388e-04  1.00000000e+02 -9.89134070e-08  1.00000000e+02  2.97722422e-04  1.00000000e+02  2.38794313e-08 
 3.00000000e+01  1.20000000e+00  3.00000000e+01  1.20000000e+00  3.00000000e+01  1.20000000e+00  3.00000000e+01  0.00000000e+00  3.00000000e+01  0.00000000e+00  3.00000000e+01 -3.14047019e-04  3.00000000e+01 -1.11724818e-07  3.00000000e+01  3.14133692e-04  3.00000000e+01  2.50513601e-08 
 1.00000000e+02  1.20000000e+00  1.00000000e+02  1.20000000e+00  1.00000000e+02  1.20000000e+00  1.00000000e+02  0.00000000e+00  1.00000000e+02  0.00000000e+00  1.00000000e+02 -3.11774591e-04  1.00000000e+02 -1.31180179e-07  1.00000000e+02  3.11864634e-04  1.00000000e+02  4.11371461e-08 
