Title: *nmos on - w4
Date: Tue Feb 15 20:20:40  2022
Plotname: DC transfer characteristic
Flags: real
No. Variables: 10
No. Points: 2
Variables:
	0	temp-sweep	temp-sweep
	1	abs(v(alim))	voltage
	2	v(drain)	voltage
	3	v(gate)	voltage
	4	v(source)	voltage
	5	v(body)	voltage
	6	i(i(vd))	current
	7	i(i(vg))	current
	8	i(i(vs))	current
	9	i(i(vb))	current
Values:
 0	3.000000000000000e+01
	5.000000000000000e-02
	1.200000000000000e+00
	5.000000000000000e-02
	0.000000000000000e+00
	0.000000000000000e+00
	-2.091272597069339e-07
	1.074922945792922e-08
	1.979433670771680e-07
	4.346631730189016e-10

 1	1.000000000000000e+02
	5.000000000000000e-02
	1.200000000000000e+00
	5.000000000000000e-02
	0.000000000000000e+00
	0.000000000000000e+00
	-6.932783106296691e-07
	1.074922352517493e-08
	6.820864846900987e-07
	4.426024088527602e-10

Title: *nmos on - w4
Date: Tue Feb 15 20:20:40  2022
Plotname: DC transfer characteristic
Flags: real
No. Variables: 10
No. Points: 2
Variables:
	0	temp-sweep	temp-sweep
	1	abs(v(alim))	voltage
	2	v(drain)	voltage
	3	v(gate)	voltage
	4	v(source)	voltage
	5	v(body)	voltage
	6	i(i(vd))	current
	7	i(i(vg))	current
	8	i(i(vs))	current
	9	i(i(vb))	current
Values:
 0	3.000000000000000e+01
	1.000000000000000e-01
	1.200000000000000e+00
	1.000000000000000e-01
	0.000000000000000e+00
	0.000000000000000e+00
	-6.760235041186743e-07
	8.790142669301559e-09
	6.671931189651901e-07
	4.024248730488924e-11

 1	1.000000000000000e+02
	1.000000000000000e-01
	1.200000000000000e+00
	1.000000000000000e-01
	0.000000000000000e+00
	0.000000000000000e+00
	-1.796570360549308e-06
	8.790111888368202e-09
	1.787724552028253e-06
	5.569663909461181e-11

Title: *nmos on - w4
Date: Tue Feb 15 20:20:40  2022
Plotname: DC transfer characteristic
Flags: real
No. Variables: 10
No. Points: 2
Variables:
	0	temp-sweep	temp-sweep
	1	abs(v(alim))	voltage
	2	v(drain)	voltage
	3	v(gate)	voltage
	4	v(source)	voltage
	5	v(body)	voltage
	6	i(i(vd))	current
	7	i(i(vg))	current
	8	i(i(vs))	current
	9	i(i(vb))	current
Values:
 0	3.000000000000000e+01
	1.500000000000000e-01
	1.200000000000000e+00
	1.500000000000000e-01
	0.000000000000000e+00
	0.000000000000000e+00
	-2.056282811275032e-06
	7.106122440481144e-09
	2.049132615446913e-06
	4.407340780405000e-11

 1	1.000000000000000e+02
	1.500000000000000e-01
	1.200000000000000e+00
	1.500000000000000e-01
	0.000000000000000e+00
	0.000000000000000e+00
	-4.390687153178901e-06
	7.105952909425284e-09
	4.383515617379234e-06
	6.558287975172726e-11

Title: *nmos on - w4
Date: Tue Feb 15 20:20:40  2022
Plotname: DC transfer characteristic
Flags: real
No. Variables: 10
No. Points: 2
Variables:
	0	temp-sweep	temp-sweep
	1	abs(v(alim))	voltage
	2	v(drain)	voltage
	3	v(gate)	voltage
	4	v(source)	voltage
	5	v(body)	voltage
	6	i(i(vd))	current
	7	i(i(vg))	current
	8	i(i(vs))	current
	9	i(i(vb))	current
Values:
 0	3.000000000000000e+01
	2.000000000000000e-01
	1.200000000000000e+00
	2.000000000000000e-01
	0.000000000000000e+00
	0.000000000000000e+00
	-5.615399594622474e-06
	5.647884854242946e-09
	5.609653263910518e-06
	9.844585631679357e-11

 1	1.000000000000000e+02
	2.000000000000000e-01
	1.200000000000000e+00
	2.000000000000000e-01
	0.000000000000000e+00
	0.000000000000000e+00
	-9.852487094865200e-06
	5.646958206595443e-09
	9.846729354960869e-06
	1.107816809820171e-10

Title: *nmos on - w4
Date: Tue Feb 15 20:20:40  2022
Plotname: DC transfer characteristic
Flags: real
No. Variables: 10
No. Points: 2
Variables:
	0	temp-sweep	temp-sweep
	1	abs(v(alim))	voltage
	2	v(drain)	voltage
	3	v(gate)	voltage
	4	v(source)	voltage
	5	v(body)	voltage
	6	i(i(vd))	current
	7	i(i(vg))	current
	8	i(i(vs))	current
	9	i(i(vb))	current
Values:
 0	3.000000000000000e+01
	2.500000000000000e-01
	1.200000000000000e+00
	2.500000000000000e-01
	0.000000000000000e+00
	0.000000000000000e+00
	-1.328527584339899e-05
	4.368776562735377e-09
	1.328074211984707e-05
	1.649469753907439e-10

 1	1.000000000000000e+02
	2.500000000000000e-01
	1.200000000000000e+00
	2.500000000000000e-01
	0.000000000000000e+00
	0.000000000000000e+00
	-1.972557481241931e-05
	4.364211658725026e-09
	1.972106644061607e-05
	1.441601404731815e-10

Title: *nmos on - w4
Date: Tue Feb 15 20:20:40  2022
Plotname: DC transfer characteristic
Flags: real
No. Variables: 10
No. Points: 2
Variables:
	0	temp-sweep	temp-sweep
	1	abs(v(alim))	voltage
	2	v(drain)	voltage
	3	v(gate)	voltage
	4	v(source)	voltage
	5	v(body)	voltage
	6	i(i(vd))	current
	7	i(i(vg))	current
	8	i(i(vs))	current
	9	i(i(vb))	current
Values:
 0	3.000000000000000e+01
	3.000000000000000e-01
	1.200000000000000e+00
	3.000000000000000e-01
	0.000000000000000e+00
	0.000000000000000e+00
	-2.649892896220738e-05
	3.211234889111125e-09
	2.649551961080485e-05
	1.981165579924577e-10

 1	1.000000000000000e+02
	3.000000000000000e-01
	1.200000000000000e+00
	3.000000000000000e-01
	0.000000000000000e+00
	0.000000000000000e+00
	-3.466963353060786e-05
	3.194047248911147e-09
	3.466629776151981e-05
	1.417218111969566e-10

Title: *nmos on - w4
Date: Tue Feb 15 20:20:40  2022
Plotname: DC transfer characteristic
Flags: real
No. Variables: 10
No. Points: 2
Variables:
	0	temp-sweep	temp-sweep
	1	abs(v(alim))	voltage
	2	v(drain)	voltage
	3	v(gate)	voltage
	4	v(source)	voltage
	5	v(body)	voltage
	6	i(i(vd))	current
	7	i(i(vg))	current
	8	i(i(vs))	current
	9	i(i(vb))	current
Values:
 0	3.000000000000000e+01
	3.500000000000000e-01
	1.200000000000000e+00
	3.500000000000000e-01
	0.000000000000000e+00
	0.000000000000000e+00
	-4.484046668578710e-05
	2.055408065970710e-09
	4.483823474476335e-05
	1.765329879056836e-10

 1	1.000000000000000e+02
	3.500000000000000e-01
	1.200000000000000e+00
	3.500000000000000e-01
	0.000000000000000e+00
	0.000000000000000e+00
	-5.390837510795060e-05
	2.020447364969868e-09
	5.390624575238407e-05
	1.089082428668301e-10

Title: *nmos on - w4
Date: Tue Feb 15 20:20:40  2022
Plotname: DC transfer characteristic
Flags: real
No. Variables: 10
No. Points: 2
Variables:
	0	temp-sweep	temp-sweep
	1	abs(v(alim))	voltage
	2	v(drain)	voltage
	3	v(gate)	voltage
	4	v(source)	voltage
	5	v(body)	voltage
	6	i(i(vd))	current
	7	i(i(vg))	current
	8	i(i(vs))	current
	9	i(i(vb))	current
Values:
 0	3.000000000000000e+01
	4.000000000000000e-01
	1.200000000000000e+00
	4.000000000000000e-01
	0.000000000000000e+00
	0.000000000000000e+00
	-6.656182684605309e-05
	7.407635060907580e-10
	6.656096088518002e-05
	1.251973913113966e-10

 1	1.000000000000000e+02
	4.000000000000000e-01
	1.200000000000000e+00
	4.000000000000000e-01
	0.000000000000000e+00
	0.000000000000000e+00
	-7.589193512252543e-05
	6.990665823991549e-10
	7.589116689675170e-05
	6.915919507497457e-11

Title: *nmos on - w4
Date: Tue Feb 15 20:20:40  2022
Plotname: DC transfer characteristic
Flags: real
No. Variables: 10
No. Points: 2
Variables:
	0	temp-sweep	temp-sweep
	1	abs(v(alim))	voltage
	2	v(drain)	voltage
	3	v(gate)	voltage
	4	v(source)	voltage
	5	v(body)	voltage
	6	i(i(vd))	current
	7	i(i(vg))	current
	8	i(i(vs))	current
	9	i(i(vb))	current
Values:
 0	3.000000000000000e+01
	4.500000000000000e-01
	1.200000000000000e+00
	4.500000000000000e-01
	0.000000000000000e+00
	0.000000000000000e+00
	-8.996127833080128e-05
	-7.804042412296042e-10
	8.996198338761933e-05
	7.534730898287857e-11

 1	1.000000000000000e+02
	4.500000000000000e-01
	1.200000000000000e+00
	4.500000000000000e-01
	0.000000000000000e+00
	0.000000000000000e+00
	-9.920212385044260e-05
	-8.400184992041204e-10
	9.920292531979201e-05
	3.854915074959956e-11

Title: *nmos on - w4
Date: Tue Feb 15 20:20:40  2022
Plotname: DC transfer characteristic
Flags: real
No. Variables: 10
No. Points: 2
Variables:
	0	temp-sweep	temp-sweep
	1	abs(v(alim))	voltage
	2	v(drain)	voltage
	3	v(gate)	voltage
	4	v(source)	voltage
	5	v(body)	voltage
	6	i(i(vd))	current
	7	i(i(vg))	current
	8	i(i(vs))	current
	9	i(i(vb))	current
Values:
 0	3.000000000000000e+01
	4.999999999999999e-01
	1.200000000000000e+00
	4.999999999999999e-01
	0.000000000000000e+00
	0.000000000000000e+00
	-1.139652470426491e-04
	-2.540548882379312e-09
	1.139677473434202e-04
	4.024813222841733e-11

 1	1.000000000000000e+02
	4.999999999999999e-01
	1.200000000000000e+00
	4.999999999999999e-01
	0.000000000000000e+00
	0.000000000000000e+00
	-1.229140788385070e-04
	-2.639879981281013e-09
	1.229166980078892e-04
	2.071068310640558e-11

Title: *nmos on - w4
Date: Tue Feb 15 20:20:40  2022
Plotname: DC transfer characteristic
Flags: real
No. Variables: 10
No. Points: 2
Variables:
	0	temp-sweep	temp-sweep
	1	abs(v(alim))	voltage
	2	v(drain)	voltage
	3	v(gate)	voltage
	4	v(source)	voltage
	5	v(body)	voltage
	6	i(i(vd))	current
	7	i(i(vg))	current
	8	i(i(vs))	current
	9	i(i(vb))	current
Values:
 0	3.000000000000000e+01
	5.499999999999999e-01
	1.200000000000000e+00
	5.499999999999999e-01
	0.000000000000000e+00
	0.000000000000000e+00
	-1.380325720538506e-04
	-4.606986458988160e-09
	1.380371591624910e-04
	1.987778478056058e-11

 1	1.000000000000000e+02
	5.499999999999999e-01
	1.200000000000000e+00
	5.499999999999999e-01
	0.000000000000000e+00
	0.000000000000000e+00
	-1.465396626091916e-04
	-4.767571781805202e-09
	1.465444164970987e-04
	1.368387301391990e-11

Title: *nmos on - w4
Date: Tue Feb 15 20:20:40  2022
Plotname: DC transfer characteristic
Flags: real
No. Variables: 10
No. Points: 2
Variables:
	0	temp-sweep	temp-sweep
	1	abs(v(alim))	voltage
	2	v(drain)	voltage
	3	v(gate)	voltage
	4	v(source)	voltage
	5	v(body)	voltage
	6	i(i(vd))	current
	7	i(i(vg))	current
	8	i(i(vs))	current
	9	i(i(vb))	current
Values:
 0	3.000000000000000e+01
	6.000000000000000e-01
	1.200000000000000e+00
	6.000000000000000e-01
	0.000000000000000e+00
	0.000000000000000e+00
	-1.619247483416032e-04
	-7.063993612277386e-09
	1.619318022341415e-04
	1.010105525149917e-11

 1	1.000000000000000e+02
	6.000000000000000e-01
	1.200000000000000e+00
	6.000000000000000e-01
	0.000000000000000e+00
	0.000000000000000e+00
	-1.698626491901187e-04
	-7.309626570695116e-09
	1.698699430245443e-04
	1.579208598017005e-11

Title: *nmos on - w4
Date: Tue Feb 15 20:20:41  2022
Plotname: DC transfer characteristic
Flags: real
No. Variables: 10
No. Points: 2
Variables:
	0	temp-sweep	temp-sweep
	1	abs(v(alim))	voltage
	2	v(drain)	voltage
	3	v(gate)	voltage
	4	v(source)	voltage
	5	v(body)	voltage
	6	i(i(vd))	current
	7	i(i(vg))	current
	8	i(i(vs))	current
	9	i(i(vb))	current
Values:
 0	3.000000000000000e+01
	6.500000000000000e-01
	1.200000000000000e+00
	6.500000000000000e-01
	0.000000000000000e+00
	0.000000000000000e+00
	-1.855464629921968e-04
	-1.000753058200132e-08
	1.855564630127395e-04
	7.510060226563477e-12

 1	1.000000000000000e+02
	6.500000000000000e-01
	1.200000000000000e+00
	6.500000000000000e-01
	0.000000000000000e+00
	0.000000000000000e+00
	-1.928069012904592e-04
	-1.036784313956929e-08
	1.928172404418904e-04
	2.869169567183956e-11

Title: *nmos on - w4
Date: Tue Feb 15 20:20:41  2022
Plotname: DC transfer characteristic
Flags: real
No. Variables: 10
No. Points: 2
Variables:
	0	temp-sweep	temp-sweep
	1	abs(v(alim))	voltage
	2	v(drain)	voltage
	3	v(gate)	voltage
	4	v(source)	voltage
	5	v(body)	voltage
	6	i(i(vd))	current
	7	i(i(vg))	current
	8	i(i(vs))	current
	9	i(i(vb))	current
Values:
 0	3.000000000000000e+01
	7.000000000000001e-01
	1.200000000000000e+00
	7.000000000000001e-01
	0.000000000000000e+00
	0.000000000000000e+00
	-2.088630538892775e-04
	-1.354639578288186e-08
	2.088765889939610e-04
	1.129112827387774e-11

 1	1.000000000000000e+02
	7.000000000000001e-01
	1.200000000000000e+00
	7.000000000000001e-01
	0.000000000000000e+00
	0.000000000000000e+00
	-2.153585601719599e-04
	-1.406147420723869e-08
	2.153725608791352e-04
	6.076703120513195e-11

Title: *nmos on - w4
Date: Tue Feb 15 20:20:41  2022
Plotname: DC transfer characteristic
Flags: real
No. Variables: 10
No. Points: 2
Variables:
	0	temp-sweep	temp-sweep
	1	abs(v(alim))	voltage
	2	v(drain)	voltage
	3	v(gate)	voltage
	4	v(source)	voltage
	5	v(body)	voltage
	6	i(i(vd))	current
	7	i(i(vg))	current
	8	i(i(vs))	current
	9	i(i(vb))	current
Values:
 0	3.000000000000000e+01
	7.500000000000001e-01
	1.200000000000000e+00
	7.500000000000001e-01
	0.000000000000000e+00
	0.000000000000000e+00
	-2.318633249451490e-04
	-1.780563618769548e-08
	2.318811050122303e-04
	2.556914216704167e-11

 1	1.000000000000000e+02
	7.500000000000001e-01
	1.200000000000000e+00
	7.500000000000001e-01
	0.000000000000000e+00
	0.000000000000000e+00
	-2.375268229120910e-04
	-1.853395004136615e-08
	2.375452277689076e-04
	1.290932017822303e-10

Title: *nmos on - w4
Date: Tue Feb 15 20:20:41  2022
Plotname: DC transfer characteristic
Flags: real
No. Variables: 10
No. Points: 2
Variables:
	0	temp-sweep	temp-sweep
	1	abs(v(alim))	voltage
	2	v(drain)	voltage
	3	v(gate)	voltage
	4	v(source)	voltage
	5	v(body)	voltage
	6	i(i(vd))	current
	7	i(i(vg))	current
	8	i(i(vs))	current
	9	i(i(vb))	current
Values:
 0	3.000000000000000e+01
	8.000000000000002e-01
	1.200000000000000e+00
	8.000000000000002e-01
	0.000000000000000e+00
	0.000000000000000e+00
	-2.545442338136371e-04
	-2.293253464902278e-08
	2.545671066934051e-04
	5.965489307717401e-11

 1	1.000000000000000e+02
	8.000000000000002e-01
	1.200000000000000e+00
	8.000000000000002e-01
	0.000000000000000e+00
	0.000000000000000e+00
	-2.593264295640801e-04
	-2.396556508799108e-08
	2.593501219910867e-04
	2.731379984714040e-10

Title: *nmos on - w4
Date: Tue Feb 15 20:20:41  2022
Plotname: DC transfer characteristic
Flags: real
No. Variables: 10
No. Points: 2
Variables:
	0	temp-sweep	temp-sweep
	1	abs(v(alim))	voltage
	2	v(drain)	voltage
	3	v(gate)	voltage
	4	v(source)	voltage
	5	v(body)	voltage
	6	i(i(vd))	current
	7	i(i(vg))	current
	8	i(i(vs))	current
	9	i(i(vb))	current
Values:
 0	3.000000000000000e+01
	8.500000000000002e-01
	1.200000000000000e+00
	8.500000000000002e-01
	0.000000000000000e+00
	0.000000000000000e+00
	-2.769050875530772e-04
	-2.910790464216717e-08
	2.769340549756585e-04
	1.404821534831808e-10

 1	1.000000000000000e+02
	8.500000000000002e-01
	1.200000000000000e+00
	8.500000000000002e-01
	0.000000000000000e+00
	0.000000000000000e+00
	-2.807708835002956e-04
	-3.059679321015807e-08
	2.808009065512256e-04
	5.737425357285863e-10

Title: *nmos on - w4
Date: Tue Feb 15 20:20:41  2022
Plotname: DC transfer characteristic
Flags: real
No. Variables: 10
No. Points: 2
Variables:
	0	temp-sweep	temp-sweep
	1	abs(v(alim))	voltage
	2	v(drain)	voltage
	3	v(gate)	voltage
	4	v(source)	voltage
	5	v(body)	voltage
	6	i(i(vd))	current
	7	i(i(vg))	current
	8	i(i(vs))	current
	9	i(i(vb))	current
Values:
 0	3.000000000000000e+01
	9.000000000000002e-01
	1.200000000000000e+00
	9.000000000000002e-01
	0.000000000000000e+00
	0.000000000000000e+00
	-2.989455466766701e-04
	-3.656894620451823e-08
	2.989817849584751e-04
	3.306644342552341e-10

 1	1.000000000000000e+02
	9.000000000000002e-01
	1.200000000000000e+00
	9.000000000000002e-01
	0.000000000000000e+00
	0.000000000000000e+00
	-3.018704750214321e-04
	-3.877064658208695e-08
	3.019080530662885e-04
	1.192601727686879e-09

Title: *nmos on - w4
Date: Tue Feb 15 20:20:41  2022
Plotname: DC transfer characteristic
Flags: real
No. Variables: 10
No. Points: 2
Variables:
	0	temp-sweep	temp-sweep
	1	abs(v(alim))	voltage
	2	v(drain)	voltage
	3	v(gate)	voltage
	4	v(source)	voltage
	5	v(body)	voltage
	6	i(i(vd))	current
	7	i(i(vg))	current
	8	i(i(vs))	current
	9	i(i(vb))	current
Values:
 0	3.000000000000000e+01
	9.500000000000003e-01
	1.200000000000000e+00
	9.500000000000003e-01
	0.000000000000000e+00
	0.000000000000000e+00
	-3.206650335107939e-04
	-4.565637001796574e-08
	3.207099172993127e-04
	7.725815088916199e-10

 1	1.000000000000000e+02
	9.500000000000003e-01
	1.200000000000000e+00
	9.500000000000003e-01
	0.000000000000000e+00
	0.000000000000000e+00
	-3.226322026370652e-04
	-4.900621519698944e-08
	3.226787661516382e-04
	2.442700489830300e-09

Title: *nmos on - w4
Date: Tue Feb 15 20:20:41  2022
Plotname: DC transfer characteristic
Flags: real
No. Variables: 10
No. Points: 2
Variables:
	0	temp-sweep	temp-sweep
	1	abs(v(alim))	voltage
	2	v(drain)	voltage
	3	v(gate)	voltage
	4	v(source)	voltage
	5	v(body)	voltage
	6	i(i(vd))	current
	7	i(i(vg))	current
	8	i(i(vs))	current
	9	i(i(vb))	current
Values:
 0	3.000000000000000e+01
	1.000000000000000e+00
	1.200000000000000e+00
	1.000000000000000e+00
	0.000000000000000e+00
	0.000000000000000e+00
	-3.420625877725398e-04
	-5.690667781443892e-08
	3.421177156710719e-04
	1.778779323784823e-09

 1	1.000000000000000e+02
	1.000000000000000e+00
	1.200000000000000e+00
	1.000000000000000e+00
	0.000000000000000e+00
	0.000000000000000e+00
	-3.430602838427274e-04
	-6.211368863695554e-08
	3.431174961991967e-04
	4.901332236346629e-09

Title: *nmos on - w4
Date: Tue Feb 15 20:20:41  2022
Plotname: DC transfer characteristic
Flags: real
No. Variables: 10
No. Points: 2
Variables:
	0	temp-sweep	temp-sweep
	1	abs(v(alim))	voltage
	2	v(drain)	voltage
	3	v(gate)	voltage
	4	v(source)	voltage
	5	v(body)	voltage
	6	i(i(vd))	current
	7	i(i(vg))	current
	8	i(i(vs))	current
	9	i(i(vb))	current
Values:
 0	3.000000000000000e+01
	1.050000000000000e+00
	1.200000000000000e+00
	1.050000000000000e+00
	0.000000000000000e+00
	0.000000000000000e+00
	-3.631368287104181e-04
	-7.120682066208417e-08
	3.632040396059163e-04
	3.995925043133065e-09

 1	1.000000000000000e+02
	1.050000000000000e+00
	1.200000000000000e+00
	1.050000000000000e+00
	0.000000000000000e+00
	0.000000000000000e+00
	-3.631567284695757e-04
	-7.933883638955308e-08
	3.632265035738457e-04
	9.563732038235560e-09

Title: *nmos on - w4
Date: Tue Feb 15 20:20:41  2022
Plotname: DC transfer characteristic
Flags: real
No. Variables: 10
No. Points: 2
Variables:
	0	temp-sweep	temp-sweep
	1	abs(v(alim))	voltage
	2	v(drain)	voltage
	3	v(gate)	voltage
	4	v(source)	voltage
	5	v(body)	voltage
	6	i(i(vd))	current
	7	i(i(vg))	current
	8	i(i(vs))	current
	9	i(i(vb))	current
Values:
 0	3.000000000000000e+01
	1.100000000000000e+00
	1.200000000000000e+00
	1.100000000000000e+00
	0.000000000000000e+00
	0.000000000000000e+00
	-3.838858238794891e-04
	-9.009651891211945e-08
	3.839672782209577e-04
	8.642177503051503e-09

 1	1.000000000000000e+02
	1.100000000000000e+00
	1.200000000000000e+00
	1.100000000000000e+00
	0.000000000000000e+00
	0.000000000000000e+00
	-3.829217011909078e-04
	-1.025881528615713e-07
	3.830062862421134e-04
	1.800310147394986e-08

Title: *nmos on - w4
Date: Tue Feb 15 20:20:41  2022
Plotname: DC transfer characteristic
Flags: real
No. Variables: 10
No. Points: 2
Variables:
	0	temp-sweep	temp-sweep
	1	abs(v(alim))	voltage
	2	v(drain)	voltage
	3	v(gate)	voltage
	4	v(source)	voltage
	5	v(body)	voltage
	6	i(i(vd))	current
	7	i(i(vg))	current
	8	i(i(vs))	current
	9	i(i(vb))	current
Values:
 0	3.000000000000000e+01
	1.150000000000000e+00
	1.200000000000000e+00
	1.150000000000000e+00
	0.000000000000000e+00
	0.000000000000000e+00
	-4.043070392468403e-04
	-1.159203129041941e-07
	4.044052340713421e-04
	1.772548795341641e-08

 1	1.000000000000000e+02
	1.150000000000000e+00
	1.200000000000000e+00
	1.150000000000000e+00
	0.000000000000000e+00
	0.000000000000000e+00
	-4.023538348976544e-04
	-1.344681903603373e-07
	4.024558271008437e-04
	3.247598692202590e-08

Title: *nmos on - w4
Date: Tue Feb 15 20:20:41  2022
Plotname: DC transfer characteristic
Flags: real
No. Variables: 10
No. Points: 2
Variables:
	0	temp-sweep	temp-sweep
	1	abs(v(alim))	voltage
	2	v(drain)	voltage
	3	v(gate)	voltage
	4	v(source)	voltage
	5	v(body)	voltage
	6	i(i(vd))	current
	7	i(i(vg))	current
	8	i(i(vs))	current
	9	i(i(vb))	current
Values:
 0	3.000000000000000e+01
	1.200000000000000e+00
	1.200000000000000e+00
	1.200000000000000e+00
	0.000000000000000e+00
	0.000000000000000e+00
	-4.243971382266102e-04
	-1.518816779011445e-07
	4.245149501017633e-04
	3.406980245980737e-08

 1	1.000000000000000e+02
	1.200000000000000e+00
	1.200000000000000e+00
	1.200000000000000e+00
	0.000000000000000e+00
	0.000000000000000e+00
	-4.214502757121412e-04
	-1.783378955622084e-07
	4.215726671543341e-04
	5.594645349815970e-08

