  temp-sweep      abs(v(alim))    v(drain)        v(gate)         temp-sweep      v(source)       v(body)         i(vd)           temp-sweep      i(vg)           i(vs)           i(vb)
 3.00000000e+01  5.00000000e-02  3.00000000e+01  1.20000000e+00  3.00000000e+01  5.00000000e-02  3.00000000e+01  0.00000000e+00  3.00000000e+01  0.00000000e+00  3.00000000e+01 -2.09127260e-07  3.00000000e+01  1.07492295e-08  3.00000000e+01  1.97943367e-07  3.00000000e+01  4.34663173e-10 
 1.00000000e+02  5.00000000e-02  1.00000000e+02  1.20000000e+00  1.00000000e+02  5.00000000e-02  1.00000000e+02  0.00000000e+00  1.00000000e+02  0.00000000e+00  1.00000000e+02 -6.93278311e-07  1.00000000e+02  1.07492235e-08  1.00000000e+02  6.82086485e-07  1.00000000e+02  4.42602409e-10 
 3.00000000e+01  1.00000000e-01  3.00000000e+01  1.20000000e+00  3.00000000e+01  1.00000000e-01  3.00000000e+01  0.00000000e+00  3.00000000e+01  0.00000000e+00  3.00000000e+01 -6.76023504e-07  3.00000000e+01  8.79014267e-09  3.00000000e+01  6.67193119e-07  3.00000000e+01  4.02424873e-11 
 1.00000000e+02  1.00000000e-01  1.00000000e+02  1.20000000e+00  1.00000000e+02  1.00000000e-01  1.00000000e+02  0.00000000e+00  1.00000000e+02  0.00000000e+00  1.00000000e+02 -1.79657036e-06  1.00000000e+02  8.79011189e-09  1.00000000e+02  1.78772455e-06  1.00000000e+02  5.56966391e-11 
 3.00000000e+01  1.50000000e-01  3.00000000e+01  1.20000000e+00  3.00000000e+01  1.50000000e-01  3.00000000e+01  0.00000000e+00  3.00000000e+01  0.00000000e+00  3.00000000e+01 -2.05628281e-06  3.00000000e+01  7.10612244e-09  3.00000000e+01  2.04913262e-06  3.00000000e+01  4.40734078e-11 
 1.00000000e+02  1.50000000e-01  1.00000000e+02  1.20000000e+00  1.00000000e+02  1.50000000e-01  1.00000000e+02  0.00000000e+00  1.00000000e+02  0.00000000e+00  1.00000000e+02 -4.39068715e-06  1.00000000e+02  7.10595291e-09  1.00000000e+02  4.38351562e-06  1.00000000e+02  6.55828798e-11 
 3.00000000e+01  2.00000000e-01  3.00000000e+01  1.20000000e+00  3.00000000e+01  2.00000000e-01  3.00000000e+01  0.00000000e+00  3.00000000e+01  0.00000000e+00  3.00000000e+01 -5.61539959e-06  3.00000000e+01  5.64788485e-09  3.00000000e+01  5.60965326e-06  3.00000000e+01  9.84458563e-11 
 1.00000000e+02  2.00000000e-01  1.00000000e+02  1.20000000e+00  1.00000000e+02  2.00000000e-01  1.00000000e+02  0.00000000e+00  1.00000000e+02  0.00000000e+00  1.00000000e+02 -9.85248709e-06  1.00000000e+02  5.64695821e-09  1.00000000e+02  9.84672935e-06  1.00000000e+02  1.10781681e-10 
 3.00000000e+01  2.50000000e-01  3.00000000e+01  1.20000000e+00  3.00000000e+01  2.50000000e-01  3.00000000e+01  0.00000000e+00  3.00000000e+01  0.00000000e+00  3.00000000e+01 -1.32852758e-05  3.00000000e+01  4.36877656e-09  3.00000000e+01  1.32807421e-05  3.00000000e+01  1.64946975e-10 
 1.00000000e+02  2.50000000e-01  1.00000000e+02  1.20000000e+00  1.00000000e+02  2.50000000e-01  1.00000000e+02  0.00000000e+00  1.00000000e+02  0.00000000e+00  1.00000000e+02 -1.97255748e-05  1.00000000e+02  4.36421166e-09  1.00000000e+02  1.97210664e-05  1.00000000e+02  1.44160140e-10 
 3.00000000e+01  3.00000000e-01  3.00000000e+01  1.20000000e+00  3.00000000e+01  3.00000000e-01  3.00000000e+01  0.00000000e+00  3.00000000e+01  0.00000000e+00  3.00000000e+01 -2.64989290e-05  3.00000000e+01  3.21123489e-09  3.00000000e+01  2.64955196e-05  3.00000000e+01  1.98116558e-10 
 1.00000000e+02  3.00000000e-01  1.00000000e+02  1.20000000e+00  1.00000000e+02  3.00000000e-01  1.00000000e+02  0.00000000e+00  1.00000000e+02  0.00000000e+00  1.00000000e+02 -3.46696335e-05  1.00000000e+02  3.19404725e-09  1.00000000e+02  3.46662978e-05  1.00000000e+02  1.41721811e-10 
 3.00000000e+01  3.50000000e-01  3.00000000e+01  1.20000000e+00  3.00000000e+01  3.50000000e-01  3.00000000e+01  0.00000000e+00  3.00000000e+01  0.00000000e+00  3.00000000e+01 -4.48404667e-05  3.00000000e+01  2.05540807e-09  3.00000000e+01  4.48382347e-05  3.00000000e+01  1.76532988e-10 
 1.00000000e+02  3.50000000e-01  1.00000000e+02  1.20000000e+00  1.00000000e+02  3.50000000e-01  1.00000000e+02  0.00000000e+00  1.00000000e+02  0.00000000e+00  1.00000000e+02 -5.39083751e-05  1.00000000e+02  2.02044736e-09  1.00000000e+02  5.39062458e-05  1.00000000e+02  1.08908243e-10 
 3.00000000e+01  4.00000000e-01  3.00000000e+01  1.20000000e+00  3.00000000e+01  4.00000000e-01  3.00000000e+01  0.00000000e+00  3.00000000e+01  0.00000000e+00  3.00000000e+01 -6.65618268e-05  3.00000000e+01  7.40763506e-10  3.00000000e+01  6.65609609e-05  3.00000000e+01  1.25197391e-10 
 1.00000000e+02  4.00000000e-01  1.00000000e+02  1.20000000e+00  1.00000000e+02  4.00000000e-01  1.00000000e+02  0.00000000e+00  1.00000000e+02  0.00000000e+00  1.00000000e+02 -7.58919351e-05  1.00000000e+02  6.99066582e-10  1.00000000e+02  7.58911669e-05  1.00000000e+02  6.91591951e-11 
 3.00000000e+01  4.50000000e-01  3.00000000e+01  1.20000000e+00  3.00000000e+01  4.50000000e-01  3.00000000e+01  0.00000000e+00  3.00000000e+01  0.00000000e+00  3.00000000e+01 -8.99612783e-05  3.00000000e+01 -7.80404241e-10  3.00000000e+01  8.99619834e-05  3.00000000e+01  7.53473090e-11 
 1.00000000e+02  4.50000000e-01  1.00000000e+02  1.20000000e+00  1.00000000e+02  4.50000000e-01  1.00000000e+02  0.00000000e+00  1.00000000e+02  0.00000000e+00  1.00000000e+02 -9.92021239e-05  1.00000000e+02 -8.40018499e-10  1.00000000e+02  9.92029253e-05  1.00000000e+02  3.85491507e-11 
 3.00000000e+01  5.00000000e-01  3.00000000e+01  1.20000000e+00  3.00000000e+01  5.00000000e-01  3.00000000e+01  0.00000000e+00  3.00000000e+01  0.00000000e+00  3.00000000e+01 -1.13965247e-04  3.00000000e+01 -2.54054888e-09  3.00000000e+01  1.13967747e-04  3.00000000e+01  4.02481322e-11 
 1.00000000e+02  5.00000000e-01  1.00000000e+02  1.20000000e+00  1.00000000e+02  5.00000000e-01  1.00000000e+02  0.00000000e+00  1.00000000e+02  0.00000000e+00  1.00000000e+02 -1.22914079e-04  1.00000000e+02 -2.63987998e-09  1.00000000e+02  1.22916698e-04  1.00000000e+02  2.07106831e-11 
 3.00000000e+01  5.50000000e-01  3.00000000e+01  1.20000000e+00  3.00000000e+01  5.50000000e-01  3.00000000e+01  0.00000000e+00  3.00000000e+01  0.00000000e+00  3.00000000e+01 -1.38032572e-04  3.00000000e+01 -4.60698646e-09  3.00000000e+01  1.38037159e-04  3.00000000e+01  1.98777848e-11 
 1.00000000e+02  5.50000000e-01  1.00000000e+02  1.20000000e+00  1.00000000e+02  5.50000000e-01  1.00000000e+02  0.00000000e+00  1.00000000e+02  0.00000000e+00  1.00000000e+02 -1.46539663e-04  1.00000000e+02 -4.76757178e-09  1.00000000e+02  1.46544416e-04  1.00000000e+02  1.36838730e-11 
 3.00000000e+01  6.00000000e-01  3.00000000e+01  1.20000000e+00  3.00000000e+01  6.00000000e-01  3.00000000e+01  0.00000000e+00  3.00000000e+01  0.00000000e+00  3.00000000e+01 -1.61924748e-04  3.00000000e+01 -7.06399361e-09  3.00000000e+01  1.61931802e-04  3.00000000e+01  1.01010553e-11 
 1.00000000e+02  6.00000000e-01  1.00000000e+02  1.20000000e+00  1.00000000e+02  6.00000000e-01  1.00000000e+02  0.00000000e+00  1.00000000e+02  0.00000000e+00  1.00000000e+02 -1.69862649e-04  1.00000000e+02 -7.30962657e-09  1.00000000e+02  1.69869943e-04  1.00000000e+02  1.57920860e-11 
 3.00000000e+01  6.50000000e-01  3.00000000e+01  1.20000000e+00  3.00000000e+01  6.50000000e-01  3.00000000e+01  0.00000000e+00  3.00000000e+01  0.00000000e+00  3.00000000e+01 -1.85546463e-04  3.00000000e+01 -1.00075306e-08  3.00000000e+01  1.85556463e-04  3.00000000e+01  7.51006023e-12 
 1.00000000e+02  6.50000000e-01  1.00000000e+02  1.20000000e+00  1.00000000e+02  6.50000000e-01  1.00000000e+02  0.00000000e+00  1.00000000e+02  0.00000000e+00  1.00000000e+02 -1.92806901e-04  1.00000000e+02 -1.03678431e-08  1.00000000e+02  1.92817240e-04  1.00000000e+02  2.86916957e-11 
 3.00000000e+01  7.00000000e-01  3.00000000e+01  1.20000000e+00  3.00000000e+01  7.00000000e-01  3.00000000e+01  0.00000000e+00  3.00000000e+01  0.00000000e+00  3.00000000e+01 -2.08863054e-04  3.00000000e+01 -1.35463958e-08  3.00000000e+01  2.08876589e-04  3.00000000e+01  1.12911283e-11 
 1.00000000e+02  7.00000000e-01  1.00000000e+02  1.20000000e+00  1.00000000e+02  7.00000000e-01  1.00000000e+02  0.00000000e+00  1.00000000e+02  0.00000000e+00  1.00000000e+02 -2.15358560e-04  1.00000000e+02 -1.40614742e-08  1.00000000e+02  2.15372561e-04  1.00000000e+02  6.07670312e-11 
 3.00000000e+01  7.50000000e-01  3.00000000e+01  1.20000000e+00  3.00000000e+01  7.50000000e-01  3.00000000e+01  0.00000000e+00  3.00000000e+01  0.00000000e+00  3.00000000e+01 -2.31863325e-04  3.00000000e+01 -1.78056362e-08  3.00000000e+01  2.31881105e-04  3.00000000e+01  2.55691422e-11 
 1.00000000e+02  7.50000000e-01  1.00000000e+02  1.20000000e+00  1.00000000e+02  7.50000000e-01  1.00000000e+02  0.00000000e+00  1.00000000e+02  0.00000000e+00  1.00000000e+02 -2.37526823e-04  1.00000000e+02 -1.85339500e-08  1.00000000e+02  2.37545228e-04  1.00000000e+02  1.29093202e-10 
 3.00000000e+01  8.00000000e-01  3.00000000e+01  1.20000000e+00  3.00000000e+01  8.00000000e-01  3.00000000e+01  0.00000000e+00  3.00000000e+01  0.00000000e+00  3.00000000e+01 -2.54544234e-04  3.00000000e+01 -2.29325346e-08  3.00000000e+01  2.54567107e-04  3.00000000e+01  5.96548931e-11 
 1.00000000e+02  8.00000000e-01  1.00000000e+02  1.20000000e+00  1.00000000e+02  8.00000000e-01  1.00000000e+02  0.00000000e+00  1.00000000e+02  0.00000000e+00  1.00000000e+02 -2.59326430e-04  1.00000000e+02 -2.39655651e-08  1.00000000e+02  2.59350122e-04  1.00000000e+02  2.73137998e-10 
 3.00000000e+01  8.50000000e-01  3.00000000e+01  1.20000000e+00  3.00000000e+01  8.50000000e-01  3.00000000e+01  0.00000000e+00  3.00000000e+01  0.00000000e+00  3.00000000e+01 -2.76905088e-04  3.00000000e+01 -2.91079046e-08  3.00000000e+01  2.76934055e-04  3.00000000e+01  1.40482153e-10 
 1.00000000e+02  8.50000000e-01  1.00000000e+02  1.20000000e+00  1.00000000e+02  8.50000000e-01  1.00000000e+02  0.00000000e+00  1.00000000e+02  0.00000000e+00  1.00000000e+02 -2.80770884e-04  1.00000000e+02 -3.05967932e-08  1.00000000e+02  2.80800907e-04  1.00000000e+02  5.73742536e-10 
 3.00000000e+01  9.00000000e-01  3.00000000e+01  1.20000000e+00  3.00000000e+01  9.00000000e-01  3.00000000e+01  0.00000000e+00  3.00000000e+01  0.00000000e+00  3.00000000e+01 -2.98945547e-04  3.00000000e+01 -3.65689462e-08  3.00000000e+01  2.98981785e-04  3.00000000e+01  3.30664434e-10 
 1.00000000e+02  9.00000000e-01  1.00000000e+02  1.20000000e+00  1.00000000e+02  9.00000000e-01  1.00000000e+02  0.00000000e+00  1.00000000e+02  0.00000000e+00  1.00000000e+02 -3.01870475e-04  1.00000000e+02 -3.87706466e-08  1.00000000e+02  3.01908053e-04  1.00000000e+02  1.19260173e-09 
 3.00000000e+01  9.50000000e-01  3.00000000e+01  1.20000000e+00  3.00000000e+01  9.50000000e-01  3.00000000e+01  0.00000000e+00  3.00000000e+01  0.00000000e+00  3.00000000e+01 -3.20665034e-04  3.00000000e+01 -4.56563700e-08  3.00000000e+01  3.20709917e-04  3.00000000e+01  7.72581509e-10 
 1.00000000e+02  9.50000000e-01  1.00000000e+02  1.20000000e+00  1.00000000e+02  9.50000000e-01  1.00000000e+02  0.00000000e+00  1.00000000e+02  0.00000000e+00  1.00000000e+02 -3.22632203e-04  1.00000000e+02 -4.90062152e-08  1.00000000e+02  3.22678766e-04  1.00000000e+02  2.44270049e-09 
 3.00000000e+01  1.00000000e+00  3.00000000e+01  1.20000000e+00  3.00000000e+01  1.00000000e+00  3.00000000e+01  0.00000000e+00  3.00000000e+01  0.00000000e+00  3.00000000e+01 -3.42062588e-04  3.00000000e+01 -5.69066778e-08  3.00000000e+01  3.42117716e-04  3.00000000e+01  1.77877932e-09 
 1.00000000e+02  1.00000000e+00  1.00000000e+02  1.20000000e+00  1.00000000e+02  1.00000000e+00  1.00000000e+02  0.00000000e+00  1.00000000e+02  0.00000000e+00  1.00000000e+02 -3.43060284e-04  1.00000000e+02 -6.21136886e-08  1.00000000e+02  3.43117496e-04  1.00000000e+02  4.90133224e-09 
 3.00000000e+01  1.05000000e+00  3.00000000e+01  1.20000000e+00  3.00000000e+01  1.05000000e+00  3.00000000e+01  0.00000000e+00  3.00000000e+01  0.00000000e+00  3.00000000e+01 -3.63136829e-04  3.00000000e+01 -7.12068207e-08  3.00000000e+01  3.63204040e-04  3.00000000e+01  3.99592504e-09 
 1.00000000e+02  1.05000000e+00  1.00000000e+02  1.20000000e+00  1.00000000e+02  1.05000000e+00  1.00000000e+02  0.00000000e+00  1.00000000e+02  0.00000000e+00  1.00000000e+02 -3.63156728e-04  1.00000000e+02 -7.93388364e-08  1.00000000e+02  3.63226504e-04  1.00000000e+02  9.56373204e-09 
 3.00000000e+01  1.10000000e+00  3.00000000e+01  1.20000000e+00  3.00000000e+01  1.10000000e+00  3.00000000e+01  0.00000000e+00  3.00000000e+01  0.00000000e+00  3.00000000e+01 -3.83885824e-04  3.00000000e+01 -9.00965189e-08  3.00000000e+01  3.83967278e-04  3.00000000e+01  8.64217750e-09 
 1.00000000e+02  1.10000000e+00  1.00000000e+02  1.20000000e+00  1.00000000e+02  1.10000000e+00  1.00000000e+02  0.00000000e+00  1.00000000e+02  0.00000000e+00  1.00000000e+02 -3.82921701e-04  1.00000000e+02 -1.02588153e-07  1.00000000e+02  3.83006286e-04  1.00000000e+02  1.80031015e-08 
 3.00000000e+01  1.15000000e+00  3.00000000e+01  1.20000000e+00  3.00000000e+01  1.15000000e+00  3.00000000e+01  0.00000000e+00  3.00000000e+01  0.00000000e+00  3.00000000e+01 -4.04307039e-04  3.00000000e+01 -1.15920313e-07  3.00000000e+01  4.04405234e-04  3.00000000e+01  1.77254880e-08 
 1.00000000e+02  1.15000000e+00  1.00000000e+02  1.20000000e+00  1.00000000e+02  1.15000000e+00  1.00000000e+02  0.00000000e+00  1.00000000e+02  0.00000000e+00  1.00000000e+02 -4.02353835e-04  1.00000000e+02 -1.34468190e-07  1.00000000e+02  4.02455827e-04  1.00000000e+02  3.24759869e-08 
 3.00000000e+01  1.20000000e+00  3.00000000e+01  1.20000000e+00  3.00000000e+01  1.20000000e+00  3.00000000e+01  0.00000000e+00  3.00000000e+01  0.00000000e+00  3.00000000e+01 -4.24397138e-04  3.00000000e+01 -1.51881678e-07  3.00000000e+01  4.24514950e-04  3.00000000e+01  3.40698025e-08 
 1.00000000e+02  1.20000000e+00  1.00000000e+02  1.20000000e+00  1.00000000e+02  1.20000000e+00  1.00000000e+02  0.00000000e+00  1.00000000e+02  0.00000000e+00  1.00000000e+02 -4.21450276e-04  1.00000000e+02 -1.78337896e-07  1.00000000e+02  4.21572667e-04  1.00000000e+02  5.59464535e-08 
