  temp-sweep      abs(v(alim))    v(drain)        v(gate)         temp-sweep      v(source)       v(body)         i(vd)           temp-sweep      i(vg)           i(vs)           i(vb)
 3.00000000e+01  5.00000000e-02  3.00000000e+01  1.20000000e+00  3.00000000e+01  5.00000000e-02  3.00000000e+01  0.00000000e+00  3.00000000e+01  0.00000000e+00  3.00000000e+01 -3.19862027e-07  3.00000000e+01  1.64399971e-08  3.00000000e+01  3.02769903e-07  3.00000000e+01  6.52126853e-10 
 1.00000000e+02  5.00000000e-02  1.00000000e+02  1.20000000e+00  1.00000000e+02  5.00000000e-02  1.00000000e+02  0.00000000e+00  1.00000000e+02  0.00000000e+00  1.00000000e+02 -1.06031933e-06  1.00000000e+02  1.64399881e-08  1.00000000e+02  1.04321508e-06  1.00000000e+02  6.64261821e-10 
 3.00000000e+01  1.00000000e-01  3.00000000e+01  1.20000000e+00  3.00000000e+01  1.00000000e-01  3.00000000e+01  0.00000000e+00  3.00000000e+01  0.00000000e+00  3.00000000e+01 -1.03391826e-06  3.00000000e+01  1.34437470e-08  3.00000000e+01  1.02041371e-06  3.00000000e+01  6.08045792e-11 
 1.00000000e+02  1.00000000e-01  1.00000000e+02  1.20000000e+00  1.00000000e+02  1.00000000e-01  1.00000000e+02  0.00000000e+00  1.00000000e+02  0.00000000e+00  1.00000000e+02 -2.74722212e-06  1.00000000e+02  1.34436999e-08  1.00000000e+02  2.73369401e-06  1.00000000e+02  8.44138828e-11 
 3.00000000e+01  1.50000000e-01  3.00000000e+01  1.20000000e+00  3.00000000e+01  1.50000000e-01  3.00000000e+01  0.00000000e+00  3.00000000e+01  0.00000000e+00  3.00000000e+01 -3.14400878e-06  3.00000000e+01  1.08681868e-08  3.00000000e+01  3.13307326e-06  3.00000000e+01  6.73362608e-11 
 1.00000000e+02  1.50000000e-01  1.00000000e+02  1.20000000e+00  1.00000000e+02  1.50000000e-01  1.00000000e+02  0.00000000e+00  1.00000000e+02  0.00000000e+00  1.00000000e+02 -6.71137086e-06  1.00000000e+02  1.08679276e-08  1.00000000e+02  6.70040279e-06  1.00000000e+02  1.00150147e-10 
 3.00000000e+01  2.00000000e-01  3.00000000e+01  1.20000000e+00  3.00000000e+01  2.00000000e-01  3.00000000e+01  0.00000000e+00  3.00000000e+01  0.00000000e+00  3.00000000e+01 -8.58075978e-06  3.00000000e+01  8.63794125e-09  3.00000000e+01  8.57197152e-06  3.00000000e+01  1.50315889e-10 
 1.00000000e+02  2.00000000e-01  1.00000000e+02  1.20000000e+00  1.00000000e+02  2.00000000e-01  1.00000000e+02  0.00000000e+00  1.00000000e+02  0.00000000e+00  1.00000000e+02 -1.50503187e-05  1.00000000e+02  8.63652408e-09  1.00000000e+02  1.50415131e-05  1.00000000e+02  1.69012370e-10 
 3.00000000e+01  2.50000000e-01  3.00000000e+01  1.20000000e+00  3.00000000e+01  2.50000000e-01  3.00000000e+01  0.00000000e+00  3.00000000e+01  0.00000000e+00  3.00000000e+01 -2.02827454e-05  3.00000000e+01  6.68165823e-09  3.00000000e+01  2.02758122e-05  3.00000000e+01  2.51476826e-10 
 1.00000000e+02  2.50000000e-01  1.00000000e+02  1.20000000e+00  1.00000000e+02  2.50000000e-01  1.00000000e+02  0.00000000e+00  1.00000000e+02  0.00000000e+00  1.00000000e+02 -3.01071854e-05  1.00000000e+02  6.67467695e-09  1.00000000e+02  3.01002912e-05  1.00000000e+02  2.19554831e-10 
 3.00000000e+01  3.00000000e-01  3.00000000e+01  1.20000000e+00  3.00000000e+01  3.00000000e-01  3.00000000e+01  0.00000000e+00  3.00000000e+01  0.00000000e+00  3.00000000e+01 -4.04153861e-05  3.00000000e+01  4.91130223e-09  3.00000000e+01  4.04101734e-05  3.00000000e+01  3.01368155e-10 
 1.00000000e+02  3.00000000e-01  1.00000000e+02  1.20000000e+00  1.00000000e+02  3.00000000e-01  1.00000000e+02  0.00000000e+00  1.00000000e+02  0.00000000e+00  1.00000000e+02 -5.28711256e-05  1.00000000e+02  4.88501792e-09  1.00000000e+02  5.28660253e-05  1.00000000e+02  2.15315124e-10 
 3.00000000e+01  3.50000000e-01  3.00000000e+01  1.20000000e+00  3.00000000e+01  3.50000000e-01  3.00000000e+01  0.00000000e+00  3.00000000e+01  0.00000000e+00  3.00000000e+01 -6.83279282e-05  3.00000000e+01  3.14358492e-09  3.00000000e+01  6.83245169e-05  3.00000000e+01  2.67751087e-10 
 1.00000000e+02  3.50000000e-01  1.00000000e+02  1.20000000e+00  1.00000000e+02  3.50000000e-01  1.00000000e+02  0.00000000e+00  1.00000000e+02  0.00000000e+00  1.00000000e+02 -8.21487727e-05  1.00000000e+02  3.09012627e-09  1.00000000e+02  8.21455176e-05  1.00000000e+02  1.64948961e-10 
 3.00000000e+01  4.00000000e-01  3.00000000e+01  1.20000000e+00  3.00000000e+01  4.00000000e-01  3.00000000e+01  0.00000000e+00  3.00000000e+01  0.00000000e+00  3.00000000e+01 -1.01356140e-04  3.00000000e+01  1.13303245e-09  3.00000000e+01  1.01354818e-04  3.00000000e+01  1.89227407e-10 
 1.00000000e+02  4.00000000e-01  1.00000000e+02  1.20000000e+00  1.00000000e+02  4.00000000e-01  1.00000000e+02  0.00000000e+00  1.00000000e+02  0.00000000e+00  1.00000000e+02 -1.15580348e-04  1.00000000e+02  1.06928782e-09  1.00000000e+02  1.15579174e-04  1.00000000e+02  1.04365357e-10 
 3.00000000e+01  4.50000000e-01  3.00000000e+01  1.20000000e+00  3.00000000e+01  4.50000000e-01  3.00000000e+01  0.00000000e+00  3.00000000e+01  0.00000000e+00  3.00000000e+01 -1.36917200e-04  3.00000000e+01 -1.19325871e-09  3.00000000e+01  1.36918280e-04  3.00000000e+01  1.13433090e-10 
 1.00000000e+02  4.50000000e-01  1.00000000e+02  1.20000000e+00  1.00000000e+02  4.50000000e-01  1.00000000e+02  0.00000000e+00  1.00000000e+02  0.00000000e+00  1.00000000e+02 -1.51013516e-04  1.00000000e+02 -1.28437705e-09  1.00000000e+02  1.51014742e-04  1.00000000e+02  5.79508213e-11 
 3.00000000e+01  5.00000000e-01  3.00000000e+01  1.20000000e+00  3.00000000e+01  5.00000000e-01  3.00000000e+01  0.00000000e+00  3.00000000e+01  0.00000000e+00  3.00000000e+01 -1.73385810e-04  3.00000000e+01 -3.88486565e-09  3.00000000e+01  1.73389634e-04  3.00000000e+01  6.03327366e-11 
 1.00000000e+02  5.00000000e-01  1.00000000e+02  1.20000000e+00  1.00000000e+02  5.00000000e-01  1.00000000e+02  0.00000000e+00  1.00000000e+02  0.00000000e+00  1.00000000e+02 -1.87047661e-04  1.00000000e+02 -4.03668027e-09  1.00000000e+02  1.87051667e-04  1.00000000e+02  3.10566894e-11 
 3.00000000e+01  5.50000000e-01  3.00000000e+01  1.20000000e+00  3.00000000e+01  5.50000000e-01  3.00000000e+01  0.00000000e+00  3.00000000e+01  0.00000000e+00  3.00000000e+01 -2.09944623e-04  3.00000000e+01 -7.04467229e-09  3.00000000e+01  2.09951638e-04  3.00000000e+01  2.96741463e-11 
 1.00000000e+02  5.50000000e-01  1.00000000e+02  1.20000000e+00  1.00000000e+02  5.50000000e-01  1.00000000e+02  0.00000000e+00  1.00000000e+02  0.00000000e+00  1.00000000e+02 -2.22945107e-04  1.00000000e+02 -7.29010208e-09  1.00000000e+02  2.22952376e-04  1.00000000e+02  2.05921673e-11 
 3.00000000e+01  6.00000000e-01  3.00000000e+01  1.20000000e+00  3.00000000e+01  6.00000000e-01  3.00000000e+01  0.00000000e+00  3.00000000e+01  0.00000000e+00  3.00000000e+01 -2.46234520e-04  3.00000000e+01 -1.08014898e-08  3.00000000e+01  2.46245306e-04  3.00000000e+01  1.50618677e-11 
 1.00000000e+02  6.00000000e-01  1.00000000e+02  1.20000000e+00  1.00000000e+02  6.00000000e-01  1.00000000e+02  0.00000000e+00  1.00000000e+02  0.00000000e+00  1.00000000e+02 -2.58380119e-04  1.00000000e+02 -1.11769012e-08  1.00000000e+02  2.58391272e-04  1.00000000e+02  2.39877502e-11 
 3.00000000e+01  6.50000000e-01  3.00000000e+01  1.20000000e+00  3.00000000e+01  6.50000000e-01  3.00000000e+01  0.00000000e+00  3.00000000e+01  0.00000000e+00  3.00000000e+01 -2.82112728e-04  3.00000000e+01 -1.53019831e-08  3.00000000e+01  2.82128019e-04  3.00000000e+01  1.12993864e-11 
 1.00000000e+02  6.50000000e-01  1.00000000e+02  1.20000000e+00  1.00000000e+02  6.50000000e-01  1.00000000e+02  0.00000000e+00  1.00000000e+02  0.00000000e+00  1.00000000e+02 -2.93238836e-04  1.00000000e+02 -1.58526691e-08  1.00000000e+02  2.93254645e-04  1.00000000e+02  4.38069217e-11 
 3.00000000e+01  7.00000000e-01  3.00000000e+01  1.20000000e+00  3.00000000e+01  7.00000000e-01  3.00000000e+01  0.00000000e+00  3.00000000e+01  0.00000000e+00  3.00000000e+01 -3.17527850e-04  3.00000000e+01 -2.07124353e-08  3.00000000e+01  3.17548545e-04  3.00000000e+01  1.71952049e-11 
 1.00000000e+02  7.00000000e-01  1.00000000e+02  1.20000000e+00  1.00000000e+02  7.00000000e-01  1.00000000e+02  0.00000000e+00  1.00000000e+02  0.00000000e+00  1.00000000e+02 -3.27501358e-04  1.00000000e+02 -2.14996741e-08  1.00000000e+02  3.27522765e-04  1.00000000e+02  9.29201358e-11 
 3.00000000e+01  7.50000000e-01  3.00000000e+01  1.20000000e+00  3.00000000e+01  7.50000000e-01  3.00000000e+01  0.00000000e+00  3.00000000e+01  0.00000000e+00  3.00000000e+01 -3.52463666e-04  3.00000000e+01 -2.72239614e-08  3.00000000e+01  3.52490851e-04  3.00000000e+01  3.90862448e-11 
 1.00000000e+02  7.50000000e-01  1.00000000e+02  1.20000000e+00  1.00000000e+02  7.50000000e-01  1.00000000e+02  0.00000000e+00  1.00000000e+02  0.00000000e+00  1.00000000e+02 -3.61182396e-04  1.00000000e+02 -2.83371427e-08  1.00000000e+02  3.61210535e-04  1.00000000e+02  1.97417670e-10 
 3.00000000e+01  8.00000000e-01  3.00000000e+01  1.20000000e+00  3.00000000e+01  8.00000000e-01  3.00000000e+01  0.00000000e+00  3.00000000e+01  0.00000000e+00  3.00000000e+01 -3.86916046e-04  3.00000000e+01 -3.50616629e-08  3.00000000e+01  3.86951017e-04  3.00000000e+01  9.12160436e-11 
 1.00000000e+02  8.00000000e-01  1.00000000e+02  1.20000000e+00  1.00000000e+02  8.00000000e-01  1.00000000e+02  0.00000000e+00  1.00000000e+02  0.00000000e+00  1.00000000e+02 -3.94304812e-04  1.00000000e+02 -3.66406606e-08  1.00000000e+02  3.94341035e-04  1.00000000e+02  4.17720174e-10 
 3.00000000e+01  8.50000000e-01  3.00000000e+01  1.20000000e+00  3.00000000e+01  8.50000000e-01  3.00000000e+01  0.00000000e+00  3.00000000e+01  0.00000000e+00  3.00000000e+01 -4.20884241e-04  3.00000000e+01 -4.45019002e-08  3.00000000e+01  4.20928528e-04  3.00000000e+01  2.14832888e-10 
 1.00000000e+02  8.50000000e-01  1.00000000e+02  1.20000000e+00  1.00000000e+02  8.50000000e-01  1.00000000e+02  0.00000000e+00  1.00000000e+02  0.00000000e+00  1.00000000e+02 -4.26889413e-04  1.00000000e+02 -4.67778286e-08  1.00000000e+02  4.26935313e-04  1.00000000e+02  8.77466882e-10 
 3.00000000e+01  9.00000000e-01  3.00000000e+01  1.20000000e+00  3.00000000e+01  9.00000000e-01  3.00000000e+01  0.00000000e+00  3.00000000e+01  0.00000000e+00  3.00000000e+01 -4.54367907e-04  3.00000000e+01 -5.59072449e-08  3.00000000e+01  4.54423308e-04  3.00000000e+01  5.05698508e-10 
 1.00000000e+02  9.00000000e-01  1.00000000e+02  1.20000000e+00  1.00000000e+02  9.00000000e-01  1.00000000e+02  0.00000000e+00  1.00000000e+02  0.00000000e+00  1.00000000e+02 -4.58952004e-04  1.00000000e+02 -5.92730428e-08  1.00000000e+02  4.59009453e-04  1.00000000e+02  1.82395561e-09 
 3.00000000e+01  9.50000000e-01  3.00000000e+01  1.20000000e+00  3.00000000e+01  9.50000000e-01  3.00000000e+01  0.00000000e+00  3.00000000e+01  0.00000000e+00  3.00000000e+01 -4.87366247e-04  3.00000000e+01 -6.97985504e-08  3.00000000e+01  4.87434864e-04  3.00000000e+01  1.18156990e-09 
 1.00000000e+02  9.50000000e-01  1.00000000e+02  1.20000000e+00  1.00000000e+02  9.50000000e-01  1.00000000e+02  0.00000000e+00  1.00000000e+02  0.00000000e+00  1.00000000e+02 -4.90503298e-04  1.00000000e+02 -7.49199669e-08  1.00000000e+02  4.90574482e-04  1.00000000e+02  3.73586848e-09 
 3.00000000e+01  1.00000000e+00  3.00000000e+01  1.20000000e+00  3.00000000e+01  1.00000000e+00  3.00000000e+01  0.00000000e+00  3.00000000e+01  0.00000000e+00  3.00000000e+01 -5.19877817e-04  3.00000000e+01 -8.69960828e-08  3.00000000e+01  5.19962093e-04  3.00000000e+01  2.72045768e-09 
 1.00000000e+02  1.00000000e+00  1.00000000e+02  1.20000000e+00  1.00000000e+02  1.00000000e+00  1.00000000e+02  0.00000000e+00  1.00000000e+02  0.00000000e+00  1.00000000e+02 -5.21549718e-04  1.00000000e+02 -9.49574424e-08  1.00000000e+02  5.21637179e-04  1.00000000e+02  7.49612322e-09 
 3.00000000e+01  1.05000000e+00  3.00000000e+01  1.20000000e+00  3.00000000e+01  1.05000000e+00  3.00000000e+01  0.00000000e+00  3.00000000e+01  0.00000000e+00  3.00000000e+01 -5.51900479e-04  3.00000000e+01 -1.08856053e-07  3.00000000e+01  5.52003223e-04  3.00000000e+01  6.11138013e-09 
 1.00000000e+02  1.05000000e+00  1.00000000e+02  1.20000000e+00  1.00000000e+02  1.05000000e+00  1.00000000e+02  0.00000000e+00  1.00000000e+02  0.00000000e+00  1.00000000e+02 -5.52094276e-04  1.00000000e+02 -1.21290454e-07  1.00000000e+02  5.52200939e-04  1.00000000e+02  1.46268405e-08 
 3.00000000e+01  1.10000000e+00  3.00000000e+01  1.20000000e+00  3.00000000e+01  1.10000000e+00  3.00000000e+01  0.00000000e+00  3.00000000e+01  0.00000000e+00  3.00000000e+01 -5.83431208e-04  3.00000000e+01 -1.37732984e-07  3.00000000e+01  5.83555723e-04  3.00000000e+01  1.32173988e-08 
 1.00000000e+02  1.10000000e+00  1.00000000e+02  1.20000000e+00  1.00000000e+02  1.10000000e+00  1.00000000e+02  0.00000000e+00  1.00000000e+02  0.00000000e+00  1.00000000e+02 -5.82137131e-04  1.00000000e+02 -1.56834468e-07  1.00000000e+02  5.82266431e-04  1.00000000e+02  2.75340859e-08 
 3.00000000e+01  1.15000000e+00  3.00000000e+01  1.20000000e+00  3.00000000e+01  1.15000000e+00  3.00000000e+01  0.00000000e+00  3.00000000e+01  0.00000000e+00  3.00000000e+01 -6.14466025e-04  3.00000000e+01 -1.77212254e-07  3.00000000e+01  6.14616128e-04  3.00000000e+01  2.71094878e-08 
 1.00000000e+02  1.15000000e+00  1.00000000e+02  1.20000000e+00  1.00000000e+02  1.15000000e+00  1.00000000e+02  0.00000000e+00  1.00000000e+02  0.00000000e+00  1.00000000e+02 -6.11676069e-04  1.00000000e+02 -2.05575578e-07  1.00000000e+02  6.11831976e-04  1.00000000e+02  4.96690334e-08 
 3.00000000e+01  1.20000000e+00  3.00000000e+01  1.20000000e+00  3.00000000e+01  1.20000000e+00  3.00000000e+01  0.00000000e+00  3.00000000e+01  0.00000000e+00  3.00000000e+01 -6.44999689e-04  3.00000000e+01 -2.32192856e-07  3.00000000e+01  6.45179775e-04  3.00000000e+01  5.21066039e-08 
 1.00000000e+02  1.20000000e+00  1.00000000e+02  1.20000000e+00  1.00000000e+02  1.20000000e+00  1.00000000e+02  0.00000000e+00  1.00000000e+02  0.00000000e+00  1.00000000e+02 -6.40706569e-04  1.00000000e+02 -2.72650551e-07  1.00000000e+02  6.40893655e-04  1.00000000e+02  8.55649317e-08 
