Title: *nmos on - w6
Date: Tue Feb 15 20:20:45  2022
Plotname: DC transfer characteristic
Flags: real
No. Variables: 10
No. Points: 2
Variables:
	0	temp-sweep	temp-sweep
	1	abs(v(alim))	voltage
	2	v(drain)	voltage
	3	v(gate)	voltage
	4	v(source)	voltage
	5	v(body)	voltage
	6	i(i(vd))	current
	7	i(i(vg))	current
	8	i(i(vs))	current
	9	i(i(vb))	current
Values:
 0	3.000000000000000e+01
	5.000000000000000e-02
	1.200000000000000e+00
	5.000000000000000e-02
	0.000000000000000e+00
	0.000000000000000e+00
	-3.198620268005492e-07
	1.643999713446531e-08
	3.027699028183731e-07
	6.521268531658615e-10

 1	1.000000000000000e+02
	5.000000000000000e-02
	1.200000000000000e+00
	5.000000000000000e-02
	0.000000000000000e+00
	0.000000000000000e+00
	-1.060319330546847e-06
	1.643998806533098e-08
	1.043215080659804e-06
	6.642618213318575e-10

Title: *nmos on - w6
Date: Tue Feb 15 20:20:45  2022
Plotname: DC transfer characteristic
Flags: real
No. Variables: 10
No. Points: 2
Variables:
	0	temp-sweep	temp-sweep
	1	abs(v(alim))	voltage
	2	v(drain)	voltage
	3	v(gate)	voltage
	4	v(source)	voltage
	5	v(body)	voltage
	6	i(i(vd))	current
	7	i(i(vg))	current
	8	i(i(vs))	current
	9	i(i(vb))	current
Values:
 0	3.000000000000000e+01
	1.000000000000000e-01
	1.200000000000000e+00
	1.000000000000000e-01
	0.000000000000000e+00
	0.000000000000000e+00
	-1.033918258408392e-06
	1.344374700451567e-08
	1.020413706827646e-06
	6.080457918744328e-11

 1	1.000000000000000e+02
	1.000000000000000e-01
	1.200000000000000e+00
	1.000000000000000e-01
	0.000000000000000e+00
	0.000000000000000e+00
	-2.747222122495744e-06
	1.344369991718164e-08
	2.733694008692648e-06
	8.441388283201931e-11

Title: *nmos on - w6
Date: Tue Feb 15 20:20:45  2022
Plotname: DC transfer characteristic
Flags: real
No. Variables: 10
No. Points: 2
Variables:
	0	temp-sweep	temp-sweep
	1	abs(v(alim))	voltage
	2	v(drain)	voltage
	3	v(gate)	voltage
	4	v(source)	voltage
	5	v(body)	voltage
	6	i(i(vd))	current
	7	i(i(vg))	current
	8	i(i(vs))	current
	9	i(i(vb))	current
Values:
 0	3.000000000000000e+01
	1.500000000000000e-01
	1.200000000000000e+00
	1.500000000000000e-01
	0.000000000000000e+00
	0.000000000000000e+00
	-3.144008781324288e-06
	1.086818680884338e-08
	3.133073258253909e-06
	6.733626081108176e-11

 1	1.000000000000000e+02
	1.500000000000000e-01
	1.200000000000000e+00
	1.500000000000000e-01
	0.000000000000000e+00
	0.000000000000000e+00
	-6.711370864375218e-06
	1.086792757176713e-08
	6.700402786650331e-06
	1.001501469696574e-10

Title: *nmos on - w6
Date: Tue Feb 15 20:20:45  2022
Plotname: DC transfer characteristic
Flags: real
No. Variables: 10
No. Points: 2
Variables:
	0	temp-sweep	temp-sweep
	1	abs(v(alim))	voltage
	2	v(drain)	voltage
	3	v(gate)	voltage
	4	v(source)	voltage
	5	v(body)	voltage
	6	i(i(vd))	current
	7	i(i(vg))	current
	8	i(i(vs))	current
	9	i(i(vb))	current
Values:
 0	3.000000000000000e+01
	2.000000000000000e-01
	1.200000000000000e+00
	2.000000000000000e-01
	0.000000000000000e+00
	0.000000000000000e+00
	-8.580759778148942e-06
	8.637941251166126e-09
	8.571971520998884e-06
	1.503158891947039e-10

 1	1.000000000000000e+02
	2.000000000000000e-01
	1.200000000000000e+00
	2.000000000000000e-01
	0.000000000000000e+00
	0.000000000000000e+00
	-1.505031865622776e-05
	8.636524079230767e-09
	1.504151311975926e-05
	1.690123697624647e-10

Title: *nmos on - w6
Date: Tue Feb 15 20:20:45  2022
Plotname: DC transfer characteristic
Flags: real
No. Variables: 10
No. Points: 2
Variables:
	0	temp-sweep	temp-sweep
	1	abs(v(alim))	voltage
	2	v(drain)	voltage
	3	v(gate)	voltage
	4	v(source)	voltage
	5	v(body)	voltage
	6	i(i(vd))	current
	7	i(i(vg))	current
	8	i(i(vs))	current
	9	i(i(vb))	current
Values:
 0	3.000000000000000e+01
	2.500000000000000e-01
	1.200000000000000e+00
	2.500000000000000e-01
	0.000000000000000e+00
	0.000000000000000e+00
	-2.028274536162721e-05
	6.681658226703746e-09
	2.027581222656916e-05
	2.514768260087767e-10

 1	1.000000000000000e+02
	2.500000000000000e-01
	1.200000000000000e+00
	2.500000000000000e-01
	0.000000000000000e+00
	0.000000000000000e+00
	-3.010718544085818e-05
	6.674676950035874e-09
	3.010029120906623e-05
	2.195548309430567e-10

Title: *nmos on - w6
Date: Tue Feb 15 20:20:45  2022
Plotname: DC transfer characteristic
Flags: real
No. Variables: 10
No. Points: 2
Variables:
	0	temp-sweep	temp-sweep
	1	abs(v(alim))	voltage
	2	v(drain)	voltage
	3	v(gate)	voltage
	4	v(source)	voltage
	5	v(body)	voltage
	6	i(i(vd))	current
	7	i(i(vg))	current
	8	i(i(vs))	current
	9	i(i(vb))	current
Values:
 0	3.000000000000000e+01
	3.000000000000000e-01
	1.200000000000000e+00
	3.000000000000000e-01
	0.000000000000000e+00
	0.000000000000000e+00
	-4.041538611179083e-05
	4.911302226018321e-09
	4.041017344141799e-05
	3.013681554977669e-10

 1	1.000000000000000e+02
	3.000000000000000e-01
	1.200000000000000e+00
	3.000000000000000e-01
	0.000000000000000e+00
	0.000000000000000e+00
	-5.287112559050827e-05
	4.885017917954926e-09
	5.286602525747946e-05
	2.153151242036274e-10

Title: *nmos on - w6
Date: Tue Feb 15 20:20:45  2022
Plotname: DC transfer characteristic
Flags: real
No. Variables: 10
No. Points: 2
Variables:
	0	temp-sweep	temp-sweep
	1	abs(v(alim))	voltage
	2	v(drain)	voltage
	3	v(gate)	voltage
	4	v(source)	voltage
	5	v(body)	voltage
	6	i(i(vd))	current
	7	i(i(vg))	current
	8	i(i(vs))	current
	9	i(i(vb))	current
Values:
 0	3.000000000000000e+01
	3.500000000000000e-01
	1.200000000000000e+00
	3.500000000000000e-01
	0.000000000000000e+00
	0.000000000000000e+00
	-6.832792824057249e-05
	3.143584920151099e-09
	6.832451690455314e-05
	2.677510873359747e-10

 1	1.000000000000000e+02
	3.500000000000000e-01
	1.200000000000000e+00
	3.500000000000000e-01
	0.000000000000000e+00
	0.000000000000000e+00
	-8.214877266141251e-05
	3.090126265981041e-09
	8.214551758617907e-05
	1.649489610560512e-10

Title: *nmos on - w6
Date: Tue Feb 15 20:20:45  2022
Plotname: DC transfer characteristic
Flags: real
No. Variables: 10
No. Points: 2
Variables:
	0	temp-sweep	temp-sweep
	1	abs(v(alim))	voltage
	2	v(drain)	voltage
	3	v(gate)	voltage
	4	v(source)	voltage
	5	v(body)	voltage
	6	i(i(vd))	current
	7	i(i(vg))	current
	8	i(i(vs))	current
	9	i(i(vb))	current
Values:
 0	3.000000000000000e+01
	4.000000000000000e-01
	1.200000000000000e+00
	4.000000000000000e-01
	0.000000000000000e+00
	0.000000000000000e+00
	-1.013561402476744e-04
	1.133032445643778e-09
	1.013548179878346e-04
	1.892274067747607e-10

 1	1.000000000000000e+02
	4.000000000000000e-01
	1.200000000000000e+00
	4.000000000000000e-01
	0.000000000000000e+00
	0.000000000000000e+00
	-1.155803477200704e-04
	1.069287824950749e-09
	1.155791740668649e-04
	1.043653574122226e-10

Title: *nmos on - w6
Date: Tue Feb 15 20:20:45  2022
Plotname: DC transfer characteristic
Flags: real
No. Variables: 10
No. Points: 2
Variables:
	0	temp-sweep	temp-sweep
	1	abs(v(alim))	voltage
	2	v(drain)	voltage
	3	v(gate)	voltage
	4	v(source)	voltage
	5	v(body)	voltage
	6	i(i(vd))	current
	7	i(i(vg))	current
	8	i(i(vs))	current
	9	i(i(vb))	current
Values:
 0	3.000000000000000e+01
	4.500000000000000e-01
	1.200000000000000e+00
	4.500000000000000e-01
	0.000000000000000e+00
	0.000000000000000e+00
	-1.369171997119636e-04
	-1.193258714060619e-09
	1.369182795375519e-04
	1.134330900614660e-10

 1	1.000000000000000e+02
	4.500000000000000e-01
	1.200000000000000e+00
	4.500000000000000e-01
	0.000000000000000e+00
	0.000000000000000e+00
	-1.510135159205555e-04
	-1.284377049159957e-09
	1.510147423467259e-04
	5.795082133822465e-11

Title: *nmos on - w6
Date: Tue Feb 15 20:20:45  2022
Plotname: DC transfer characteristic
Flags: real
No. Variables: 10
No. Points: 2
Variables:
	0	temp-sweep	temp-sweep
	1	abs(v(alim))	voltage
	2	v(drain)	voltage
	3	v(gate)	voltage
	4	v(source)	voltage
	5	v(body)	voltage
	6	i(i(vd))	current
	7	i(i(vg))	current
	8	i(i(vs))	current
	9	i(i(vb))	current
Values:
 0	3.000000000000000e+01
	4.999999999999999e-01
	1.200000000000000e+00
	4.999999999999999e-01
	0.000000000000000e+00
	0.000000000000000e+00
	-1.733858098412684e-04
	-3.884865651393454e-09
	1.733896343742179e-04
	6.033273660259485e-11

 1	1.000000000000000e+02
	4.999999999999999e-01
	1.200000000000000e+00
	4.999999999999999e-01
	0.000000000000000e+00
	0.000000000000000e+00
	-1.870476614332762e-04
	-4.036680267827109e-09
	1.870516670568162e-04
	3.105668940921414e-11

Title: *nmos on - w6
Date: Tue Feb 15 20:20:45  2022
Plotname: DC transfer characteristic
Flags: real
No. Variables: 10
No. Points: 2
Variables:
	0	temp-sweep	temp-sweep
	1	abs(v(alim))	voltage
	2	v(drain)	voltage
	3	v(gate)	voltage
	4	v(source)	voltage
	5	v(body)	voltage
	6	i(i(vd))	current
	7	i(i(vg))	current
	8	i(i(vs))	current
	9	i(i(vb))	current
Values:
 0	3.000000000000000e+01
	5.499999999999999e-01
	1.200000000000000e+00
	5.499999999999999e-01
	0.000000000000000e+00
	0.000000000000000e+00
	-2.099446226403376e-04
	-7.044672289957532e-09
	2.099516376385167e-04
	2.967414630497729e-11

 1	1.000000000000000e+02
	5.499999999999999e-01
	1.200000000000000e+00
	5.499999999999999e-01
	0.000000000000000e+00
	0.000000000000000e+00
	-2.229451068282385e-04
	-7.290102077561755e-09
	2.229523763381929e-04
	2.059216727201195e-11

Title: *nmos on - w6
Date: Tue Feb 15 20:20:45  2022
Plotname: DC transfer characteristic
Flags: real
No. Variables: 10
No. Points: 2
Variables:
	0	temp-sweep	temp-sweep
	1	abs(v(alim))	voltage
	2	v(drain)	voltage
	3	v(gate)	voltage
	4	v(source)	voltage
	5	v(body)	voltage
	6	i(i(vd))	current
	7	i(i(vg))	current
	8	i(i(vs))	current
	9	i(i(vb))	current
Values:
 0	3.000000000000000e+01
	6.000000000000000e-01
	1.200000000000000e+00
	6.000000000000000e-01
	0.000000000000000e+00
	0.000000000000000e+00
	-2.462345198223162e-04
	-1.080148981369433e-08
	2.462453062502553e-04
	1.506186765053346e-11

 1	1.000000000000000e+02
	6.000000000000000e-01
	1.200000000000000e+00
	6.000000000000000e-01
	0.000000000000000e+00
	0.000000000000000e+00
	-2.583801193791978e-04
	-1.117690123786375e-08
	2.583912722927279e-04
	2.398775022964029e-11

Title: *nmos on - w6
Date: Tue Feb 15 20:20:45  2022
Plotname: DC transfer characteristic
Flags: real
No. Variables: 10
No. Points: 2
Variables:
	0	temp-sweep	temp-sweep
	1	abs(v(alim))	voltage
	2	v(drain)	voltage
	3	v(gate)	voltage
	4	v(source)	voltage
	5	v(body)	voltage
	6	i(i(vd))	current
	7	i(i(vg))	current
	8	i(i(vs))	current
	9	i(i(vb))	current
Values:
 0	3.000000000000000e+01
	6.500000000000000e-01
	1.200000000000000e+00
	6.500000000000000e-01
	0.000000000000000e+00
	0.000000000000000e+00
	-2.821127280628437e-04
	-1.530198306953778e-08
	2.821280187465567e-04
	1.129938644407691e-11

 1	1.000000000000000e+02
	6.500000000000000e-01
	1.200000000000000e+00
	6.500000000000000e-01
	0.000000000000000e+00
	0.000000000000000e+00
	-2.932388361002862e-04
	-1.585266912185190e-08
	2.932546449625450e-04
	4.380692167622159e-11

Title: *nmos on - w6
Date: Tue Feb 15 20:20:45  2022
Plotname: DC transfer characteristic
Flags: real
No. Variables: 10
No. Points: 2
Variables:
	0	temp-sweep	temp-sweep
	1	abs(v(alim))	voltage
	2	v(drain)	voltage
	3	v(gate)	voltage
	4	v(source)	voltage
	5	v(body)	voltage
	6	i(i(vd))	current
	7	i(i(vg))	current
	8	i(i(vs))	current
	9	i(i(vb))	current
Values:
 0	3.000000000000000e+01
	7.000000000000001e-01
	1.200000000000000e+00
	7.000000000000001e-01
	0.000000000000000e+00
	0.000000000000000e+00
	-3.175278500802046e-04
	-2.071243532242306e-08
	3.175485453202647e-04
	1.719520485528533e-11

 1	1.000000000000000e+02
	7.000000000000001e-01
	1.200000000000000e+00
	7.000000000000001e-01
	0.000000000000000e+00
	0.000000000000000e+00
	-3.275013581886643e-04
	-2.149967409659226e-08
	3.275227649426418e-04
	9.292013577693638e-11

Title: *nmos on - w6
Date: Tue Feb 15 20:20:45  2022
Plotname: DC transfer characteristic
Flags: real
No. Variables: 10
No. Points: 2
Variables:
	0	temp-sweep	temp-sweep
	1	abs(v(alim))	voltage
	2	v(drain)	voltage
	3	v(gate)	voltage
	4	v(source)	voltage
	5	v(body)	voltage
	6	i(i(vd))	current
	7	i(i(vg))	current
	8	i(i(vs))	current
	9	i(i(vb))	current
Values:
 0	3.000000000000000e+01
	7.500000000000001e-01
	1.200000000000000e+00
	7.500000000000001e-01
	0.000000000000000e+00
	0.000000000000000e+00
	-3.524636657347588e-04
	-2.722396141852101e-08
	3.524908506098473e-04
	3.908624482946587e-11

 1	1.000000000000000e+02
	7.500000000000001e-01
	1.200000000000000e+00
	7.500000000000001e-01
	0.000000000000000e+00
	0.000000000000000e+00
	-3.611823957194315e-04
	-2.833714274341759e-08
	3.612105354444781e-04
	1.974176704364620e-10

Title: *nmos on - w6
Date: Tue Feb 15 20:20:45  2022
Plotname: DC transfer characteristic
Flags: real
No. Variables: 10
No. Points: 2
Variables:
	0	temp-sweep	temp-sweep
	1	abs(v(alim))	voltage
	2	v(drain)	voltage
	3	v(gate)	voltage
	4	v(source)	voltage
	5	v(body)	voltage
	6	i(i(vd))	current
	7	i(i(vg))	current
	8	i(i(vs))	current
	9	i(i(vb))	current
Values:
 0	3.000000000000000e+01
	8.000000000000002e-01
	1.200000000000000e+00
	8.000000000000002e-01
	0.000000000000000e+00
	0.000000000000000e+00
	-3.869160463028824e-04
	-3.506166290634383e-08
	3.869510167497042e-04
	9.121604355506075e-11

 1	1.000000000000000e+02
	8.000000000000002e-01
	1.200000000000000e+00
	8.000000000000002e-01
	0.000000000000000e+00
	0.000000000000000e+00
	-3.943048116273593e-04
	-3.664066061670468e-08
	3.943410345676917e-04
	4.177201735119866e-10

Title: *nmos on - w6
Date: Tue Feb 15 20:20:45  2022
Plotname: DC transfer characteristic
Flags: real
No. Variables: 10
No. Points: 2
Variables:
	0	temp-sweep	temp-sweep
	1	abs(v(alim))	voltage
	2	v(drain)	voltage
	3	v(gate)	voltage
	4	v(source)	voltage
	5	v(body)	voltage
	6	i(i(vd))	current
	7	i(i(vg))	current
	8	i(i(vs))	current
	9	i(i(vb))	current
Values:
 0	3.000000000000000e+01
	8.500000000000002e-01
	1.200000000000000e+00
	8.500000000000002e-01
	0.000000000000000e+00
	0.000000000000000e+00
	-4.208842409760001e-04
	-4.450190016491717e-08
	4.209285280432580e-04
	2.148328877031747e-10

 1	1.000000000000000e+02
	8.500000000000002e-01
	1.200000000000000e+00
	8.500000000000002e-01
	0.000000000000000e+00
	0.000000000000000e+00
	-4.268894129711544e-04
	-4.677782861062241e-08
	4.269353133329457e-04
	8.774668823590974e-10

Title: *nmos on - w6
Date: Tue Feb 15 20:20:45  2022
Plotname: DC transfer characteristic
Flags: real
No. Variables: 10
No. Points: 2
Variables:
	0	temp-sweep	temp-sweep
	1	abs(v(alim))	voltage
	2	v(drain)	voltage
	3	v(gate)	voltage
	4	v(source)	voltage
	5	v(body)	voltage
	6	i(i(vd))	current
	7	i(i(vg))	current
	8	i(i(vs))	current
	9	i(i(vb))	current
Values:
 0	3.000000000000000e+01
	9.000000000000002e-01
	1.200000000000000e+00
	9.000000000000002e-01
	0.000000000000000e+00
	0.000000000000000e+00
	-4.543679067245828e-04
	-5.590724494464183e-08
	4.544233082709100e-04
	5.056985083985653e-10

 1	1.000000000000000e+02
	9.000000000000002e-01
	1.200000000000000e+00
	9.000000000000002e-01
	0.000000000000000e+00
	0.000000000000000e+00
	-4.589520035510601e-04
	-5.927304280728407e-08
	4.590094526382323e-04
	1.823955613547239e-09

Title: *nmos on - w6
Date: Tue Feb 15 20:20:45  2022
Plotname: DC transfer characteristic
Flags: real
No. Variables: 10
No. Points: 2
Variables:
	0	temp-sweep	temp-sweep
	1	abs(v(alim))	voltage
	2	v(drain)	voltage
	3	v(gate)	voltage
	4	v(source)	voltage
	5	v(body)	voltage
	6	i(i(vd))	current
	7	i(i(vg))	current
	8	i(i(vs))	current
	9	i(i(vb))	current
Values:
 0	3.000000000000000e+01
	9.500000000000003e-01
	1.200000000000000e+00
	9.500000000000003e-01
	0.000000000000000e+00
	0.000000000000000e+00
	-4.873662473597139e-04
	-6.979855038391491e-08
	4.874348643402200e-04
	1.181569898501820e-09

 1	1.000000000000000e+02
	9.500000000000003e-01
	1.200000000000000e+00
	9.500000000000003e-01
	0.000000000000000e+00
	0.000000000000000e+00
	-4.905032978936463e-04
	-7.491996689701352e-08
	4.905744819920219e-04
	3.735868483932571e-09

Title: *nmos on - w6
Date: Tue Feb 15 20:20:45  2022
Plotname: DC transfer characteristic
Flags: real
No. Variables: 10
No. Points: 2
Variables:
	0	temp-sweep	temp-sweep
	1	abs(v(alim))	voltage
	2	v(drain)	voltage
	3	v(gate)	voltage
	4	v(source)	voltage
	5	v(body)	voltage
	6	i(i(vd))	current
	7	i(i(vg))	current
	8	i(i(vs))	current
	9	i(i(vb))	current
Values:
 0	3.000000000000000e+01
	1.000000000000000e+00
	1.200000000000000e+00
	1.000000000000000e+00
	0.000000000000000e+00
	0.000000000000000e+00
	-5.198778173638022e-04
	-8.699608278206483e-08
	5.199620929889291e-04
	2.720457679073407e-09

 1	1.000000000000000e+02
	1.000000000000000e+00
	1.200000000000000e+00
	1.000000000000000e+00
	0.000000000000000e+00
	0.000000000000000e+00
	-5.215497177608338e-04
	-9.495744235366033e-08
	5.216371790800759e-04
	7.496123220511203e-09

Title: *nmos on - w6
Date: Tue Feb 15 20:20:45  2022
Plotname: DC transfer characteristic
Flags: real
No. Variables: 10
No. Points: 2
Variables:
	0	temp-sweep	temp-sweep
	1	abs(v(alim))	voltage
	2	v(drain)	voltage
	3	v(gate)	voltage
	4	v(source)	voltage
	5	v(body)	voltage
	6	i(i(vd))	current
	7	i(i(vg))	current
	8	i(i(vs))	current
	9	i(i(vb))	current
Values:
 0	3.000000000000000e+01
	1.050000000000000e+00
	1.200000000000000e+00
	1.050000000000000e+00
	0.000000000000000e+00
	0.000000000000000e+00
	-5.519004785335676e-04
	-1.088560527273685e-07
	5.520032232061284e-04
	6.111380131572259e-09

 1	1.000000000000000e+02
	1.050000000000000e+00
	1.200000000000000e+00
	1.050000000000000e+00
	0.000000000000000e+00
	0.000000000000000e+00
	-5.520942755378143e-04
	-1.212904541247894e-07
	5.522009391514922e-04
	1.462684049426985e-08

Title: *nmos on - w6
Date: Tue Feb 15 20:20:45  2022
Plotname: DC transfer characteristic
Flags: real
No. Variables: 10
No. Points: 2
Variables:
	0	temp-sweep	temp-sweep
	1	abs(v(alim))	voltage
	2	v(drain)	voltage
	3	v(gate)	voltage
	4	v(source)	voltage
	5	v(body)	voltage
	6	i(i(vd))	current
	7	i(i(vg))	current
	8	i(i(vs))	current
	9	i(i(vb))	current
Values:
 0	3.000000000000000e+01
	1.100000000000000e+00
	1.200000000000000e+00
	1.100000000000000e+00
	0.000000000000000e+00
	0.000000000000000e+00
	-5.834312077615157e-04
	-1.377329842400243e-07
	5.835557233468587e-04
	1.321739884551038e-08

 1	1.000000000000000e+02
	1.100000000000000e+00
	1.200000000000000e+00
	1.100000000000000e+00
	0.000000000000000e+00
	0.000000000000000e+00
	-5.821371307881512e-04
	-1.568344676350364e-07
	5.822664311698820e-04
	2.753408588468417e-08

Title: *nmos on - w6
Date: Tue Feb 15 20:20:45  2022
Plotname: DC transfer characteristic
Flags: real
No. Variables: 10
No. Points: 2
Variables:
	0	temp-sweep	temp-sweep
	1	abs(v(alim))	voltage
	2	v(drain)	voltage
	3	v(gate)	voltage
	4	v(source)	voltage
	5	v(body)	voltage
	6	i(i(vd))	current
	7	i(i(vg))	current
	8	i(i(vs))	current
	9	i(i(vb))	current
Values:
 0	3.000000000000000e+01
	1.150000000000000e+00
	1.200000000000000e+00
	1.150000000000000e+00
	0.000000000000000e+00
	0.000000000000000e+00
	-6.144660252853194e-04
	-1.772122542043064e-07
	6.146161280516992e-04
	2.710948784766436e-08

 1	1.000000000000000e+02
	1.150000000000000e+00
	1.200000000000000e+00
	1.150000000000000e+00
	0.000000000000000e+00
	0.000000000000000e+00
	-6.116760692442072e-04
	-2.055755784491353e-07
	6.118319757892095e-04
	4.966903336796763e-08

Title: *nmos on - w6
Date: Tue Feb 15 20:20:45  2022
Plotname: DC transfer characteristic
Flags: real
No. Variables: 10
No. Points: 2
Variables:
	0	temp-sweep	temp-sweep
	1	abs(v(alim))	voltage
	2	v(drain)	voltage
	3	v(gate)	voltage
	4	v(source)	voltage
	5	v(body)	voltage
	6	i(i(vd))	current
	7	i(i(vg))	current
	8	i(i(vs))	current
	9	i(i(vb))	current
Values:
 0	3.000000000000000e+01
	1.200000000000000e+00
	1.200000000000000e+00
	1.200000000000000e+00
	0.000000000000000e+00
	0.000000000000000e+00
	-6.449996887164054e-04
	-2.321928563864262e-07
	6.451797749689242e-04
	5.210660394412741e-08

 1	1.000000000000000e+02
	1.200000000000000e+00
	1.200000000000000e+00
	1.200000000000000e+00
	0.000000000000000e+00
	0.000000000000000e+00
	-6.407065692270588e-04
	-2.726505505812327e-07
	6.408936548460202e-04
	8.556493165304262e-08

