Title: *nmos on - w8
Date: Tue Feb 15 20:20:48  2022
Plotname: DC transfer characteristic
Flags: real
No. Variables: 10
No. Points: 2
Variables:
	0	temp-sweep	temp-sweep
	1	abs(v(alim))	voltage
	2	v(drain)	voltage
	3	v(gate)	voltage
	4	v(source)	voltage
	5	v(body)	voltage
	6	i(i(vd))	current
	7	i(i(vg))	current
	8	i(i(vs))	current
	9	i(i(vb))	current
Values:
 0	3.000000000000000e+01
	5.000000000000000e-02
	1.200000000000000e+00
	5.000000000000000e-02
	0.000000000000000e+00
	0.000000000000000e+00
	-4.305973648434721e-07
	2.213076372506451e-08
	4.075970111246297e-07
	8.695899911100645e-10

 1	1.000000000000000e+02
	5.000000000000000e-02
	1.200000000000000e+00
	5.000000000000000e-02
	0.000000000000000e+00
	0.000000000000000e+00
	-1.427360525774492e-06
	2.213075152995847e-08
	1.404343853683199e-06
	8.859205641346883e-10

Title: *nmos on - w8
Date: Tue Feb 15 20:20:48  2022
Plotname: DC transfer characteristic
Flags: real
No. Variables: 10
No. Points: 2
Variables:
	0	temp-sweep	temp-sweep
	1	abs(v(alim))	voltage
	2	v(drain)	voltage
	3	v(gate)	voltage
	4	v(source)	voltage
	5	v(body)	voltage
	6	i(i(vd))	current
	7	i(i(vg))	current
	8	i(i(vs))	current
	9	i(i(vb))	current
Values:
 0	3.000000000000000e+01
	1.000000000000000e-01
	1.200000000000000e+00
	1.000000000000000e-01
	0.000000000000000e+00
	0.000000000000000e+00
	-1.391812730027288e-06
	1.809735058339035e-08
	1.373634012962666e-06
	8.136648043871768e-11

 1	1.000000000000000e+02
	1.000000000000000e-01
	1.200000000000000e+00
	1.000000000000000e-01
	0.000000000000000e+00
	0.000000000000000e+00
	-3.697864062842022e-06
	1.809728721047232e-08
	3.679653645158665e-06
	1.131304775547069e-10

Title: *nmos on - w8
Date: Tue Feb 15 20:20:48  2022
Plotname: DC transfer characteristic
Flags: real
No. Variables: 10
No. Points: 2
Variables:
	0	temp-sweep	temp-sweep
	1	abs(v(alim))	voltage
	2	v(drain)	voltage
	3	v(gate)	voltage
	4	v(source)	voltage
	5	v(body)	voltage
	6	i(i(vd))	current
	7	i(i(vg))	current
	8	i(i(vs))	current
	9	i(i(vb))	current
Values:
 0	3.000000000000000e+01
	1.500000000000000e-01
	1.200000000000000e+00
	1.500000000000000e-01
	0.000000000000000e+00
	0.000000000000000e+00
	-4.231716908272255e-06
	1.463025067760526e-08
	4.216996059383487e-06
	9.059821467552998e-11

 1	1.000000000000000e+02
	1.500000000000000e-01
	1.200000000000000e+00
	1.500000000000000e-01
	0.000000000000000e+00
	0.000000000000000e+00
	-9.031982270970546e-06
	1.462990170675305e-08
	9.017217654130798e-06
	1.347151285637641e-10

Title: *nmos on - w8
Date: Tue Feb 15 20:20:48  2022
Plotname: DC transfer characteristic
Flags: real
No. Variables: 10
No. Points: 2
Variables:
	0	temp-sweep	temp-sweep
	1	abs(v(alim))	voltage
	2	v(drain)	voltage
	3	v(gate)	voltage
	4	v(source)	voltage
	5	v(body)	voltage
	6	i(i(vd))	current
	7	i(i(vg))	current
	8	i(i(vs))	current
	9	i(i(vb))	current
Values:
 0	3.000000000000000e+01
	2.000000000000000e-01
	1.200000000000000e+00
	2.000000000000000e-01
	0.000000000000000e+00
	0.000000000000000e+00
	-1.154598147891082e-05
	1.162799731502240e-08
	1.153415129980475e-05
	2.021818028733616e-10

 1	1.000000000000000e+02
	2.000000000000000e-01
	1.200000000000000e+00
	2.000000000000000e-01
	0.000000000000000e+00
	0.000000000000000e+00
	-2.024782360424050e-05
	1.162608960492140e-08
	2.023597027823583e-05
	2.272363931370251e-10

Title: *nmos on - w8
Date: Tue Feb 15 20:20:48  2022
Plotname: DC transfer characteristic
Flags: real
No. Variables: 10
No. Points: 2
Variables:
	0	temp-sweep	temp-sweep
	1	abs(v(alim))	voltage
	2	v(drain)	voltage
	3	v(gate)	voltage
	4	v(source)	voltage
	5	v(body)	voltage
	6	i(i(vd))	current
	7	i(i(vg))	current
	8	i(i(vs))	current
	9	i(i(vb))	current
Values:
 0	3.000000000000000e+01
	2.500000000000000e-01
	1.200000000000000e+00
	2.500000000000000e-01
	0.000000000000000e+00
	0.000000000000000e+00
	-2.727959700056780e-05
	8.994539640871935e-09
	2.727026446651885e-05
	3.379944081043229e-10

 1	1.000000000000000e+02
	2.500000000000000e-01
	1.200000000000000e+00
	2.500000000000000e-01
	0.000000000000000e+00
	0.000000000000000e+00
	-4.048776203066527e-05
	8.985142019302117e-09
	4.047848195259894e-05
	2.949360492933184e-10

Title: *nmos on - w8
Date: Tue Feb 15 20:20:48  2022
Plotname: DC transfer characteristic
Flags: real
No. Variables: 10
No. Points: 2
Variables:
	0	temp-sweep	temp-sweep
	1	abs(v(alim))	voltage
	2	v(drain)	voltage
	3	v(gate)	voltage
	4	v(source)	voltage
	5	v(body)	voltage
	6	i(i(vd))	current
	7	i(i(vg))	current
	8	i(i(vs))	current
	9	i(i(vb))	current
Values:
 0	3.000000000000000e+01
	3.000000000000000e-01
	1.200000000000000e+00
	3.000000000000000e-01
	0.000000000000000e+00
	0.000000000000000e+00
	-5.433005115497240e-05
	6.611369451903215e-09
	5.432303518790396e-05
	4.045976192653759e-10

 1	1.000000000000000e+02
	3.000000000000000e-01
	1.200000000000000e+00
	3.000000000000000e-01
	0.000000000000000e+00
	0.000000000000000e+00
	-7.107020053559129e-05
	6.575988420465251e-09
	7.106333565694341e-05
	2.888902204400834e-10

Title: *nmos on - w8
Date: Tue Feb 15 20:20:48  2022
Plotname: DC transfer characteristic
Flags: real
No. Variables: 10
No. Points: 2
Variables:
	0	temp-sweep	temp-sweep
	1	abs(v(alim))	voltage
	2	v(drain)	voltage
	3	v(gate)	voltage
	4	v(source)	voltage
	5	v(body)	voltage
	6	i(i(vd))	current
	7	i(i(vg))	current
	8	i(i(vs))	current
	9	i(i(vb))	current
Values:
 0	3.000000000000000e+01
	3.500000000000000e-01
	1.200000000000000e+00
	3.500000000000000e-01
	0.000000000000000e+00
	0.000000000000000e+00
	-9.181165205082022e-05
	4.231762024131669e-09
	9.180706134507073e-05
	3.589437551600376e-10

 1	1.000000000000000e+02
	3.500000000000000e-01
	1.200000000000000e+00
	3.500000000000000e-01
	0.000000000000000e+00
	0.000000000000000e+00
	-1.103847142177407e-04
	4.159805555570273e-09
	1.103803334395560e-04
	2.209726428772768e-10

Title: *nmos on - w8
Date: Tue Feb 15 20:20:48  2022
Plotname: DC transfer characteristic
Flags: real
No. Variables: 10
No. Points: 2
Variables:
	0	temp-sweep	temp-sweep
	1	abs(v(alim))	voltage
	2	v(drain)	voltage
	3	v(gate)	voltage
	4	v(source)	voltage
	5	v(body)	voltage
	6	i(i(vd))	current
	7	i(i(vg))	current
	8	i(i(vs))	current
	9	i(i(vb))	current
Values:
 0	3.000000000000000e+01
	4.000000000000000e-01
	1.200000000000000e+00
	4.000000000000000e-01
	0.000000000000000e+00
	0.000000000000000e+00
	-1.361442270446203e-04
	1.525302689708852e-09
	1.361424485048131e-04
	2.532370878618600e-10

 1	1.000000000000000e+02
	4.000000000000000e-01
	1.200000000000000e+00
	4.000000000000000e-01
	0.000000000000000e+00
	0.000000000000000e+00
	-1.552618207190283e-04
	1.439510816103606e-09
	1.552602416482554e-04
	1.395599287700045e-10

Title: *nmos on - w8
Date: Tue Feb 15 20:20:48  2022
Plotname: DC transfer characteristic
Flags: real
No. Variables: 10
No. Points: 2
Variables:
	0	temp-sweep	temp-sweep
	1	abs(v(alim))	voltage
	2	v(drain)	voltage
	3	v(gate)	voltage
	4	v(source)	voltage
	5	v(body)	voltage
	6	i(i(vd))	current
	7	i(i(vg))	current
	8	i(i(vs))	current
	9	i(i(vb))	current
Values:
 0	3.000000000000000e+01
	4.500000000000000e-01
	1.200000000000000e+00
	4.500000000000000e-01
	0.000000000000000e+00
	0.000000000000000e+00
	-1.838641353099184e-04
	-1.606109079066442e-09
	1.838655899121963e-04
	1.515068538054449e-10

 1	1.000000000000000e+02
	4.500000000000000e-01
	1.200000000000000e+00
	4.500000000000000e-01
	0.000000000000000e+00
	0.000000000000000e+00
	-2.028152635956615e-04
	-1.728730519845456e-09
	2.028169149795955e-04
	7.734662859800494e-11

Title: *nmos on - w8
Date: Tue Feb 15 20:20:49  2022
Plotname: DC transfer characteristic
Flags: real
No. Variables: 10
No. Points: 2
Variables:
	0	temp-sweep	temp-sweep
	1	abs(v(alim))	voltage
	2	v(drain)	voltage
	3	v(gate)	voltage
	4	v(source)	voltage
	5	v(body)	voltage
	6	i(i(vd))	current
	7	i(i(vg))	current
	8	i(i(vs))	current
	9	i(i(vb))	current
Values:
 0	3.000000000000000e+01
	4.999999999999999e-01
	1.200000000000000e+00
	4.999999999999999e-01
	0.000000000000000e+00
	0.000000000000000e+00
	-2.327945336174655e-04
	-5.229173316578795e-09
	2.327996823786162e-04
	8.041216505659563e-11

 1	1.000000000000000e+02
	4.999999999999999e-01
	1.200000000000000e+00
	4.999999999999999e-01
	0.000000000000000e+00
	0.000000000000000e+00
	-2.511688230117827e-04
	-5.433469729698714e-09
	2.511742150808483e-04
	4.140064701129092e-11

Title: *nmos on - w8
Date: Tue Feb 15 20:20:49  2022
Plotname: DC transfer characteristic
Flags: real
No. Variables: 10
No. Points: 2
Variables:
	0	temp-sweep	temp-sweep
	1	abs(v(alim))	voltage
	2	v(drain)	voltage
	3	v(gate)	voltage
	4	v(source)	voltage
	5	v(body)	voltage
	6	i(i(vd))	current
	7	i(i(vg))	current
	8	i(i(vs))	current
	9	i(i(vb))	current
Values:
 0	3.000000000000000e+01
	5.499999999999999e-01
	1.200000000000000e+00
	5.499999999999999e-01
	0.000000000000000e+00
	0.000000000000000e+00
	-2.818419736870466e-04
	-9.482340912470022e-09
	2.818514165586630e-04
	3.946925985142858e-11

 1	1.000000000000000e+02
	5.499999999999999e-01
	1.200000000000000e+00
	5.499999999999999e-01
	0.000000000000000e+00
	0.000000000000000e+00
	-2.993353599531983e-04
	-9.812612500326168e-09
	2.993451450655191e-04
	2.750022853428708e-11

Title: *nmos on - w8
Date: Tue Feb 15 20:20:49  2022
Plotname: DC transfer characteristic
Flags: real
No. Variables: 10
No. Points: 2
Variables:
	0	temp-sweep	temp-sweep
	1	abs(v(alim))	voltage
	2	v(drain)	voltage
	3	v(gate)	voltage
	4	v(source)	voltage
	5	v(body)	voltage
	6	i(i(vd))	current
	7	i(i(vg))	current
	8	i(i(vs))	current
	9	i(i(vb))	current
Values:
 0	3.000000000000000e+01
	6.000000000000000e-01
	1.200000000000000e+00
	6.000000000000000e-01
	0.000000000000000e+00
	0.000000000000000e+00
	-3.305267605495225e-04
	-1.453895626113422e-08
	3.305412794827934e-04
	2.002303144326398e-11

 1	1.000000000000000e+02
	6.000000000000000e-01
	1.200000000000000e+00
	6.000000000000000e-01
	0.000000000000000e+00
	0.000000000000000e+00
	-3.468796694059728e-04
	-1.504414237629703e-08
	3.468946813645663e-04
	3.218374565724691e-11

Title: *nmos on - w8
Date: Tue Feb 15 20:20:49  2022
Plotname: DC transfer characteristic
Flags: real
No. Variables: 10
No. Points: 2
Variables:
	0	temp-sweep	temp-sweep
	1	abs(v(alim))	voltage
	2	v(drain)	voltage
	3	v(gate)	voltage
	4	v(source)	voltage
	5	v(body)	voltage
	6	i(i(vd))	current
	7	i(i(vg))	current
	8	i(i(vs))	current
	9	i(i(vb))	current
Values:
 0	3.000000000000000e+01
	6.500000000000000e-01
	1.200000000000000e+00
	6.500000000000000e-01
	0.000000000000000e+00
	0.000000000000000e+00
	-3.786586739229579e-04
	-2.059638809503994e-08
	3.786792552216742e-04
	1.508939011211895e-11

 1	1.000000000000000e+02
	6.500000000000000e-01
	1.200000000000000e+00
	6.500000000000000e-01
	0.000000000000000e+00
	0.000000000000000e+00
	-3.936501748828202e-04
	-2.133744186894049e-08
	3.936714534021871e-04
	5.892248973915196e-11

Title: *nmos on - w8
Date: Tue Feb 15 20:20:49  2022
Plotname: DC transfer characteristic
Flags: real
No. Variables: 10
No. Points: 2
Variables:
	0	temp-sweep	temp-sweep
	1	abs(v(alim))	voltage
	2	v(drain)	voltage
	3	v(gate)	voltage
	4	v(source)	voltage
	5	v(body)	voltage
	6	i(i(vd))	current
	7	i(i(vg))	current
	8	i(i(vs))	current
	9	i(i(vb))	current
Values:
 0	3.000000000000000e+01
	7.000000000000001e-01
	1.200000000000000e+00
	7.000000000000001e-01
	0.000000000000000e+00
	0.000000000000000e+00
	-4.261695852982922e-04
	-2.787840258644536e-08
	4.261974405654597e-04
	2.313541571871479e-11

 1	1.000000000000000e+02
	7.000000000000001e-01
	1.200000000000000e+00
	7.000000000000001e-01
	0.000000000000000e+00
	0.000000000000000e+00
	-4.396209398277374e-04
	-2.893779355028769e-08
	4.396497525482149e-04
	1.250730668012996e-10

Title: *nmos on - w8
Date: Tue Feb 15 20:20:49  2022
Plotname: DC transfer characteristic
Flags: real
No. Variables: 10
No. Points: 2
Variables:
	0	temp-sweep	temp-sweep
	1	abs(v(alim))	voltage
	2	v(drain)	voltage
	3	v(gate)	voltage
	4	v(source)	voltage
	5	v(body)	voltage
	6	i(i(vd))	current
	7	i(i(vg))	current
	8	i(i(vs))	current
	9	i(i(vb))	current
Values:
 0	3.000000000000000e+01
	7.500000000000001e-01
	1.200000000000000e+00
	7.500000000000001e-01
	0.000000000000000e+00
	0.000000000000000e+00
	-4.730382506826906e-04
	-3.664218106713690e-08
	4.730748402605622e-04
	5.260317193136477e-11

 1	1.000000000000000e+02
	7.500000000000001e-01
	1.200000000000000e+00
	7.500000000000001e-01
	0.000000000000000e+00
	0.000000000000000e+00
	-4.848121858361207e-04
	-3.814021853898453e-08
	4.848500603127695e-04
	2.657418988828670e-10

Title: *nmos on - w8
Date: Tue Feb 15 20:20:49  2022
Plotname: DC transfer characteristic
Flags: real
No. Variables: 10
No. Points: 2
Variables:
	0	temp-sweep	temp-sweep
	1	abs(v(alim))	voltage
	2	v(drain)	voltage
	3	v(gate)	voltage
	4	v(source)	voltage
	5	v(body)	voltage
	6	i(i(vd))	current
	7	i(i(vg))	current
	8	i(i(vs))	current
	9	i(i(vb))	current
Values:
 0	3.000000000000000e+01
	8.000000000000002e-01
	1.200000000000000e+00
	8.000000000000002e-01
	0.000000000000000e+00
	0.000000000000000e+00
	-5.192594541907665e-04
	-4.719064167213460e-08
	5.193065220555048e-04
	1.227769693073325e-10

 1	1.000000000000000e+02
	8.000000000000002e-01
	1.200000000000000e+00
	8.000000000000002e-01
	0.000000000000000e+00
	0.000000000000000e+00
	-5.292548961394303e-04
	-4.931559122178797e-08
	5.293036494286890e-04
	5.623019515021564e-10

Title: *nmos on - w8
Date: Tue Feb 15 20:20:49  2022
Plotname: DC transfer characteristic
Flags: real
No. Variables: 10
No. Points: 2
Variables:
	0	temp-sweep	temp-sweep
	1	abs(v(alim))	voltage
	2	v(drain)	voltage
	3	v(gate)	voltage
	4	v(source)	voltage
	5	v(body)	voltage
	6	i(i(vd))	current
	7	i(i(vg))	current
	8	i(i(vs))	current
	9	i(i(vb))	current
Values:
 0	3.000000000000000e+01
	8.500000000000002e-01
	1.200000000000000e+00
	8.500000000000002e-01
	0.000000000000000e+00
	0.000000000000000e+00
	-5.648323858996906e-04
	-5.989568901965114e-08
	5.648919924054643e-04
	2.891832758684471e-10

 1	1.000000000000000e+02
	8.500000000000002e-01
	1.200000000000000e+00
	8.500000000000002e-01
	0.000000000000000e+00
	0.000000000000000e+00
	-5.729771788224497e-04
	-6.295863685945591e-08
	5.730389562688914e-04
	1.181190440795607e-09

Title: *nmos on - w8
Date: Tue Feb 15 20:20:49  2022
Plotname: DC transfer characteristic
Flags: real
No. Variables: 10
No. Points: 2
Variables:
	0	temp-sweep	temp-sweep
	1	abs(v(alim))	voltage
	2	v(drain)	voltage
	3	v(gate)	voltage
	4	v(source)	voltage
	5	v(body)	voltage
	6	i(i(vd))	current
	7	i(i(vg))	current
	8	i(i(vs))	current
	9	i(i(vb))	current
Values:
 0	3.000000000000000e+01
	9.000000000000002e-01
	1.200000000000000e+00
	9.000000000000002e-01
	0.000000000000000e+00
	0.000000000000000e+00
	-6.097566979691247e-04
	-7.524526357549632e-08
	6.098312625007897e-04
	6.807319048928852e-10

 1	1.000000000000000e+02
	9.000000000000002e-01
	1.200000000000000e+00
	9.000000000000002e-01
	0.000000000000000e+00
	0.000000000000000e+00
	-6.160003487324288e-04
	-7.977513200030373e-08
	6.160776685567581e-04
	2.455307728160266e-09

Title: *nmos on - w8
Date: Tue Feb 15 20:20:49  2022
Plotname: DC transfer characteristic
Flags: real
No. Variables: 10
No. Points: 2
Variables:
	0	temp-sweep	temp-sweep
	1	abs(v(alim))	voltage
	2	v(drain)	voltage
	3	v(gate)	voltage
	4	v(source)	voltage
	5	v(body)	voltage
	6	i(i(vd))	current
	7	i(i(vg))	current
	8	i(i(vs))	current
	9	i(i(vb))	current
Values:
 0	3.000000000000000e+01
	9.500000000000003e-01
	1.200000000000000e+00
	9.500000000000003e-01
	0.000000000000000e+00
	0.000000000000000e+00
	-6.540313743830154e-04
	-9.394035754839436e-08
	6.541237241838630e-04
	1.590556684875639e-09

 1	1.000000000000000e+02
	9.500000000000003e-01
	1.200000000000000e+00
	9.500000000000003e-01
	0.000000000000000e+00
	0.000000000000000e+00
	-6.583388341304356e-04
	-1.008333094798530e-07
	6.584346384076290e-04
	5.029032271774733e-09

Title: *nmos on - w8
Date: Tue Feb 15 20:20:49  2022
Plotname: DC transfer characteristic
Flags: real
No. Variables: 10
No. Points: 2
Variables:
	0	temp-sweep	temp-sweep
	1	abs(v(alim))	voltage
	2	v(drain)	voltage
	3	v(gate)	voltage
	4	v(source)	voltage
	5	v(body)	voltage
	6	i(i(vd))	current
	7	i(i(vg))	current
	8	i(i(vs))	current
	9	i(i(vb))	current
Values:
 0	3.000000000000000e+01
	1.000000000000000e+00
	1.200000000000000e+00
	1.000000000000000e+00
	0.000000000000000e+00
	0.000000000000000e+00
	-6.976544829322967e-04
	-1.170849961429354e-07
	6.977679057963354e-04
	3.662131886341498e-09

 1	1.000000000000000e+02
	1.000000000000000e+00
	1.200000000000000e+00
	1.000000000000000e+00
	0.000000000000000e+00
	0.000000000000000e+00
	-7.000012587606171e-04
	-1.278006559468636e-07
	7.001189685123566e-04
	1.009090412483452e-08

Title: *nmos on - w8
Date: Tue Feb 15 20:20:49  2022
Plotname: DC transfer characteristic
Flags: real
No. Variables: 10
No. Points: 2
Variables:
	0	temp-sweep	temp-sweep
	1	abs(v(alim))	voltage
	2	v(drain)	voltage
	3	v(gate)	voltage
	4	v(source)	voltage
	5	v(body)	voltage
	6	i(i(vd))	current
	7	i(i(vg))	current
	8	i(i(vs))	current
	9	i(i(vb))	current
Values:
 0	3.000000000000000e+01
	1.050000000000000e+00
	1.200000000000000e+00
	1.050000000000000e+00
	0.000000000000000e+00
	0.000000000000000e+00
	-7.406231261905632e-04
	-1.465046414184101e-07
	7.407614040076955e-04
	8.226824326825375e-09

 1	1.000000000000000e+02
	1.050000000000000e+00
	1.200000000000000e+00
	1.050000000000000e+00
	0.000000000000000e+00
	0.000000000000000e+00
	-7.409916350632966e-04
	-1.632413614283124e-07
	7.411351864994774e-04
	1.968992520005612e-08

Title: *nmos on - w8
Date: Tue Feb 15 20:20:49  2022
Plotname: DC transfer characteristic
Flags: real
No. Variables: 10
No. Points: 2
Variables:
	0	temp-sweep	temp-sweep
	1	abs(v(alim))	voltage
	2	v(drain)	voltage
	3	v(gate)	voltage
	4	v(source)	voltage
	5	v(body)	voltage
	6	i(i(vd))	current
	7	i(i(vg))	current
	8	i(i(vs))	current
	9	i(i(vb))	current
Values:
 0	3.000000000000000e+01
	1.100000000000000e+00
	1.200000000000000e+00
	1.100000000000000e+00
	0.000000000000000e+00
	0.000000000000000e+00
	-7.829331880044559e-04
	-1.853686086850104e-07
	7.831007640207953e-04
	1.779259235806014e-08

 1	1.000000000000000e+02
	1.100000000000000e+00
	1.200000000000000e+00
	1.100000000000000e+00
	0.000000000000000e+00
	0.000000000000000e+00
	-7.813101145007442e-04
	-2.110798454912910e-07
	7.814841293303529e-04
	3.706501603753405e-08

Title: *nmos on - w8
Date: Tue Feb 15 20:20:49  2022
Plotname: DC transfer characteristic
Flags: real
No. Variables: 10
No. Points: 2
Variables:
	0	temp-sweep	temp-sweep
	1	abs(v(alim))	voltage
	2	v(drain)	voltage
	3	v(gate)	voltage
	4	v(source)	voltage
	5	v(body)	voltage
	6	i(i(vd))	current
	7	i(i(vg))	current
	8	i(i(vs))	current
	9	i(i(vb))	current
Values:
 0	3.000000000000000e+01
	1.150000000000000e+00
	1.200000000000000e+00
	1.150000000000000e+00
	0.000000000000000e+00
	0.000000000000000e+00
	-8.245792397450068e-04
	-2.385030906104646e-07
	8.247812494154192e-04
	3.649342026082778e-08

 1	1.000000000000000e+02
	1.150000000000000e+00
	1.200000000000000e+00
	1.150000000000000e+00
	0.000000000000000e+00
	0.000000000000000e+00
	-8.209536320606435e-04
	-2.766817196464544e-07
	8.211634518197240e-04
	6.686196056372358e-08

Title: *nmos on - w8
Date: Tue Feb 15 20:20:49  2022
Plotname: DC transfer characteristic
Flags: real
No. Variables: 10
No. Points: 2
Variables:
	0	temp-sweep	temp-sweep
	1	abs(v(alim))	voltage
	2	v(drain)	voltage
	3	v(gate)	voltage
	4	v(source)	voltage
	5	v(body)	voltage
	6	i(i(vd))	current
	7	i(i(vg))	current
	8	i(i(vs))	current
	9	i(i(vb))	current
Values:
 0	3.000000000000000e+01
	1.200000000000000e+00
	1.200000000000000e+00
	1.200000000000000e+00
	0.000000000000000e+00
	0.000000000000000e+00
	-8.655541292470874e-04
	-3.125025619388211e-07
	8.657964885571910e-04
	7.014325190754440e-08

 1	1.000000000000000e+02
	1.200000000000000e+00
	1.200000000000000e+00
	1.200000000000000e+00
	0.000000000000000e+00
	0.000000000000000e+00
	-8.599159939492459e-04
	-3.669615178392149e-07
	8.601677723088680e-04
	1.151831582909025e-07

