 temp-sweep      abs(v(alim))    v(drain)        v(gate)         temp-sweep      v(source)       v(body)         i(vd)           temp-sweep      i(vg)           i(vs)           i(vb)
 3.00000000e+01  5.00000000e-02  3.00000000e+01  1.20000000e+00  3.00000000e+01  5.00000000e-02  3.00000000e+01  0.00000000e+00  3.00000000e+01  0.00000000e+00  3.00000000e+01 -4.30597365e-07  3.00000000e+01  2.21307637e-08  3.00000000e+01  4.07597011e-07  3.00000000e+01  8.69589991e-10 
 1.00000000e+02  5.00000000e-02  1.00000000e+02  1.20000000e+00  1.00000000e+02  5.00000000e-02  1.00000000e+02  0.00000000e+00  1.00000000e+02  0.00000000e+00  1.00000000e+02 -1.42736053e-06  1.00000000e+02  2.21307515e-08  1.00000000e+02  1.40434385e-06  1.00000000e+02  8.85920564e-10 
 3.00000000e+01  1.00000000e-01  3.00000000e+01  1.20000000e+00  3.00000000e+01  1.00000000e-01  3.00000000e+01  0.00000000e+00  3.00000000e+01  0.00000000e+00  3.00000000e+01 -1.39181273e-06  3.00000000e+01  1.80973506e-08  3.00000000e+01  1.37363401e-06  3.00000000e+01  8.13664804e-11 
 1.00000000e+02  1.00000000e-01  1.00000000e+02  1.20000000e+00  1.00000000e+02  1.00000000e-01  1.00000000e+02  0.00000000e+00  1.00000000e+02  0.00000000e+00  1.00000000e+02 -3.69786406e-06  1.00000000e+02  1.80972872e-08  1.00000000e+02  3.67965365e-06  1.00000000e+02  1.13130478e-10 
 3.00000000e+01  1.50000000e-01  3.00000000e+01  1.20000000e+00  3.00000000e+01  1.50000000e-01  3.00000000e+01  0.00000000e+00  3.00000000e+01  0.00000000e+00  3.00000000e+01 -4.23171691e-06  3.00000000e+01  1.46302507e-08  3.00000000e+01  4.21699606e-06  3.00000000e+01  9.05982147e-11 
 1.00000000e+02  1.50000000e-01  1.00000000e+02  1.20000000e+00  1.00000000e+02  1.50000000e-01  1.00000000e+02  0.00000000e+00  1.00000000e+02  0.00000000e+00  1.00000000e+02 -9.03198227e-06  1.00000000e+02  1.46299017e-08  1.00000000e+02  9.01721765e-06  1.00000000e+02  1.34715129e-10 
 3.00000000e+01  2.00000000e-01  3.00000000e+01  1.20000000e+00  3.00000000e+01  2.00000000e-01  3.00000000e+01  0.00000000e+00  3.00000000e+01  0.00000000e+00  3.00000000e+01 -1.15459815e-05  3.00000000e+01  1.16279973e-08  3.00000000e+01  1.15341513e-05  3.00000000e+01  2.02181803e-10 
 1.00000000e+02  2.00000000e-01  1.00000000e+02  1.20000000e+00  1.00000000e+02  2.00000000e-01  1.00000000e+02  0.00000000e+00  1.00000000e+02  0.00000000e+00  1.00000000e+02 -2.02478236e-05  1.00000000e+02  1.16260896e-08  1.00000000e+02  2.02359703e-05  1.00000000e+02  2.27236393e-10 
 3.00000000e+01  2.50000000e-01  3.00000000e+01  1.20000000e+00  3.00000000e+01  2.50000000e-01  3.00000000e+01  0.00000000e+00  3.00000000e+01  0.00000000e+00  3.00000000e+01 -2.72795970e-05  3.00000000e+01  8.99453964e-09  3.00000000e+01  2.72702645e-05  3.00000000e+01  3.37994408e-10 
 1.00000000e+02  2.50000000e-01  1.00000000e+02  1.20000000e+00  1.00000000e+02  2.50000000e-01  1.00000000e+02  0.00000000e+00  1.00000000e+02  0.00000000e+00  1.00000000e+02 -4.04877620e-05  1.00000000e+02  8.98514202e-09  1.00000000e+02  4.04784820e-05  1.00000000e+02  2.94936049e-10 
 3.00000000e+01  3.00000000e-01  3.00000000e+01  1.20000000e+00  3.00000000e+01  3.00000000e-01  3.00000000e+01  0.00000000e+00  3.00000000e+01  0.00000000e+00  3.00000000e+01 -5.43300512e-05  3.00000000e+01  6.61136945e-09  3.00000000e+01  5.43230352e-05  3.00000000e+01  4.04597619e-10 
 1.00000000e+02  3.00000000e-01  1.00000000e+02  1.20000000e+00  1.00000000e+02  3.00000000e-01  1.00000000e+02  0.00000000e+00  1.00000000e+02  0.00000000e+00  1.00000000e+02 -7.10702005e-05  1.00000000e+02  6.57598842e-09  1.00000000e+02  7.10633357e-05  1.00000000e+02  2.88890220e-10 
 3.00000000e+01  3.50000000e-01  3.00000000e+01  1.20000000e+00  3.00000000e+01  3.50000000e-01  3.00000000e+01  0.00000000e+00  3.00000000e+01  0.00000000e+00  3.00000000e+01 -9.18116521e-05  3.00000000e+01  4.23176202e-09  3.00000000e+01  9.18070613e-05  3.00000000e+01  3.58943755e-10 
 1.00000000e+02  3.50000000e-01  1.00000000e+02  1.20000000e+00  1.00000000e+02  3.50000000e-01  1.00000000e+02  0.00000000e+00  1.00000000e+02  0.00000000e+00  1.00000000e+02 -1.10384714e-04  1.00000000e+02  4.15980556e-09  1.00000000e+02  1.10380333e-04  1.00000000e+02  2.20972643e-10 
 3.00000000e+01  4.00000000e-01  3.00000000e+01  1.20000000e+00  3.00000000e+01  4.00000000e-01  3.00000000e+01  0.00000000e+00  3.00000000e+01  0.00000000e+00  3.00000000e+01 -1.36144227e-04  3.00000000e+01  1.52530269e-09  3.00000000e+01  1.36142449e-04  3.00000000e+01  2.53237088e-10 
 1.00000000e+02  4.00000000e-01  1.00000000e+02  1.20000000e+00  1.00000000e+02  4.00000000e-01  1.00000000e+02  0.00000000e+00  1.00000000e+02  0.00000000e+00  1.00000000e+02 -1.55261821e-04  1.00000000e+02  1.43951082e-09  1.00000000e+02  1.55260242e-04  1.00000000e+02  1.39559929e-10 
 3.00000000e+01  4.50000000e-01  3.00000000e+01  1.20000000e+00  3.00000000e+01  4.50000000e-01  3.00000000e+01  0.00000000e+00  3.00000000e+01  0.00000000e+00  3.00000000e+01 -1.83864135e-04  3.00000000e+01 -1.60610908e-09  3.00000000e+01  1.83865590e-04  3.00000000e+01  1.51506854e-10 
 1.00000000e+02  4.50000000e-01  1.00000000e+02  1.20000000e+00  1.00000000e+02  4.50000000e-01  1.00000000e+02  0.00000000e+00  1.00000000e+02  0.00000000e+00  1.00000000e+02 -2.02815264e-04  1.00000000e+02 -1.72873052e-09  1.00000000e+02  2.02816915e-04  1.00000000e+02  7.73466286e-11 
 3.00000000e+01  5.00000000e-01  3.00000000e+01  1.20000000e+00  3.00000000e+01  5.00000000e-01  3.00000000e+01  0.00000000e+00  3.00000000e+01  0.00000000e+00  3.00000000e+01 -2.32794534e-04  3.00000000e+01 -5.22917332e-09  3.00000000e+01  2.32799682e-04  3.00000000e+01  8.04121651e-11 
 1.00000000e+02  5.00000000e-01  1.00000000e+02  1.20000000e+00  1.00000000e+02  5.00000000e-01  1.00000000e+02  0.00000000e+00  1.00000000e+02  0.00000000e+00  1.00000000e+02 -2.51168823e-04  1.00000000e+02 -5.43346973e-09  1.00000000e+02  2.51174215e-04  1.00000000e+02  4.14006470e-11 
 3.00000000e+01  5.50000000e-01  3.00000000e+01  1.20000000e+00  3.00000000e+01  5.50000000e-01  3.00000000e+01  0.00000000e+00  3.00000000e+01  0.00000000e+00  3.00000000e+01 -2.81841974e-04  3.00000000e+01 -9.48234091e-09  3.00000000e+01  2.81851417e-04  3.00000000e+01  3.94692599e-11 
 1.00000000e+02  5.50000000e-01  1.00000000e+02  1.20000000e+00  1.00000000e+02  5.50000000e-01  1.00000000e+02  0.00000000e+00  1.00000000e+02  0.00000000e+00  1.00000000e+02 -2.99335360e-04  1.00000000e+02 -9.81261250e-09  1.00000000e+02  2.99345145e-04  1.00000000e+02  2.75002285e-11 
 3.00000000e+01  6.00000000e-01  3.00000000e+01  1.20000000e+00  3.00000000e+01  6.00000000e-01  3.00000000e+01  0.00000000e+00  3.00000000e+01  0.00000000e+00  3.00000000e+01 -3.30526761e-04  3.00000000e+01 -1.45389563e-08  3.00000000e+01  3.30541279e-04  3.00000000e+01  2.00230314e-11 
 1.00000000e+02  6.00000000e-01  1.00000000e+02  1.20000000e+00  1.00000000e+02  6.00000000e-01  1.00000000e+02  0.00000000e+00  1.00000000e+02  0.00000000e+00  1.00000000e+02 -3.46879669e-04  1.00000000e+02 -1.50441424e-08  1.00000000e+02  3.46894681e-04  1.00000000e+02  3.21837457e-11 
 3.00000000e+01  6.50000000e-01  3.00000000e+01  1.20000000e+00  3.00000000e+01  6.50000000e-01  3.00000000e+01  0.00000000e+00  3.00000000e+01  0.00000000e+00  3.00000000e+01 -3.78658674e-04  3.00000000e+01 -2.05963881e-08  3.00000000e+01  3.78679255e-04  3.00000000e+01  1.50893901e-11 
 1.00000000e+02  6.50000000e-01  1.00000000e+02  1.20000000e+00  1.00000000e+02  6.50000000e-01  1.00000000e+02  0.00000000e+00  1.00000000e+02  0.00000000e+00  1.00000000e+02 -3.93650175e-04  1.00000000e+02 -2.13374419e-08  1.00000000e+02  3.93671453e-04  1.00000000e+02  5.89224897e-11 
 3.00000000e+01  7.00000000e-01  3.00000000e+01  1.20000000e+00  3.00000000e+01  7.00000000e-01  3.00000000e+01  0.00000000e+00  3.00000000e+01  0.00000000e+00  3.00000000e+01 -4.26169585e-04  3.00000000e+01 -2.78784026e-08  3.00000000e+01  4.26197441e-04  3.00000000e+01  2.31354157e-11 
 1.00000000e+02  7.00000000e-01  1.00000000e+02  1.20000000e+00  1.00000000e+02  7.00000000e-01  1.00000000e+02  0.00000000e+00  1.00000000e+02  0.00000000e+00  1.00000000e+02 -4.39620940e-04  1.00000000e+02 -2.89377936e-08  1.00000000e+02  4.39649753e-04  1.00000000e+02  1.25073067e-10 
 3.00000000e+01  7.50000000e-01  3.00000000e+01  1.20000000e+00  3.00000000e+01  7.50000000e-01  3.00000000e+01  0.00000000e+00  3.00000000e+01  0.00000000e+00  3.00000000e+01 -4.73038251e-04  3.00000000e+01 -3.66421811e-08  3.00000000e+01  4.73074840e-04  3.00000000e+01  5.26031719e-11 
 1.00000000e+02  7.50000000e-01  1.00000000e+02  1.20000000e+00  1.00000000e+02  7.50000000e-01  1.00000000e+02  0.00000000e+00  1.00000000e+02  0.00000000e+00  1.00000000e+02 -4.84812186e-04  1.00000000e+02 -3.81402185e-08  1.00000000e+02  4.84850060e-04  1.00000000e+02  2.65741899e-10 
 3.00000000e+01  8.00000000e-01  3.00000000e+01  1.20000000e+00  3.00000000e+01  8.00000000e-01  3.00000000e+01  0.00000000e+00  3.00000000e+01  0.00000000e+00  3.00000000e+01 -5.19259454e-04  3.00000000e+01 -4.71906417e-08  3.00000000e+01  5.19306522e-04  3.00000000e+01  1.22776969e-10 
 1.00000000e+02  8.00000000e-01  1.00000000e+02  1.20000000e+00  1.00000000e+02  8.00000000e-01  1.00000000e+02  0.00000000e+00  1.00000000e+02  0.00000000e+00  1.00000000e+02 -5.29254896e-04  1.00000000e+02 -4.93155912e-08  1.00000000e+02  5.29303649e-04  1.00000000e+02  5.62301952e-10 
 3.00000000e+01  8.50000000e-01  3.00000000e+01  1.20000000e+00  3.00000000e+01  8.50000000e-01  3.00000000e+01  0.00000000e+00  3.00000000e+01  0.00000000e+00  3.00000000e+01 -5.64832386e-04  3.00000000e+01 -5.98956890e-08  3.00000000e+01  5.64891992e-04  3.00000000e+01  2.89183276e-10 
 1.00000000e+02  8.50000000e-01  1.00000000e+02  1.20000000e+00  1.00000000e+02  8.50000000e-01  1.00000000e+02  0.00000000e+00  1.00000000e+02  0.00000000e+00  1.00000000e+02 -5.72977179e-04  1.00000000e+02 -6.29586369e-08  1.00000000e+02  5.73038956e-04  1.00000000e+02  1.18119044e-09 
 3.00000000e+01  9.00000000e-01  3.00000000e+01  1.20000000e+00  3.00000000e+01  9.00000000e-01  3.00000000e+01  0.00000000e+00  3.00000000e+01  0.00000000e+00  3.00000000e+01 -6.09756698e-04  3.00000000e+01 -7.52452636e-08  3.00000000e+01  6.09831263e-04  3.00000000e+01  6.80731905e-10 
 1.00000000e+02  9.00000000e-01  1.00000000e+02  1.20000000e+00  1.00000000e+02  9.00000000e-01  1.00000000e+02  0.00000000e+00  1.00000000e+02  0.00000000e+00  1.00000000e+02 -6.16000349e-04  1.00000000e+02 -7.97751320e-08  1.00000000e+02  6.16077669e-04  1.00000000e+02  2.45530773e-09 
 3.00000000e+01  9.50000000e-01  3.00000000e+01  1.20000000e+00  3.00000000e+01  9.50000000e-01  3.00000000e+01  0.00000000e+00  3.00000000e+01  0.00000000e+00  3.00000000e+01 -6.54031374e-04  3.00000000e+01 -9.39403575e-08  3.00000000e+01  6.54123724e-04  3.00000000e+01  1.59055668e-09 
 1.00000000e+02  9.50000000e-01  1.00000000e+02  1.20000000e+00  1.00000000e+02  9.50000000e-01  1.00000000e+02  0.00000000e+00  1.00000000e+02  0.00000000e+00  1.00000000e+02 -6.58338834e-04  1.00000000e+02 -1.00833309e-07  1.00000000e+02  6.58434638e-04  1.00000000e+02  5.02903227e-09 
 3.00000000e+01  1.00000000e+00  3.00000000e+01  1.20000000e+00  3.00000000e+01  1.00000000e+00  3.00000000e+01  0.00000000e+00  3.00000000e+01  0.00000000e+00  3.00000000e+01 -6.97654483e-04  3.00000000e+01 -1.17084996e-07  3.00000000e+01  6.97767906e-04  3.00000000e+01  3.66213189e-09 
 1.00000000e+02  1.00000000e+00  1.00000000e+02  1.20000000e+00  1.00000000e+02  1.00000000e+00  1.00000000e+02  0.00000000e+00  1.00000000e+02  0.00000000e+00  1.00000000e+02 -7.00001259e-04  1.00000000e+02 -1.27800656e-07  1.00000000e+02  7.00118969e-04  1.00000000e+02  1.00909041e-08 
 3.00000000e+01  1.05000000e+00  3.00000000e+01  1.20000000e+00  3.00000000e+01  1.05000000e+00  3.00000000e+01  0.00000000e+00  3.00000000e+01  0.00000000e+00  3.00000000e+01 -7.40623126e-04  3.00000000e+01 -1.46504641e-07  3.00000000e+01  7.40761404e-04  3.00000000e+01  8.22682433e-09 
 1.00000000e+02  1.05000000e+00  1.00000000e+02  1.20000000e+00  1.00000000e+02  1.05000000e+00  1.00000000e+02  0.00000000e+00  1.00000000e+02  0.00000000e+00  1.00000000e+02 -7.40991635e-04  1.00000000e+02 -1.63241361e-07  1.00000000e+02  7.41135186e-04  1.00000000e+02  1.96899252e-08 
 3.00000000e+01  1.10000000e+00  3.00000000e+01  1.20000000e+00  3.00000000e+01  1.10000000e+00  3.00000000e+01  0.00000000e+00  3.00000000e+01  0.00000000e+00  3.00000000e+01 -7.82933188e-04  3.00000000e+01 -1.85368609e-07  3.00000000e+01  7.83100764e-04  3.00000000e+01  1.77925924e-08 
 1.00000000e+02  1.10000000e+00  1.00000000e+02  1.20000000e+00  1.00000000e+02  1.10000000e+00  1.00000000e+02  0.00000000e+00  1.00000000e+02  0.00000000e+00  1.00000000e+02 -7.81310115e-04  1.00000000e+02 -2.11079845e-07  1.00000000e+02  7.81484129e-04  1.00000000e+02  3.70650160e-08 
 3.00000000e+01  1.15000000e+00  3.00000000e+01  1.20000000e+00  3.00000000e+01  1.15000000e+00  3.00000000e+01  0.00000000e+00  3.00000000e+01  0.00000000e+00  3.00000000e+01 -8.24579240e-04  3.00000000e+01 -2.38503091e-07  3.00000000e+01  8.24781249e-04  3.00000000e+01  3.64934203e-08 
 1.00000000e+02  1.15000000e+00  1.00000000e+02  1.20000000e+00  1.00000000e+02  1.15000000e+00  1.00000000e+02  0.00000000e+00  1.00000000e+02  0.00000000e+00  1.00000000e+02 -8.20953632e-04  1.00000000e+02 -2.76681720e-07  1.00000000e+02  8.21163452e-04  1.00000000e+02  6.68619606e-08 
 3.00000000e+01  1.20000000e+00  3.00000000e+01  1.20000000e+00  3.00000000e+01  1.20000000e+00  3.00000000e+01  0.00000000e+00  3.00000000e+01  0.00000000e+00  3.00000000e+01 -8.65554129e-04  3.00000000e+01 -3.12502562e-07  3.00000000e+01  8.65796489e-04  3.00000000e+01  7.01432519e-08 
 1.00000000e+02  1.20000000e+00  1.00000000e+02  1.20000000e+00  1.00000000e+02  1.20000000e+00  1.00000000e+02  0.00000000e+00  1.00000000e+02  0.00000000e+00  1.00000000e+02 -8.59915994e-04  1.00000000e+02 -3.66961518e-07  1.00000000e+02  8.60167772e-04  1.00000000e+02  1.15183158e-07 
