  temp-sweep      abs(v(alim))    v(drain)        v(gate)         temp-sweep      v(source)       v(body)         i(vd)           temp-sweep      i(vg)           i(vs)           i(vb)
 3.00000000e+01  5.00000000e-02  3.00000000e+01  0.00000000e+00  3.00000000e+01  5.00000000e-02  3.00000000e+01  0.00000000e+00  3.00000000e+01  0.00000000e+00  3.00000000e+01  3.57823469e-12  3.00000000e+01 -7.15649762e-12  3.00000000e+01  3.57823469e-12  3.00000000e+01  4.36827565e-17 
 1.00000000e+02  5.00000000e-02  1.00000000e+02  0.00000000e+00  1.00000000e+02  5.00000000e-02  1.00000000e+02  0.00000000e+00  1.00000000e+02  0.00000000e+00  1.00000000e+02  3.57864907e-12  1.00000000e+02 -7.15782988e-12  1.00000000e+02  3.57864907e-12  1.00000000e+02  5.33820285e-16 
 3.00000000e+01  1.00000000e-01  3.00000000e+01  0.00000000e+00  3.00000000e+01  1.00000000e-01  3.00000000e+01  0.00000000e+00  3.00000000e+01  0.00000000e+00  3.00000000e+01  4.42332478e-12  3.00000000e+01 -8.84670115e-12  3.00000000e+01  4.42332478e-12  3.00000000e+01  7.99334782e-17 
 1.00000000e+02  1.00000000e-01  1.00000000e+02  0.00000000e+00  1.00000000e+02  1.00000000e-01  1.00000000e+02  0.00000000e+00  1.00000000e+02  0.00000000e+00  1.00000000e+02  4.42350484e-12  1.00000000e+02 -8.84803342e-12  1.00000000e+02  4.42350484e-12  1.00000000e+02  9.89434080e-16 
 3.00000000e+01  1.50000000e-01  3.00000000e+01  0.00000000e+00  3.00000000e+01  1.50000000e-01  3.00000000e+01  0.00000000e+00  3.00000000e+01  0.00000000e+00  3.00000000e+01  3.04653353e-12  3.00000000e+01 -6.09334805e-12  3.00000000e+01  3.04653353e-12  3.00000000e+01  1.09462932e-16 
 1.00000000e+02  1.50000000e-01  1.00000000e+02  0.00000000e+00  1.00000000e+02  1.50000000e-01  1.00000000e+02  0.00000000e+00  1.00000000e+02  0.00000000e+00  1.00000000e+02  3.04659154e-12  1.00000000e+02 -6.09468032e-12  1.00000000e+02  3.04659154e-12  1.00000000e+02  1.37458156e-15 
 3.00000000e+01  2.00000000e-01  3.00000000e+01  0.00000000e+00  3.00000000e+01  2.00000000e-01  3.00000000e+01  0.00000000e+00  3.00000000e+01  0.00000000e+00  3.00000000e+01  8.56817883e-13  3.00000000e+01 -1.71418435e-12  3.00000000e+01  8.56817883e-13  3.00000000e+01  1.32904051e-16 
 1.00000000e+02  2.00000000e-01  1.00000000e+02  0.00000000e+00  1.00000000e+02  2.00000000e-01  1.00000000e+02  0.00000000e+00  1.00000000e+02  0.00000000e+00  1.00000000e+02  8.56834364e-13  1.00000000e+02 -1.71596071e-12  1.00000000e+02  8.56834364e-13  1.00000000e+02  1.69475834e-15 
 3.00000000e+01  2.50000000e-01  3.00000000e+01  0.00000000e+00  3.00000000e+01  2.50000000e-01  3.00000000e+01  0.00000000e+00  3.00000000e+01  0.00000000e+00  3.00000000e+01  5.84208028e-12  3.00000000e+01 -1.16848753e-11  3.00000000e+01  5.84208028e-12  3.00000000e+01  1.50895823e-16 
 1.00000000e+02  2.50000000e-01  1.00000000e+02  0.00000000e+00  1.00000000e+02  2.50000000e-01  1.00000000e+02  0.00000000e+00  1.00000000e+02  0.00000000e+00  1.00000000e+02  5.84208464e-12  1.00000000e+02 -1.16866516e-11  1.00000000e+02  5.84208464e-12  1.00000000e+02  1.95609685e-15 
 3.00000000e+01  3.00000000e-01  3.00000000e+01  0.00000000e+00  3.00000000e+01  3.00000000e-01  3.00000000e+01  0.00000000e+00  3.00000000e+01  0.00000000e+00  3.00000000e+01  1.43269780e-11  3.00000000e+01 -2.86535240e-11  3.00000000e+01  1.43269780e-11  3.00000000e+01  1.64372744e-16 
 1.00000000e+02  3.00000000e-01  1.00000000e+02  0.00000000e+00  1.00000000e+02  3.00000000e-01  1.00000000e+02  0.00000000e+00  1.00000000e+02  0.00000000e+00  1.00000000e+02  1.43269791e-11  1.00000000e+02 -2.86561885e-11  1.00000000e+02  1.43269791e-11  1.00000000e+02  2.17058941e-15 
 3.00000000e+01  3.50000000e-01  3.00000000e+01  0.00000000e+00  3.00000000e+01  3.50000000e-01  3.00000000e+01  0.00000000e+00  3.00000000e+01  0.00000000e+00  3.00000000e+01  2.64476291e-11  3.00000000e+01 -5.28963540e-11  3.00000000e+01  2.64476291e-11  3.00000000e+01  1.76789426e-16 
 1.00000000e+02  3.50000000e-01  1.00000000e+02  0.00000000e+00  1.00000000e+02  3.50000000e-01  1.00000000e+02  0.00000000e+00  1.00000000e+02  0.00000000e+00  1.00000000e+02  2.64476294e-11  1.00000000e+02 -5.28981303e-11  1.00000000e+02  2.64476294e-11  1.00000000e+02  2.38266968e-15 
 3.00000000e+01  4.00000000e-01  3.00000000e+01  0.00000000e+00  3.00000000e+01  4.00000000e-01  3.00000000e+01  0.00000000e+00  3.00000000e+01  0.00000000e+00  3.00000000e+01  4.28195363e-11  3.00000000e+01 -8.56399396e-11  3.00000000e+01  4.28195363e-11  3.00000000e+01  2.11217153e-16 
 1.00000000e+02  4.00000000e-01  1.00000000e+02  0.00000000e+00  1.00000000e+02  4.00000000e-01  1.00000000e+02  0.00000000e+00  1.00000000e+02  0.00000000e+00  1.00000000e+02  4.28195364e-11  1.00000000e+02 -8.56417159e-11  1.00000000e+02  4.28195364e-11  1.00000000e+02  2.81093970e-15 
 3.00000000e+01  4.50000000e-01  3.00000000e+01  0.00000000e+00  3.00000000e+01  4.50000000e-01  3.00000000e+01  0.00000000e+00  3.00000000e+01  0.00000000e+00  3.00000000e+01  6.41536266e-11  3.00000000e+01 -1.28308031e-10  3.00000000e+01  6.41536266e-11  3.00000000e+01  4.40281178e-16 
 1.00000000e+02  4.50000000e-01  1.00000000e+02  0.00000000e+00  1.00000000e+02  4.50000000e-01  1.00000000e+02  0.00000000e+00  1.00000000e+02  0.00000000e+00  1.00000000e+02  6.41536266e-11  1.00000000e+02 -1.28311584e-10  1.00000000e+02  6.41536266e-11  1.00000000e+02  4.59650950e-15 
 3.00000000e+01  5.00000000e-01  3.00000000e+01  0.00000000e+00  3.00000000e+01  5.00000000e-01  3.00000000e+01  0.00000000e+00  3.00000000e+01  0.00000000e+00  3.00000000e+01  9.12548153e-11  3.00000000e+01 -1.82513560e-10  3.00000000e+01  9.12548153e-11  3.00000000e+01  2.16521116e-15 
 1.00000000e+02  5.00000000e-01  1.00000000e+02  0.00000000e+00  1.00000000e+02  5.00000000e-01  1.00000000e+02  0.00000000e+00  1.00000000e+02  0.00000000e+00  1.00000000e+02  9.12548153e-11  1.00000000e+02 -1.82524218e-10  1.00000000e+02  9.12548153e-11  1.00000000e+02  1.37230250e-14 
 3.00000000e+01  5.50000000e-01  3.00000000e+01  0.00000000e+00  3.00000000e+01  5.50000000e-01  3.00000000e+01  0.00000000e+00  3.00000000e+01  0.00000000e+00  3.00000000e+01  1.25030553e-10  3.00000000e+01 -2.50075516e-10  3.00000000e+01  1.25030553e-10  3.00000000e+01  1.51455655e-14 
 1.00000000e+02  5.50000000e-01  1.00000000e+02  0.00000000e+00  1.00000000e+02  5.50000000e-01  1.00000000e+02  0.00000000e+00  1.00000000e+02  0.00000000e+00  1.00000000e+02  1.25030553e-10  1.00000000e+02 -2.50121701e-10  1.00000000e+02  1.25030553e-10  1.00000000e+02  6.14305858e-14 
 3.00000000e+01  6.00000000e-01  3.00000000e+01  0.00000000e+00  3.00000000e+01  6.00000000e-01  3.00000000e+01  0.00000000e+00  3.00000000e+01  0.00000000e+00  3.00000000e+01  1.66501632e-10  3.00000000e+01 -3.33113093e-10  3.00000000e+01  1.66501632e-10  3.00000000e+01  1.12231762e-13 
 1.00000000e+02  6.00000000e-01  1.00000000e+02  0.00000000e+00  1.00000000e+02  6.00000000e-01  1.00000000e+02  0.00000000e+00  1.00000000e+02  0.00000000e+00  1.00000000e+02  1.66501632e-10  1.00000000e+02 -3.33312045e-10  1.00000000e+02  1.66501632e-10  1.00000000e+02  3.10085195e-13 
 3.00000000e+01  6.50000000e-01  3.00000000e+01  0.00000000e+00  3.00000000e+01  6.50000000e-01  3.00000000e+01  0.00000000e+00  3.00000000e+01  0.00000000e+00  3.00000000e+01  2.16814423e-10  3.00000000e+01 -4.34463132e-10  3.00000000e+01  2.16814423e-10  3.00000000e+01  8.35484972e-13 
 1.00000000e+02  6.50000000e-01  1.00000000e+02  0.00000000e+00  1.00000000e+02  6.50000000e-01  1.00000000e+02  0.00000000e+00  1.00000000e+02  0.00000000e+00  1.00000000e+02  2.16814423e-10  1.00000000e+02 -4.35230518e-10  1.00000000e+02  2.16814423e-10  1.00000000e+02  1.60074285e-12 
 3.00000000e+01  7.00000000e-01  3.00000000e+01  0.00000000e+00  3.00000000e+01  7.00000000e-01  3.00000000e+01  0.00000000e+00  3.00000000e+01  0.00000000e+00  3.00000000e+01  2.77254430e-10  3.00000000e+01 -5.60717694e-10  3.00000000e+01  2.77254430e-10  3.00000000e+01  6.20842308e-12 
 1.00000000e+02  7.00000000e-01  1.00000000e+02  0.00000000e+00  1.00000000e+02  7.00000000e-01  1.00000000e+02  0.00000000e+00  1.00000000e+02  0.00000000e+00  1.00000000e+02  2.77254430e-10  1.00000000e+02 -5.62785374e-10  1.00000000e+02  2.77254430e-10  1.00000000e+02  8.27778095e-12 
 3.00000000e+01  7.50000000e-01  3.00000000e+01  0.00000000e+00  3.00000000e+01  7.50000000e-01  3.00000000e+01  0.00000000e+00  3.00000000e+01  0.00000000e+00  3.00000000e+01  3.49261260e-10  3.00000000e+01 -7.44361017e-10  3.00000000e+01  3.49261260e-10  3.00000000e+01  4.58371831e-11 
 1.00000000e+02  7.50000000e-01  1.00000000e+02  0.00000000e+00  1.00000000e+02  7.50000000e-01  1.00000000e+02  0.00000000e+00  1.00000000e+02  0.00000000e+00  1.00000000e+02  3.49261260e-10  1.00000000e+02 -7.41152917e-10  1.00000000e+02  3.49261260e-10  1.00000000e+02  4.26302251e-11 
 3.00000000e+01  8.00000000e-01  3.00000000e+01  0.00000000e+00  3.00000000e+01  8.00000000e-01  3.00000000e+01  0.00000000e+00  3.00000000e+01  0.00000000e+00  3.00000000e+01  4.34445094e-10  3.00000000e+01 -1.19368693e-09  3.00000000e+01  4.34445094e-10  3.00000000e+01  3.24798125e-10 
 1.00000000e+02  8.00000000e-01  1.00000000e+02  0.00000000e+00  1.00000000e+02  8.00000000e-01  1.00000000e+02  0.00000000e+00  1.00000000e+02  0.00000000e+00  1.00000000e+02  4.34445094e-10  1.00000000e+02 -1.08433440e-09  1.00000000e+02  4.34445094e-10  1.00000000e+02  2.15445247e-10 
 3.00000000e+01  8.50000000e-01  3.00000000e+01  0.00000000e+00  3.00000000e+01  8.50000000e-01  3.00000000e+01  0.00000000e+00  3.00000000e+01  0.00000000e+00  3.00000000e+01  5.34604804e-10  3.00000000e+01 -2.93155367e-09  3.00000000e+01  5.34604804e-10  3.00000000e+01  1.86234553e-09 
 1.00000000e+02  8.50000000e-01  1.00000000e+02  0.00000000e+00  1.00000000e+02  8.50000000e-01  1.00000000e+02  0.00000000e+00  1.00000000e+02  0.00000000e+00  1.00000000e+02  5.34604805e-10  1.00000000e+02 -2.07375805e-09  1.00000000e+02  5.34604805e-10  1.00000000e+02  1.00454608e-09 
 3.00000000e+01  9.00000000e-01  3.00000000e+01  0.00000000e+00  3.00000000e+01  9.00000000e-01  3.00000000e+01  0.00000000e+00  3.00000000e+01  0.00000000e+00  3.00000000e+01  6.51747870e-10  3.00000000e+01 -7.69647812e-09  3.00000000e+01  6.51747870e-10  3.00000000e+01  6.39297853e-09 
 1.00000000e+02  9.00000000e-01  1.00000000e+02  0.00000000e+00  1.00000000e+02  9.00000000e-01  1.00000000e+02  0.00000000e+00  1.00000000e+02  0.00000000e+00  1.00000000e+02  6.51747871e-10  1.00000000e+02 -4.98367925e-09  1.00000000e+02  6.51747871e-10  1.00000000e+02  3.68018299e-09 
 3.00000000e+01  9.50000000e-01  3.00000000e+01  0.00000000e+00  3.00000000e+01  9.50000000e-01  3.00000000e+01  0.00000000e+00  3.00000000e+01  0.00000000e+00  3.00000000e+01  7.88112257e-10  3.00000000e+01 -1.53221933e-08  3.00000000e+01  7.88112257e-10  3.00000000e+01  1.37459715e-08 
 1.00000000e+02  9.50000000e-01  1.00000000e+02  0.00000000e+00  1.00000000e+02  9.50000000e-01  1.00000000e+02  0.00000000e+00  1.00000000e+02  0.00000000e+00  1.00000000e+02  7.88112258e-10  1.00000000e+02 -1.08731264e-08  1.00000000e+02  7.88112258e-10  1.00000000e+02  9.29689881e-09 
 3.00000000e+01  1.00000000e+00  3.00000000e+01  0.00000000e+00  3.00000000e+01  1.00000000e+00  3.00000000e+01  0.00000000e+00  3.00000000e+01  0.00000000e+00  3.00000000e+01  9.46190445e-10  3.00000000e+01 -2.52108485e-08  3.00000000e+01  9.46190445e-10  3.00000000e+01  2.33184649e-08 
 1.00000000e+02  1.00000000e+00  1.00000000e+02  0.00000000e+00  1.00000000e+02  1.00000000e+00  1.00000000e+02  0.00000000e+00  1.00000000e+02  0.00000000e+00  1.00000000e+02  9.46190445e-10  1.00000000e+02 -1.94468619e-08  1.00000000e+02  9.46190445e-10  1.00000000e+02  1.75544832e-08 
 3.00000000e+01  1.05000000e+00  3.00000000e+01  0.00000000e+00  3.00000000e+01  1.05000000e+00  3.00000000e+01  0.00000000e+00  3.00000000e+01  0.00000000e+00  3.00000000e+01  1.12875580e-09  3.00000000e+01 -3.75272471e-08  3.00000000e+01  1.12875580e-09  3.00000000e+01  3.52697334e-08 
 1.00000000e+02  1.05000000e+00  1.00000000e+02  0.00000000e+00  1.00000000e+02  1.05000000e+00  1.00000000e+02  0.00000000e+00  1.00000000e+02  0.00000000e+00  1.00000000e+02  1.12875580e-09  1.00000000e+02 -3.04475591e-08  1.00000000e+02  1.12875580e-09  1.00000000e+02  2.81900450e-08 
 3.00000000e+01  1.10000000e+00  3.00000000e+01  0.00000000e+00  3.00000000e+01  1.10000000e+00  3.00000000e+01  0.00000000e+00  3.00000000e+01  0.00000000e+00  3.00000000e+01  1.33889151e-09  3.00000000e+01 -5.27341975e-08  3.00000000e+01  1.33889151e-09  3.00000000e+01  5.00564144e-08 
 1.00000000e+02  1.10000000e+00  1.00000000e+02  0.00000000e+00  1.00000000e+02  1.10000000e+00  1.00000000e+02  0.00000000e+00  1.00000000e+02  0.00000000e+00  1.00000000e+02  1.33889151e-09  1.00000000e+02 -4.41193215e-08  1.00000000e+02  1.33889151e-09  1.00000000e+02  4.14415429e-08 
 3.00000000e+01  1.15000000e+00  3.00000000e+01  0.00000000e+00  3.00000000e+01  1.15000000e+00  3.00000000e+01  0.00000000e+00  3.00000000e+01  0.00000000e+00  3.00000000e+01  1.58002235e-09  3.00000000e+01 -7.14068591e-08  3.00000000e+01  1.58002235e-09  3.00000000e+01  6.82468186e-08 
 1.00000000e+02  1.15000000e+00  1.00000000e+02  0.00000000e+00  1.00000000e+02  1.15000000e+00  1.00000000e+02  0.00000000e+00  1.00000000e+02  0.00000000e+00  1.00000000e+02  1.58002235e-09  1.00000000e+02 -6.09479827e-08  1.00000000e+02  1.58002235e-09  1.00000000e+02  5.77879357e-08 
 3.00000000e+01  1.20000000e+00  3.00000000e+01  0.00000000e+00  3.00000000e+01  1.20000000e+00  3.00000000e+01  0.00000000e+00  3.00000000e+01  0.00000000e+00  3.00000000e+01  1.85594947e-09  3.00000000e+01 -9.42088789e-08  3.00000000e+01  1.85594947e-09  3.00000000e+01  9.04969791e-08 
 1.00000000e+02  1.20000000e+00  1.00000000e+02  0.00000000e+00  1.00000000e+02  1.20000000e+00  1.00000000e+02  0.00000000e+00  1.00000000e+02  0.00000000e+00  1.00000000e+02  1.85594947e-09  1.00000000e+02 -8.15397740e-08  1.00000000e+02  1.85594947e-09  1.00000000e+02  7.78278728e-08 
