Title: *pmos off - w1
Date: Tue Feb 15 20:34:58  2022
Plotname: DC transfer characteristic
Flags: real
No. Variables: 10
No. Points: 2
Variables:
	0	temp-sweep	temp-sweep
	1	abs(v(alim))	voltage
	2	v(drain)	voltage
	3	v(gate)	voltage
	4	v(source)	voltage
	5	v(body)	voltage
	6	i(i(vd))	current
	7	i(i(vg))	current
	8	i(i(vs))	current
	9	i(i(vb))	current
Values:
 0	3.000000000000000e+01
	5.000000000000000e-02
	0.000000000000000e+00
	5.000000000000000e-02
	0.000000000000000e+00
	0.000000000000000e+00
	3.578234685790504e-12
	-7.156497616733759e-12
	3.578234685790504e-12
	4.368275650424967e-17

 1	1.000000000000000e+02
	5.000000000000000e-02
	0.000000000000000e+00
	5.000000000000000e-02
	0.000000000000000e+00
	0.000000000000000e+00
	3.578649074067582e-12
	-7.157829884363309e-12
	3.578649074067580e-12
	5.338202847761348e-16

Title: *pmos off - w1
Date: Tue Feb 15 20:34:58  2022
Plotname: DC transfer characteristic
Flags: real
No. Variables: 10
No. Points: 2
Variables:
	0	temp-sweep	temp-sweep
	1	abs(v(alim))	voltage
	2	v(drain)	voltage
	3	v(gate)	voltage
	4	v(source)	voltage
	5	v(body)	voltage
	6	i(i(vd))	current
	7	i(i(vg))	current
	8	i(i(vs))	current
	9	i(i(vb))	current
Values:
 0	3.000000000000000e+01
	1.000000000000000e-01
	0.000000000000000e+00
	1.000000000000000e-01
	0.000000000000000e+00
	0.000000000000000e+00
	4.423324779515722e-12
	-8.846701149423097e-12
	4.423324779515722e-12
	7.993347815110096e-17

 1	1.000000000000000e+02
	1.000000000000000e-01
	0.000000000000000e+00
	1.000000000000000e-01
	0.000000000000000e+00
	0.000000000000000e+00
	4.423504842994816e-12
	-8.848033417052648e-12
	4.423504842994812e-12
	9.894340801005230e-16

Title: *pmos off - w1
Date: Tue Feb 15 20:34:58  2022
Plotname: DC transfer characteristic
Flags: real
No. Variables: 10
No. Points: 2
Variables:
	0	temp-sweep	temp-sweep
	1	abs(v(alim))	voltage
	2	v(drain)	voltage
	3	v(gate)	voltage
	4	v(source)	voltage
	5	v(body)	voltage
	6	i(i(vd))	current
	7	i(i(vg))	current
	8	i(i(vs))	current
	9	i(i(vb))	current
Values:
 0	3.000000000000000e+01
	1.500000000000000e-01
	0.000000000000000e+00
	1.500000000000000e-01
	0.000000000000000e+00
	0.000000000000000e+00
	3.046533530695428e-12
	-6.093348048352709e-12
	3.046533530695428e-12
	1.094629320878640e-16

 1	1.000000000000000e+02
	1.500000000000000e-01
	0.000000000000000e+00
	1.500000000000000e-01
	0.000000000000000e+00
	0.000000000000000e+00
	3.046591536785307e-12
	-6.094680315982259e-12
	3.046591536785301e-12
	1.374581563354847e-15

Title: *pmos off - w1
Date: Tue Feb 15 20:34:58  2022
Plotname: DC transfer characteristic
Flags: real
No. Variables: 10
No. Points: 2
Variables:
	0	temp-sweep	temp-sweep
	1	abs(v(alim))	voltage
	2	v(drain)	voltage
	3	v(gate)	voltage
	4	v(source)	voltage
	5	v(body)	voltage
	6	i(i(vd))	current
	7	i(i(vg))	current
	8	i(i(vs))	current
	9	i(i(vb))	current
Values:
 0	3.000000000000000e+01
	2.000000000000000e-01
	0.000000000000000e+00
	2.000000000000000e-01
	0.000000000000000e+00
	0.000000000000000e+00
	8.568178834537519e-13
	-1.714184350021242e-12
	8.568178834537519e-13
	1.329040512337997e-16

 1	1.000000000000000e+02
	2.000000000000000e-01
	0.000000000000000e+00
	2.000000000000000e-01
	0.000000000000000e+00
	0.000000000000000e+00
	8.568343643382871e-13
	-1.715960706860642e-12
	8.568343643382818e-13
	1.694758342693348e-15

Title: *pmos off - w1
Date: Tue Feb 15 20:34:58  2022
Plotname: DC transfer characteristic
Flags: real
No. Variables: 10
No. Points: 2
Variables:
	0	temp-sweep	temp-sweep
	1	abs(v(alim))	voltage
	2	v(drain)	voltage
	3	v(gate)	voltage
	4	v(source)	voltage
	5	v(body)	voltage
	6	i(i(vd))	current
	7	i(i(vg))	current
	8	i(i(vs))	current
	9	i(i(vb))	current
Values:
 0	3.000000000000000e+01
	2.500000000000000e-01
	0.000000000000000e+00
	2.500000000000000e-01
	0.000000000000000e+00
	0.000000000000000e+00
	5.842080277749008e-12
	-1.168487528957485e-11
	5.842080277749005e-12
	1.508958230692006e-16

 1	1.000000000000000e+02
	2.500000000000000e-01
	0.000000000000000e+00
	2.500000000000000e-01
	0.000000000000000e+00
	0.000000000000000e+00
	5.842084644224104e-12
	-1.168665164641425e-11
	5.842084644224097e-12
	1.956096854792111e-15

Title: *pmos off - w1
Date: Tue Feb 15 20:34:58  2022
Plotname: DC transfer characteristic
Flags: real
No. Variables: 10
No. Points: 2
Variables:
	0	temp-sweep	temp-sweep
	1	abs(v(alim))	voltage
	2	v(drain)	voltage
	3	v(gate)	voltage
	4	v(source)	voltage
	5	v(body)	voltage
	6	i(i(vd))	current
	7	i(i(vg))	current
	8	i(i(vs))	current
	9	i(i(vb))	current
Values:
 0	3.000000000000000e+01
	3.000000000000000e-01
	0.000000000000000e+00
	3.000000000000000e-01
	0.000000000000000e+00
	0.000000000000000e+00
	1.432697796857952e-11
	-2.865352399794574e-11
	1.432697796857951e-11
	1.643727438371089e-16

 1	1.000000000000000e+02
	3.000000000000000e-01
	0.000000000000000e+00
	3.000000000000000e-01
	0.000000000000000e+00
	0.000000000000000e+00
	1.432697907501210e-11
	-2.865618853320484e-11
	1.432697907501208e-11
	2.170589411288465e-15

Title: *pmos off - w1
Date: Tue Feb 15 20:34:58  2022
Plotname: DC transfer characteristic
Flags: real
No. Variables: 10
No. Points: 2
Variables:
	0	temp-sweep	temp-sweep
	1	abs(v(alim))	voltage
	2	v(drain)	voltage
	3	v(gate)	voltage
	4	v(source)	voltage
	5	v(body)	voltage
	6	i(i(vd))	current
	7	i(i(vg))	current
	8	i(i(vs))	current
	9	i(i(vb))	current
Values:
 0	3.000000000000000e+01
	3.500000000000000e-01
	0.000000000000000e+00
	3.500000000000000e-01
	0.000000000000000e+00
	0.000000000000000e+00
	2.644762911273752e-11
	-5.289635396366066e-11
	2.644762911273752e-11
	1.767894258242377e-16

 1	1.000000000000000e+02
	3.500000000000000e-01
	0.000000000000000e+00
	3.500000000000000e-01
	0.000000000000000e+00
	0.000000000000000e+00
	2.644762938458465e-11
	-5.289813032050006e-11
	2.644762938458464e-11
	2.382669676280401e-15

Title: *pmos off - w1
Date: Tue Feb 15 20:34:58  2022
Plotname: DC transfer characteristic
Flags: real
No. Variables: 10
No. Points: 2
Variables:
	0	temp-sweep	temp-sweep
	1	abs(v(alim))	voltage
	2	v(drain)	voltage
	3	v(gate)	voltage
	4	v(source)	voltage
	5	v(body)	voltage
	6	i(i(vd))	current
	7	i(i(vg))	current
	8	i(i(vs))	current
	9	i(i(vb))	current
Values:
 0	3.000000000000000e+01
	4.000000000000000e-01
	0.000000000000000e+00
	4.000000000000000e-01
	0.000000000000000e+00
	0.000000000000000e+00
	4.281953632438250e-11
	-8.563993958432548e-11
	4.281953632438250e-11
	2.112171527561272e-16

 1	1.000000000000000e+02
	4.000000000000000e-01
	0.000000000000000e+00
	4.000000000000000e-01
	0.000000000000000e+00
	0.000000000000000e+00
	4.281953638968429e-11
	-8.564171594116488e-11
	4.281953638968430e-11
	2.810939695183861e-15

Title: *pmos off - w1
Date: Tue Feb 15 20:34:58  2022
Plotname: DC transfer characteristic
Flags: real
No. Variables: 10
No. Points: 2
Variables:
	0	temp-sweep	temp-sweep
	1	abs(v(alim))	voltage
	2	v(drain)	voltage
	3	v(gate)	voltage
	4	v(source)	voltage
	5	v(body)	voltage
	6	i(i(vd))	current
	7	i(i(vg))	current
	8	i(i(vs))	current
	9	i(i(vb))	current
Values:
 0	3.000000000000000e+01
	4.500000000000000e-01
	0.000000000000000e+00
	4.500000000000000e-01
	0.000000000000000e+00
	0.000000000000000e+00
	6.415362659309436e-11
	-1.283080308667195e-10
	6.415362659309436e-11
	4.402811784758368e-16

 1	1.000000000000000e+02
	4.500000000000000e-01
	0.000000000000000e+00
	4.500000000000000e-01
	0.000000000000000e+00
	0.000000000000000e+00
	6.415362660851326e-11
	-1.283115835803983e-10
	6.415362660851326e-11
	4.596509499055275e-15

Title: *pmos off - w1
Date: Tue Feb 15 20:34:58  2022
Plotname: DC transfer characteristic
Flags: real
No. Variables: 10
No. Points: 2
Variables:
	0	temp-sweep	temp-sweep
	1	abs(v(alim))	voltage
	2	v(drain)	voltage
	3	v(gate)	voltage
	4	v(source)	voltage
	5	v(body)	voltage
	6	i(i(vd))	current
	7	i(i(vg))	current
	8	i(i(vs))	current
	9	i(i(vb))	current
Values:
 0	3.000000000000000e+01
	4.999999999999999e-01
	0.000000000000000e+00
	4.999999999999999e-01
	0.000000000000000e+00
	0.000000000000000e+00
	9.125481532450088e-11
	-1.825135598210181e-10
	9.125481532450090e-11
	2.165211155176147e-15

 1	1.000000000000000e+02
	4.999999999999999e-01
	0.000000000000000e+00
	4.999999999999999e-01
	0.000000000000000e+00
	0.000000000000000e+00
	9.125481532809236e-11
	-1.825242179620545e-10
	9.125481532809234e-11
	1.372302495823179e-14

Title: *pmos off - w1
Date: Tue Feb 15 20:34:58  2022
Plotname: DC transfer characteristic
Flags: real
No. Variables: 10
No. Points: 2
Variables:
	0	temp-sweep	temp-sweep
	1	abs(v(alim))	voltage
	2	v(drain)	voltage
	3	v(gate)	voltage
	4	v(source)	voltage
	5	v(body)	voltage
	6	i(i(vd))	current
	7	i(i(vg))	current
	8	i(i(vs))	current
	9	i(i(vb))	current
Values:
 0	3.000000000000000e+01
	5.499999999999999e-01
	0.000000000000000e+00
	5.499999999999999e-01
	0.000000000000000e+00
	0.000000000000000e+00
	1.250305525472913e-10
	-2.500755158507673e-10
	1.250305525472913e-10
	1.514556545645278e-14

 1	1.000000000000000e+02
	5.499999999999999e-01
	0.000000000000000e+00
	5.499999999999999e-01
	0.000000000000000e+00
	0.000000000000000e+00
	1.250305525481175e-10
	-2.501217011285917e-10
	1.250305525481172e-10
	6.143058581648226e-14

Title: *pmos off - w1
Date: Tue Feb 15 20:34:58  2022
Plotname: DC transfer characteristic
Flags: real
No. Variables: 10
No. Points: 2
Variables:
	0	temp-sweep	temp-sweep
	1	abs(v(alim))	voltage
	2	v(drain)	voltage
	3	v(gate)	voltage
	4	v(source)	voltage
	5	v(body)	voltage
	6	i(i(vd))	current
	7	i(i(vg))	current
	8	i(i(vs))	current
	9	i(i(vb))	current
Values:
 0	3.000000000000000e+01
	6.000000000000000e-01
	0.000000000000000e+00
	6.000000000000000e-01
	0.000000000000000e+00
	0.000000000000000e+00
	1.665016323843263e-10
	-3.331130926653714e-10
	1.665016323843257e-10
	1.122317615681479e-13

 1	1.000000000000000e+02
	6.000000000000000e-01
	0.000000000000000e+00
	6.000000000000000e-01
	0.000000000000000e+00
	0.000000000000000e+00
	1.665016323845074e-10
	-3.333120446313842e-10
	1.665016323845062e-10
	3.100851946689675e-13

Title: *pmos off - w1
Date: Tue Feb 15 20:34:58  2022
Plotname: DC transfer characteristic
Flags: real
No. Variables: 10
No. Points: 2
Variables:
	0	temp-sweep	temp-sweep
	1	abs(v(alim))	voltage
	2	v(drain)	voltage
	3	v(gate)	voltage
	4	v(source)	voltage
	5	v(body)	voltage
	6	i(i(vd))	current
	7	i(i(vg))	current
	8	i(i(vs))	current
	9	i(i(vb))	current
Values:
 0	3.000000000000000e+01
	6.500000000000000e-01
	0.000000000000000e+00
	6.500000000000000e-01
	0.000000000000000e+00
	0.000000000000000e+00
	2.168144228842976e-10
	-4.344631321373527e-10
	2.168144228842935e-10
	8.354849716735782e-13

 1	1.000000000000000e+02
	6.500000000000000e-01
	0.000000000000000e+00
	6.500000000000000e-01
	0.000000000000000e+00
	0.000000000000000e+00
	2.168144228843033e-10
	-4.352305182919736e-10
	2.168144228842973e-10
	1.600742845741866e-12

Title: *pmos off - w1
Date: Tue Feb 15 20:34:58  2022
Plotname: DC transfer characteristic
Flags: real
No. Variables: 10
No. Points: 2
Variables:
	0	temp-sweep	temp-sweep
	1	abs(v(alim))	voltage
	2	v(drain)	voltage
	3	v(gate)	voltage
	4	v(source)	voltage
	5	v(body)	voltage
	6	i(i(vd))	current
	7	i(i(vg))	current
	8	i(i(vs))	current
	9	i(i(vb))	current
Values:
 0	3.000000000000000e+01
	7.000000000000001e-01
	0.000000000000000e+00
	7.000000000000001e-01
	0.000000000000000e+00
	0.000000000000000e+00
	2.772544299858819e-10
	-5.607176944977255e-10
	2.772544299858522e-10
	6.208423078773984e-12

 1	1.000000000000000e+02
	7.000000000000001e-01
	0.000000000000000e+00
	7.000000000000001e-01
	0.000000000000000e+00
	0.000000000000000e+00
	2.772544299857666e-10
	-5.627853738587874e-10
	2.772544299857361e-10
	8.277780947001672e-12

Title: *pmos off - w1
Date: Tue Feb 15 20:34:58  2022
Plotname: DC transfer characteristic
Flags: real
No. Variables: 10
No. Points: 2
Variables:
	0	temp-sweep	temp-sweep
	1	abs(v(alim))	voltage
	2	v(drain)	voltage
	3	v(gate)	voltage
	4	v(source)	voltage
	5	v(body)	voltage
	6	i(i(vd))	current
	7	i(i(vg))	current
	8	i(i(vs))	current
	9	i(i(vb))	current
Values:
 0	3.000000000000000e+01
	7.500000000000001e-01
	0.000000000000000e+00
	7.500000000000001e-01
	0.000000000000000e+00
	0.000000000000000e+00
	3.492612603026614e-10
	-7.443610172686022e-10
	3.492612603024421e-10
	4.583718311876904e-11

 1	1.000000000000000e+02
	7.500000000000001e-01
	0.000000000000000e+00
	7.500000000000001e-01
	0.000000000000000e+00
	0.000000000000000e+00
	3.492612603028445e-10
	-7.411529168166453e-10
	3.492612603026867e-10
	4.263022507855043e-11

Title: *pmos off - w1
Date: Tue Feb 15 20:34:58  2022
Plotname: DC transfer characteristic
Flags: real
No. Variables: 10
No. Points: 2
Variables:
	0	temp-sweep	temp-sweep
	1	abs(v(alim))	voltage
	2	v(drain)	voltage
	3	v(gate)	voltage
	4	v(source)	voltage
	5	v(body)	voltage
	6	i(i(vd))	current
	7	i(i(vg))	current
	8	i(i(vs))	current
	9	i(i(vb))	current
Values:
 0	3.000000000000000e+01
	8.000000000000002e-01
	0.000000000000000e+00
	8.000000000000002e-01
	0.000000000000000e+00
	0.000000000000000e+00
	4.344450942941962e-10
	-1.193686927081217e-09
	4.344450942926419e-10
	3.247981253187865e-10

 1	1.000000000000000e+02
	8.000000000000002e-01
	0.000000000000000e+00
	8.000000000000002e-01
	0.000000000000000e+00
	0.000000000000000e+00
	4.344450943029066e-10
	-1.084334400047737e-09
	4.344450943021091e-10
	2.154452470572816e-10

Title: *pmos off - w1
Date: Tue Feb 15 20:34:58  2022
Plotname: DC transfer characteristic
Flags: real
No. Variables: 10
No. Points: 2
Variables:
	0	temp-sweep	temp-sweep
	1	abs(v(alim))	voltage
	2	v(drain)	voltage
	3	v(gate)	voltage
	4	v(source)	voltage
	5	v(body)	voltage
	6	i(i(vd))	current
	7	i(i(vg))	current
	8	i(i(vs))	current
	9	i(i(vb))	current
Values:
 0	3.000000000000000e+01
	8.500000000000002e-01
	0.000000000000000e+00
	8.500000000000002e-01
	0.000000000000000e+00
	0.000000000000000e+00
	5.346048044535128e-10
	-2.931553666485343e-09
	5.346048044446014e-10
	1.862345533234658e-09

 1	1.000000000000000e+02
	8.500000000000002e-01
	0.000000000000000e+00
	8.500000000000002e-01
	0.000000000000000e+00
	0.000000000000000e+00
	5.346048045352109e-10
	-2.073758054166319e-09
	5.346048045314920e-10
	1.004546077092766e-09

Title: *pmos off - w1
Date: Tue Feb 15 20:34:58  2022
Plotname: DC transfer characteristic
Flags: real
No. Variables: 10
No. Points: 2
Variables:
	0	temp-sweep	temp-sweep
	1	abs(v(alim))	voltage
	2	v(drain)	voltage
	3	v(gate)	voltage
	4	v(source)	voltage
	5	v(body)	voltage
	6	i(i(vd))	current
	7	i(i(vg))	current
	8	i(i(vs))	current
	9	i(i(vb))	current
Values:
 0	3.000000000000000e+01
	9.000000000000002e-01
	0.000000000000000e+00
	9.000000000000002e-01
	0.000000000000000e+00
	0.000000000000000e+00
	6.517478702421037e-10
	-7.696478121488326e-09
	6.517478702115128e-10
	6.392978527984297e-09

 1	1.000000000000000e+02
	9.000000000000002e-01
	0.000000000000000e+00
	9.000000000000002e-01
	0.000000000000000e+00
	0.000000000000000e+00
	6.517478705457566e-10
	-4.983679247061445e-09
	6.517478705321325e-10
	3.680182991818324e-09

Title: *pmos off - w1
Date: Tue Feb 15 20:34:58  2022
Plotname: DC transfer characteristic
Flags: real
No. Variables: 10
No. Points: 2
Variables:
	0	temp-sweep	temp-sweep
	1	abs(v(alim))	voltage
	2	v(drain)	voltage
	3	v(gate)	voltage
	4	v(source)	voltage
	5	v(body)	voltage
	6	i(i(vd))	current
	7	i(i(vg))	current
	8	i(i(vs))	current
	9	i(i(vb))	current
Values:
 0	3.000000000000000e+01
	9.500000000000003e-01
	0.000000000000000e+00
	9.500000000000003e-01
	0.000000000000000e+00
	0.000000000000000e+00
	7.881122574337398e-10
	-1.532219329192230e-08
	7.881122573679639e-10
	1.374597150467217e-08

 1	1.000000000000000e+02
	9.500000000000003e-01
	0.000000000000000e+00
	9.500000000000003e-01
	0.000000000000000e+00
	0.000000000000000e+00
	7.881122580136178e-10
	-1.087312639924676e-08
	7.881122579792005e-10
	9.296898813461812e-09

Title: *pmos off - w1
Date: Tue Feb 15 20:34:58  2022
Plotname: DC transfer characteristic
Flags: real
No. Variables: 10
No. Points: 2
Variables:
	0	temp-sweep	temp-sweep
	1	abs(v(alim))	voltage
	2	v(drain)	voltage
	3	v(gate)	voltage
	4	v(source)	voltage
	5	v(body)	voltage
	6	i(i(vd))	current
	7	i(i(vg))	current
	8	i(i(vs))	current
	9	i(i(vb))	current
Values:
 0	3.000000000000000e+01
	1.000000000000000e+00
	0.000000000000000e+00
	1.000000000000000e+00
	0.000000000000000e+00
	0.000000000000000e+00
	9.461904446148989e-10
	-2.521084851991873e-08
	9.461904445033184e-10
	2.331846492369743e-08

 1	1.000000000000000e+02
	1.000000000000000e+00
	0.000000000000000e+00
	1.000000000000000e+00
	0.000000000000000e+00
	0.000000000000000e+00
	9.461904454852236e-10
	-1.944686189858658e-08
	9.461904454202365e-10
	1.755448320152865e-08

Title: *pmos off - w1
Date: Tue Feb 15 20:34:58  2022
Plotname: DC transfer characteristic
Flags: real
No. Variables: 10
No. Points: 2
Variables:
	0	temp-sweep	temp-sweep
	1	abs(v(alim))	voltage
	2	v(drain)	voltage
	3	v(gate)	voltage
	4	v(source)	voltage
	5	v(body)	voltage
	6	i(i(vd))	current
	7	i(i(vg))	current
	8	i(i(vs))	current
	9	i(i(vb))	current
Values:
 0	3.000000000000000e+01
	1.050000000000000e+00
	0.000000000000000e+00
	1.050000000000000e+00
	0.000000000000000e+00
	0.000000000000000e+00
	1.128755797454471e-09
	-3.752724708760979e-08
	1.128755797285704e-09
	3.526973338974227e-08

 1	1.000000000000000e+02
	1.050000000000000e+00
	0.000000000000000e+00
	1.050000000000000e+00
	0.000000000000000e+00
	0.000000000000000e+00
	1.128755798689141e-09
	-3.044755914061170e-08
	1.128755798584781e-09
	2.819004503780784e-08

Title: *pmos off - w1
Date: Tue Feb 15 20:34:58  2022
Plotname: DC transfer characteristic
Flags: real
No. Variables: 10
No. Points: 2
Variables:
	0	temp-sweep	temp-sweep
	1	abs(v(alim))	voltage
	2	v(drain)	voltage
	3	v(gate)	voltage
	4	v(source)	voltage
	5	v(body)	voltage
	6	i(i(vd))	current
	7	i(i(vg))	current
	8	i(i(vs))	current
	9	i(i(vb))	current
Values:
 0	3.000000000000000e+01
	1.100000000000000e+00
	0.000000000000000e+00
	1.100000000000000e+00
	0.000000000000000e+00
	0.000000000000000e+00
	1.338891509686916e-09
	-5.273419745321917e-08
	1.338891509447394e-09
	5.005641435382279e-08

 1	1.000000000000000e+02
	1.100000000000000e+00
	0.000000000000000e+00
	1.100000000000000e+00
	0.000000000000000e+00
	0.000000000000000e+00
	1.338891511417880e-09
	-4.411932152947884e-08
	1.338891511264464e-09
	4.144154289411183e-08

Title: *pmos off - w1
Date: Tue Feb 15 20:34:58  2022
Plotname: DC transfer characteristic
Flags: real
No. Variables: 10
No. Points: 2
Variables:
	0	temp-sweep	temp-sweep
	1	abs(v(alim))	voltage
	2	v(drain)	voltage
	3	v(gate)	voltage
	4	v(source)	voltage
	5	v(body)	voltage
	6	i(i(vd))	current
	7	i(i(vg))	current
	8	i(i(vs))	current
	9	i(i(vb))	current
Values:
 0	3.000000000000000e+01
	1.150000000000000e+00
	0.000000000000000e+00
	1.150000000000000e+00
	0.000000000000000e+00
	0.000000000000000e+00
	1.580022349119152e-09
	-7.140685909234890e-08
	1.580022348792591e-09
	6.824681855312667e-08

 1	1.000000000000000e+02
	1.150000000000000e+00
	0.000000000000000e+00
	1.150000000000000e+00
	0.000000000000000e+00
	0.000000000000000e+00
	1.580022351534387e-09
	-6.094798266076396e-08
	1.580022351320456e-09
	5.778793570922581e-08

Title: *pmos off - w1
Date: Tue Feb 15 20:34:58  2022
Plotname: DC transfer characteristic
Flags: real
No. Variables: 10
No. Points: 2
Variables:
	0	temp-sweep	temp-sweep
	1	abs(v(alim))	voltage
	2	v(drain)	voltage
	3	v(gate)	voltage
	4	v(source)	voltage
	5	v(body)	voltage
	6	i(i(vd))	current
	7	i(i(vg))	current
	8	i(i(vs))	current
	9	i(i(vb))	current
Values:
 0	3.000000000000000e+01
	1.200000000000000e+00
	0.000000000000000e+00
	1.200000000000000e+00
	0.000000000000000e+00
	0.000000000000000e+00
	1.855949468640389e-09
	-9.420887892019891e-08
	1.855949468207363e-09
	9.049697908091872e-08

 1	1.000000000000000e+02
	1.200000000000000e+00
	0.000000000000000e+00
	1.200000000000000e+00
	0.000000000000000e+00
	0.000000000000000e+00
	1.855949471994503e-09
	-8.153977404390389e-08
	1.855949471706386e-09
	7.782787284724803e-08

