  temp-sweep      abs(v(alim))    v(drain)        v(gate)         temp-sweep      v(source)       v(body)         i(vd)           temp-sweep      i(vg)           i(vs)           i(vb)
 3.00000000e+01  5.00000000e-02  3.00000000e+01  0.00000000e+00  3.00000000e+01  5.00000000e-02  3.00000000e+01  0.00000000e+00  3.00000000e+01  0.00000000e+00  3.00000000e+01  8.17882214e-12  3.00000000e+01 -1.63577485e-11  3.00000000e+01  8.17882214e-12  3.00000000e+01  9.98463006e-17 
 1.00000000e+02  5.00000000e-02  1.00000000e+02  0.00000000e+00  1.00000000e+02  5.00000000e-02  1.00000000e+02  0.00000000e+00  1.00000000e+02  0.00000000e+00  1.00000000e+02  8.17976931e-12  1.00000000e+02 -1.63606906e-11  1.00000000e+02  8.17976931e-12  1.00000000e+02  1.22016065e-15 
 3.00000000e+01  1.00000000e-01  3.00000000e+01  0.00000000e+00  3.00000000e+01  1.00000000e-01  3.00000000e+01  0.00000000e+00  3.00000000e+01  0.00000000e+00  3.00000000e+01  1.01104566e-11  3.00000000e+01 -2.02210471e-11  3.00000000e+01  1.01104566e-11  3.00000000e+01  1.82705093e-16 
 1.00000000e+02  1.00000000e-01  1.00000000e+02  0.00000000e+00  1.00000000e+02  1.00000000e-01  1.00000000e+02  0.00000000e+00  1.00000000e+02  0.00000000e+00  1.00000000e+02  1.01108682e-11  1.00000000e+02 -2.02240447e-11  1.00000000e+02  1.01108682e-11  1.00000000e+02  2.26156361e-15 
 3.00000000e+01  1.50000000e-01  3.00000000e+01  0.00000000e+00  3.00000000e+01  1.50000000e-01  3.00000000e+01  0.00000000e+00  3.00000000e+01  0.00000000e+00  3.00000000e+01  6.96350521e-12  3.00000000e+01 -1.39270817e-11  3.00000000e+01  6.96350521e-12  3.00000000e+01  2.50200988e-16 
 1.00000000e+02  1.50000000e-01  1.00000000e+02  0.00000000e+00  1.00000000e+02  1.50000000e-01  1.00000000e+02  0.00000000e+00  1.00000000e+02  0.00000000e+00  1.00000000e+02  6.96363780e-12  1.00000000e+02 -1.39306344e-11  1.00000000e+02  6.96363780e-12  1.00000000e+02  3.14190072e-15 
 3.00000000e+01  2.00000000e-01  3.00000000e+01  0.00000000e+00  3.00000000e+01  2.00000000e-01  3.00000000e+01  0.00000000e+00  3.00000000e+01  0.00000000e+00  3.00000000e+01  1.95844088e-12  3.00000000e+01 -3.91753296e-12  3.00000000e+01  1.95844088e-12  3.00000000e+01  3.03780689e-16 
 1.00000000e+02  2.00000000e-01  1.00000000e+02  0.00000000e+00  1.00000000e+02  2.00000000e-01  1.00000000e+02  0.00000000e+00  1.00000000e+02  0.00000000e+00  1.00000000e+02  1.95847855e-12  1.00000000e+02 -3.92064159e-12  1.00000000e+02  1.95847855e-12  1.00000000e+02  3.87373335e-15 
 3.00000000e+01  2.50000000e-01  3.00000000e+01  0.00000000e+00  3.00000000e+01  2.50000000e-01  3.00000000e+01  0.00000000e+00  3.00000000e+01  0.00000000e+00  3.00000000e+01  1.33533263e-11  3.00000000e+01 -2.67070810e-11  3.00000000e+01  1.33533263e-11  3.00000000e+01  3.44904738e-16 
 1.00000000e+02  2.50000000e-01  1.00000000e+02  0.00000000e+00  1.00000000e+02  2.50000000e-01  1.00000000e+02  0.00000000e+00  1.00000000e+02  0.00000000e+00  1.00000000e+02  1.33533363e-11  1.00000000e+02 -2.67110778e-11  1.00000000e+02  1.33533363e-11  1.00000000e+02  4.47107853e-15 
 3.00000000e+01  3.00000000e-01  3.00000000e+01  0.00000000e+00  3.00000000e+01  3.00000000e-01  3.00000000e+01  0.00000000e+00  3.00000000e+01  0.00000000e+00  3.00000000e+01  3.27473782e-11  3.00000000e+01 -6.54951648e-11  3.00000000e+01  3.27473782e-11  3.00000000e+01  3.75709129e-16 
 1.00000000e+02  3.00000000e-01  1.00000000e+02  0.00000000e+00  1.00000000e+02  3.00000000e-01  1.00000000e+02  0.00000000e+00  1.00000000e+02  0.00000000e+00  1.00000000e+02  3.27473807e-11  1.00000000e+02 -6.54996057e-11  1.00000000e+02  3.27473807e-11  1.00000000e+02  4.96134723e-15 
 3.00000000e+01  3.50000000e-01  3.00000000e+01  0.00000000e+00  3.00000000e+01  3.50000000e-01  3.00000000e+01  0.00000000e+00  3.00000000e+01  0.00000000e+00  3.00000000e+01  6.04517237e-11  3.00000000e+01 -1.20903287e-10  3.00000000e+01  6.04517237e-11  3.00000000e+01  4.04090116e-16 
 1.00000000e+02  3.50000000e-01  1.00000000e+02  0.00000000e+00  1.00000000e+02  3.50000000e-01  1.00000000e+02  0.00000000e+00  1.00000000e+02  0.00000000e+00  1.00000000e+02  6.04517243e-11  1.00000000e+02 -1.20908616e-10  1.00000000e+02  6.04517243e-11  1.00000000e+02  5.44610212e-15 
 3.00000000e+01  4.00000000e-01  3.00000000e+01  0.00000000e+00  3.00000000e+01  4.00000000e-01  3.00000000e+01  0.00000000e+00  3.00000000e+01  0.00000000e+00  3.00000000e+01  9.78732259e-11  3.00000000e+01 -1.95746530e-10  3.00000000e+01  9.78732259e-11  3.00000000e+01  4.82782063e-16 
 1.00000000e+02  4.00000000e-01  1.00000000e+02  0.00000000e+00  1.00000000e+02  4.00000000e-01  1.00000000e+02  0.00000000e+00  1.00000000e+02  0.00000000e+00  1.00000000e+02  9.78732260e-11  1.00000000e+02 -1.95753191e-10  1.00000000e+02  9.78732260e-11  1.00000000e+02  6.42500502e-15 
 3.00000000e+01  4.50000000e-01  3.00000000e+01  0.00000000e+00  3.00000000e+01  4.50000000e-01  3.00000000e+01  0.00000000e+00  3.00000000e+01  0.00000000e+00  3.00000000e+01  1.46636861e-10  3.00000000e+01 -2.93273850e-10  3.00000000e+01  1.46636861e-10  3.00000000e+01  1.00635698e-15 
 1.00000000e+02  4.50000000e-01  1.00000000e+02  0.00000000e+00  1.00000000e+02  4.50000000e-01  1.00000000e+02  0.00000000e+00  1.00000000e+02  0.00000000e+00  1.00000000e+02  1.46636861e-10  1.00000000e+02 -2.93284508e-10  1.00000000e+02  1.46636861e-10  1.00000000e+02  1.05063074e-14 
 3.00000000e+01  5.00000000e-01  3.00000000e+01  0.00000000e+00  3.00000000e+01  5.00000000e-01  3.00000000e+01  0.00000000e+00  3.00000000e+01  0.00000000e+00  3.00000000e+01  2.08582435e-10  3.00000000e+01 -4.17170298e-10  3.00000000e+01  2.08582435e-10  3.00000000e+01  4.94905406e-15 
 1.00000000e+02  5.00000000e-01  1.00000000e+02  0.00000000e+00  1.00000000e+02  5.00000000e-01  1.00000000e+02  0.00000000e+00  1.00000000e+02  0.00000000e+00  1.00000000e+02  2.08582435e-10  1.00000000e+02 -4.17196055e-10  1.00000000e+02  2.08582435e-10  1.00000000e+02  3.13669142e-14 
 3.00000000e+01  5.50000000e-01  3.00000000e+01  0.00000000e+00  3.00000000e+01  5.50000000e-01  3.00000000e+01  0.00000000e+00  3.00000000e+01  0.00000000e+00  3.00000000e+01  2.85784120e-10  3.00000000e+01 -5.71602321e-10  3.00000000e+01  2.85784120e-10  3.00000000e+01  3.46184353e-14 
 1.00000000e+02  5.50000000e-01  1.00000000e+02  0.00000000e+00  1.00000000e+02  5.50000000e-01  1.00000000e+02  0.00000000e+00  1.00000000e+02  0.00000000e+00  1.00000000e+02  2.85784120e-10  1.00000000e+02 -5.71708902e-10  1.00000000e+02  2.85784120e-10  1.00000000e+02  1.40412767e-13 
 3.00000000e+01  6.00000000e-01  3.00000000e+01  0.00000000e+00  3.00000000e+01  6.00000000e-01  3.00000000e+01  0.00000000e+00  3.00000000e+01  0.00000000e+00  3.00000000e+01  3.80575160e-10  3.00000000e+01 -7.61406937e-10  3.00000000e+01  3.80575160e-10  3.00000000e+01  2.56529740e-13 
 1.00000000e+02  6.00000000e-01  1.00000000e+02  0.00000000e+00  1.00000000e+02  6.00000000e-01  1.00000000e+02  0.00000000e+00  1.00000000e+02  0.00000000e+00  1.00000000e+02  3.80575160e-10  1.00000000e+02 -7.61859908e-10  1.00000000e+02  3.80575160e-10  1.00000000e+02  7.08766157e-13 
 3.00000000e+01  6.50000000e-01  3.00000000e+01  0.00000000e+00  3.00000000e+01  6.50000000e-01  3.00000000e+01  0.00000000e+00  3.00000000e+01  0.00000000e+00  3.00000000e+01  4.95575824e-10  3.00000000e+01 -9.93061633e-10  3.00000000e+01  4.95575824e-10  3.00000000e+01  1.90967993e-12 
 1.00000000e+02  6.50000000e-01  1.00000000e+02  0.00000000e+00  1.00000000e+02  6.50000000e-01  1.00000000e+02  0.00000000e+00  1.00000000e+02  0.00000000e+00  1.00000000e+02  4.95575824e-10  1.00000000e+02 -9.94810456e-10  1.00000000e+02  4.95575824e-10  1.00000000e+02  3.65884077e-12 
 3.00000000e+01  7.00000000e-01  3.00000000e+01  0.00000000e+00  3.00000000e+01  7.00000000e-01  3.00000000e+01  0.00000000e+00  3.00000000e+01  0.00000000e+00  3.00000000e+01  6.33724411e-10  3.00000000e+01 -1.28164057e-09  3.00000000e+01  6.33724411e-10  3.00000000e+01  1.41906811e-11 
 1.00000000e+02  7.00000000e-01  1.00000000e+02  0.00000000e+00  1.00000000e+02  7.00000000e-01  1.00000000e+02  0.00000000e+00  1.00000000e+02  0.00000000e+00  1.00000000e+02  6.33724411e-10  1.00000000e+02 -1.28637012e-09  1.00000000e+02  6.33724411e-10  1.00000000e+02  1.89206419e-11 
 3.00000000e+01  7.50000000e-01  3.00000000e+01  0.00000000e+00  3.00000000e+01  7.50000000e-01  3.00000000e+01  0.00000000e+00  3.00000000e+01  0.00000000e+00  3.00000000e+01  7.98311452e-10  3.00000000e+01 -1.70139369e-09  3.00000000e+01  7.98311452e-10  3.00000000e+01  1.04770698e-10 
 1.00000000e+02  7.50000000e-01  1.00000000e+02  0.00000000e+00  1.00000000e+02  7.50000000e-01  1.00000000e+02  0.00000000e+00  1.00000000e+02  0.00000000e+00  1.00000000e+02  7.98311452e-10  1.00000000e+02 -1.69406356e-09  1.00000000e+02  7.98311452e-10  1.00000000e+02  9.74405096e-11 
 3.00000000e+01  8.00000000e-01  3.00000000e+01  0.00000000e+00  3.00000000e+01  8.00000000e-01  3.00000000e+01  0.00000000e+00  3.00000000e+01  0.00000000e+00  3.00000000e+01  9.93017357e-10  3.00000000e+01 -2.72842993e-09  3.00000000e+01  9.93017357e-10  3.00000000e+01  7.42395414e-10 
 1.00000000e+02  8.00000000e-01  1.00000000e+02  0.00000000e+00  1.00000000e+02  8.00000000e-01  1.00000000e+02  0.00000000e+00  1.00000000e+02  0.00000000e+00  1.00000000e+02  9.93017358e-10  1.00000000e+02 -2.47848142e-09  1.00000000e+02  9.93017358e-10  1.00000000e+02  4.92446167e-10 
 3.00000000e+01  8.50000000e-01  3.00000000e+01  0.00000000e+00  3.00000000e+01  8.50000000e-01  3.00000000e+01  0.00000000e+00  3.00000000e+01  0.00000000e+00  3.00000000e+01  1.22195384e-09  3.00000000e+01 -6.70068978e-09  3.00000000e+01  1.22195384e-09  3.00000000e+01  4.25678195e-09 
 1.00000000e+02  8.50000000e-01  1.00000000e+02  0.00000000e+00  1.00000000e+02  8.50000000e-01  1.00000000e+02  0.00000000e+00  1.00000000e+02  0.00000000e+00  1.00000000e+02  1.22195384e-09  1.00000000e+02 -4.74001105e-09  1.00000000e+02  1.22195384e-09  1.00000000e+02  2.29610314e-09 
 3.00000000e+01  9.00000000e-01  3.00000000e+01  0.00000000e+00  3.00000000e+01  9.00000000e-01  3.00000000e+01  0.00000000e+00  3.00000000e+01  0.00000000e+00  3.00000000e+01  1.48970941e-09  3.00000000e+01 -1.75918835e-08  3.00000000e+01  1.48970941e-09  3.00000000e+01  1.46124645e-08 
 1.00000000e+02  9.00000000e-01  1.00000000e+02  0.00000000e+00  1.00000000e+02  9.00000000e-01  1.00000000e+02  0.00000000e+00  1.00000000e+02  0.00000000e+00  1.00000000e+02  1.48970941e-09  1.00000000e+02 -1.13912435e-08  1.00000000e+02  1.48970941e-09  1.00000000e+02  8.41182447e-09 
 3.00000000e+01  9.50000000e-01  3.00000000e+01  0.00000000e+00  3.00000000e+01  9.50000000e-01  3.00000000e+01  0.00000000e+00  3.00000000e+01  0.00000000e+00  3.00000000e+01  1.80139943e-09  3.00000000e+01 -3.50219906e-08  3.00000000e+01  1.80139943e-09  3.00000000e+01  3.14191911e-08 
 1.00000000e+02  9.50000000e-01  1.00000000e+02  0.00000000e+00  1.00000000e+02  9.50000000e-01  1.00000000e+02  0.00000000e+00  1.00000000e+02  0.00000000e+00  1.00000000e+02  1.80139943e-09  1.00000000e+02 -2.48527563e-08  1.00000000e+02  1.80139943e-09  1.00000000e+02  2.12499578e-08 
 3.00000000e+01  1.00000000e+00  3.00000000e+01  0.00000000e+00  3.00000000e+01  1.00000000e+00  3.00000000e+01  0.00000000e+00  3.00000000e+01  0.00000000e+00  3.00000000e+01  2.16272098e-09  3.00000000e+01 -5.76244226e-08  3.00000000e+01  2.16272098e-09  3.00000000e+01  5.32989798e-08 
 1.00000000e+02  1.00000000e+00  1.00000000e+02  0.00000000e+00  1.00000000e+02  1.00000000e+00  1.00000000e+02  0.00000000e+00  1.00000000e+02  0.00000000e+00  1.00000000e+02  2.16272099e-09  1.00000000e+02 -4.44497292e-08  1.00000000e+02  2.16272099e-09  1.00000000e+02  4.01242882e-08 
 3.00000000e+01  1.05000000e+00  3.00000000e+01  0.00000000e+00  3.00000000e+01  1.05000000e+00  3.00000000e+01  0.00000000e+00  3.00000000e+01  0.00000000e+00  3.00000000e+01  2.58001319e-09  3.00000000e+01 -8.57758664e-08  3.00000000e+01  2.58001318e-09  3.00000000e+01  8.06158415e-08 
 1.00000000e+02  1.05000000e+00  1.00000000e+02  0.00000000e+00  1.00000000e+02  1.05000000e+00  1.00000000e+02  0.00000000e+00  1.00000000e+02  0.00000000e+00  1.00000000e+02  2.58001320e-09  1.00000000e+02 -6.95939200e-08  1.00000000e+02  2.58001320e-09  1.00000000e+02  6.44338940e-08 
 3.00000000e+01  1.10000000e+00  3.00000000e+01  0.00000000e+00  3.00000000e+01  1.10000000e+00  3.00000000e+01  0.00000000e+00  3.00000000e+01  0.00000000e+00  3.00000000e+01  3.06032334e-09  3.00000000e+01 -1.20534098e-07  3.00000000e+01  3.06032334e-09  3.00000000e+01  1.14413450e-07 
 1.00000000e+02  1.10000000e+00  1.00000000e+02  0.00000000e+00  1.00000000e+02  1.10000000e+00  1.00000000e+02  0.00000000e+00  1.00000000e+02  0.00000000e+00  1.00000000e+02  3.06032337e-09  1.00000000e+02 -1.00843273e-07  1.00000000e+02  3.06032336e-09  1.00000000e+02  9.47226263e-08 
 3.00000000e+01  1.15000000e+00  3.00000000e+01  0.00000000e+00  3.00000000e+01  1.15000000e+00  3.00000000e+01  0.00000000e+00  3.00000000e+01  0.00000000e+00  3.00000000e+01  3.61147949e-09  3.00000000e+01 -1.63213659e-07  3.00000000e+01  3.61147949e-09  3.00000000e+01  1.55990702e-07 
 1.00000000e+02  1.15000000e+00  1.00000000e+02  0.00000000e+00  1.00000000e+02  1.15000000e+00  1.00000000e+02  0.00000000e+00  1.00000000e+02  0.00000000e+00  1.00000000e+02  3.61147952e-09  1.00000000e+02 -1.39308126e-07  1.00000000e+02  3.61147952e-09  1.00000000e+02  1.32085166e-07 
 3.00000000e+01  1.20000000e+00  3.00000000e+01  0.00000000e+00  3.00000000e+01  1.20000000e+00  3.00000000e+01  0.00000000e+00  3.00000000e+01  0.00000000e+00  3.00000000e+01  4.24216996e-09  3.00000000e+01 -2.15331303e-07  3.00000000e+01  4.24216996e-09  3.00000000e+01  2.06846960e-07 
 1.00000000e+02  1.20000000e+00  1.00000000e+02  0.00000000e+00  1.00000000e+02  1.20000000e+00  1.00000000e+02  0.00000000e+00  1.00000000e+02  0.00000000e+00  1.00000000e+02  4.24217001e-09  1.00000000e+02 -1.86374081e-07  1.00000000e+02  4.24217000e-09  1.00000000e+02  1.77889739e-07 
