Title: *pmos off - w2
Date: Tue Feb 15 20:35:01  2022
Plotname: DC transfer characteristic
Flags: real
No. Variables: 10
No. Points: 2
Variables:
	0	temp-sweep	temp-sweep
	1	abs(v(alim))	voltage
	2	v(drain)	voltage
	3	v(gate)	voltage
	4	v(source)	voltage
	5	v(body)	voltage
	6	i(i(vd))	current
	7	i(i(vg))	current
	8	i(i(vs))	current
	9	i(i(vb))	current
Values:
 0	3.000000000000000e+01
	5.000000000000000e-02
	0.000000000000000e+00
	5.000000000000000e-02
	0.000000000000000e+00
	0.000000000000000e+00
	8.178822138812771e-12
	-1.635774848907090e-11
	8.178822138812771e-12
	9.984630057836472e-17

 1	1.000000000000000e+02
	5.000000000000000e-02
	0.000000000000000e+00
	5.000000000000000e-02
	0.000000000000000e+00
	0.000000000000000e+00
	8.179769312017511e-12
	-1.636069058008616e-11
	8.179769312017507e-12
	1.220160650886628e-15

Title: *pmos off - w2
Date: Tue Feb 15 20:35:01  2022
Plotname: DC transfer characteristic
Flags: real
No. Variables: 10
No. Points: 2
Variables:
	0	temp-sweep	temp-sweep
	1	abs(v(alim))	voltage
	2	v(drain)	voltage
	3	v(gate)	voltage
	4	v(source)	voltage
	5	v(body)	voltage
	6	i(i(vd))	current
	7	i(i(vg))	current
	8	i(i(vs))	current
	9	i(i(vb))	current
Values:
 0	3.000000000000000e+01
	1.000000000000000e-01
	0.000000000000000e+00
	1.000000000000000e-01
	0.000000000000000e+00
	0.000000000000000e+00
	1.011045663892095e-11
	-2.022104705901029e-11
	1.011045663892095e-11
	1.827050929137427e-16

 1	1.000000000000000e+02
	1.000000000000000e-01
	0.000000000000000e+00
	1.000000000000000e-01
	0.000000000000000e+00
	0.000000000000000e+00
	1.011086821258747e-11
	-2.022404466117678e-11
	1.011086821258746e-11
	2.261563611619332e-15

Title: *pmos off - w2
Date: Tue Feb 15 20:35:01  2022
Plotname: DC transfer characteristic
Flags: real
No. Variables: 10
No. Points: 2
Variables:
	0	temp-sweep	temp-sweep
	1	abs(v(alim))	voltage
	2	v(drain)	voltage
	3	v(gate)	voltage
	4	v(source)	voltage
	5	v(body)	voltage
	6	i(i(vd))	current
	7	i(i(vg))	current
	8	i(i(vs))	current
	9	i(i(vb))	current
Values:
 0	3.000000000000000e+01
	1.500000000000000e-01
	0.000000000000000e+00
	1.500000000000000e-01
	0.000000000000000e+00
	0.000000000000000e+00
	6.963505213144978e-12
	-1.392708171010781e-11
	6.963505213144978e-12
	2.502009876275221e-16

 1	1.000000000000000e+02
	1.500000000000000e-01
	0.000000000000000e+00
	1.500000000000000e-01
	0.000000000000000e+00
	0.000000000000000e+00
	6.963637798493311e-12
	-1.393063442378661e-11
	6.963637798493299e-12
	3.141900716214582e-15

Title: *pmos off - w2
Date: Tue Feb 15 20:35:01  2022
Plotname: DC transfer characteristic
Flags: real
No. Variables: 10
No. Points: 2
Variables:
	0	temp-sweep	temp-sweep
	1	abs(v(alim))	voltage
	2	v(drain)	voltage
	3	v(gate)	voltage
	4	v(source)	voltage
	5	v(body)	voltage
	6	i(i(vd))	current
	7	i(i(vg))	current
	8	i(i(vs))	current
	9	i(i(vb))	current
Values:
 0	3.000000000000000e+01
	2.000000000000000e-01
	0.000000000000000e+00
	2.000000000000000e-01
	0.000000000000000e+00
	0.000000000000000e+00
	1.958440876441916e-12
	-3.917532964692327e-12
	1.958440876441916e-12
	3.037806885339294e-16

 1	1.000000000000000e+02
	2.000000000000000e-01
	0.000000000000000e+00
	2.000000000000000e-01
	0.000000000000000e+00
	0.000000000000000e+00
	1.958478547035126e-12
	-3.920641589161278e-12
	1.958478547035111e-12
	3.873733354720044e-15

Title: *pmos off - w2
Date: Tue Feb 15 20:35:01  2022
Plotname: DC transfer characteristic
Flags: real
No. Variables: 10
No. Points: 2
Variables:
	0	temp-sweep	temp-sweep
	1	abs(v(alim))	voltage
	2	v(drain)	voltage
	3	v(gate)	voltage
	4	v(source)	voltage
	5	v(body)	voltage
	6	i(i(vd))	current
	7	i(i(vg))	current
	8	i(i(vs))	current
	9	i(i(vb))	current
Values:
 0	3.000000000000000e+01
	2.500000000000000e-01
	0.000000000000000e+00
	2.500000000000000e-01
	0.000000000000000e+00
	0.000000000000000e+00
	1.335332634842054e-11
	-2.670708099117292e-11
	1.335332634842054e-11
	3.449047384570420e-16

 1	1.000000000000000e+02
	2.500000000000000e-01
	0.000000000000000e+00
	2.500000000000000e-01
	0.000000000000000e+00
	0.000000000000000e+00
	1.335333632893493e-11
	-2.671107779406157e-11
	1.335333632893491e-11
	4.471078525200536e-15

Title: *pmos off - w2
Date: Tue Feb 15 20:35:01  2022
Plotname: DC transfer characteristic
Flags: real
No. Variables: 10
No. Points: 2
Variables:
	0	temp-sweep	temp-sweep
	1	abs(v(alim))	voltage
	2	v(drain)	voltage
	3	v(gate)	voltage
	4	v(source)	voltage
	5	v(body)	voltage
	6	i(i(vd))	current
	7	i(i(vg))	current
	8	i(i(vs))	current
	9	i(i(vb))	current
Values:
 0	3.000000000000000e+01
	3.000000000000000e-01
	0.000000000000000e+00
	3.000000000000000e-01
	0.000000000000000e+00
	0.000000000000000e+00
	3.274737821125958e-11
	-6.549516484710693e-11
	3.274737821125959e-11
	3.757091287643875e-16

 1	1.000000000000000e+02
	3.000000000000000e-01
	0.000000000000000e+00
	3.000000000000000e-01
	0.000000000000000e+00
	0.000000000000000e+00
	3.274738074024817e-11
	-6.549960573920544e-11
	3.274738074024815e-11
	4.961347225765848e-15

Title: *pmos off - w2
Date: Tue Feb 15 20:35:01  2022
Plotname: DC transfer characteristic
Flags: real
No. Variables: 10
No. Points: 2
Variables:
	0	temp-sweep	temp-sweep
	1	abs(v(alim))	voltage
	2	v(drain)	voltage
	3	v(gate)	voltage
	4	v(source)	voltage
	5	v(body)	voltage
	6	i(i(vd))	current
	7	i(i(vg))	current
	8	i(i(vs))	current
	9	i(i(vb))	current
Values:
 0	3.000000000000000e+01
	3.500000000000000e-01
	0.000000000000000e+00
	3.500000000000000e-01
	0.000000000000000e+00
	0.000000000000000e+00
	6.045172367951892e-11
	-1.209032873816795e-10
	6.045172367951892e-11
	4.040901161809334e-16

 1	1.000000000000000e+02
	3.500000000000000e-01
	0.000000000000000e+00
	3.500000000000000e-01
	0.000000000000000e+00
	0.000000000000000e+00
	6.045172430088348e-11
	-1.209086164521977e-10
	6.045172430088345e-11
	5.446102117125859e-15

Title: *pmos off - w2
Date: Tue Feb 15 20:35:01  2022
Plotname: DC transfer characteristic
Flags: real
No. Variables: 10
No. Points: 2
Variables:
	0	temp-sweep	temp-sweep
	1	abs(v(alim))	voltage
	2	v(drain)	voltage
	3	v(gate)	voltage
	4	v(source)	voltage
	5	v(body)	voltage
	6	i(i(vd))	current
	7	i(i(vg))	current
	8	i(i(vs))	current
	9	i(i(vb))	current
Values:
 0	3.000000000000000e+01
	4.000000000000000e-01
	0.000000000000000e+00
	4.000000000000000e-01
	0.000000000000000e+00
	0.000000000000000e+00
	9.787322586984937e-11
	-1.957465300961303e-10
	9.787322586984942e-11
	4.827820634252775e-16

 1	1.000000000000000e+02
	4.000000000000000e-01
	0.000000000000000e+00
	4.000000000000000e-01
	0.000000000000000e+00
	0.000000000000000e+00
	9.787322601911003e-11
	-1.957531914342781e-10
	9.787322601911013e-11
	6.425005017448470e-15

Title: *pmos off - w2
Date: Tue Feb 15 20:35:01  2022
Plotname: DC transfer characteristic
Flags: real
No. Variables: 10
No. Points: 2
Variables:
	0	temp-sweep	temp-sweep
	1	abs(v(alim))	voltage
	2	v(drain)	voltage
	3	v(gate)	voltage
	4	v(source)	voltage
	5	v(body)	voltage
	6	i(i(vd))	current
	7	i(i(vg))	current
	8	i(i(vs))	current
	9	i(i(vb))	current
Values:
 0	3.000000000000000e+01
	4.500000000000000e-01
	0.000000000000000e+00
	4.500000000000000e-01
	0.000000000000000e+00
	0.000000000000000e+00
	1.466368607563770e-10
	-2.932738496497223e-10
	1.466368607563770e-10
	1.006356978633463e-15

 1	1.000000000000000e+02
	4.500000000000000e-01
	0.000000000000000e+00
	4.500000000000000e-01
	0.000000000000000e+00
	0.000000000000000e+00
	1.466368607916192e-10
	-2.932845077907587e-10
	1.466368607916191e-10
	1.050630742267471e-14

Title: *pmos off - w2
Date: Tue Feb 15 20:35:01  2022
Plotname: DC transfer characteristic
Flags: real
No. Variables: 10
No. Points: 2
Variables:
	0	temp-sweep	temp-sweep
	1	abs(v(alim))	voltage
	2	v(drain)	voltage
	3	v(gate)	voltage
	4	v(source)	voltage
	5	v(body)	voltage
	6	i(i(vd))	current
	7	i(i(vg))	current
	8	i(i(vs))	current
	9	i(i(vb))	current
Values:
 0	3.000000000000000e+01
	4.999999999999999e-01
	0.000000000000000e+00
	4.999999999999999e-01
	0.000000000000000e+00
	0.000000000000000e+00
	2.085824349776277e-10
	-4.171702983057912e-10
	2.085824349776277e-10
	4.949054061709078e-15

 1	1.000000000000000e+02
	4.999999999999999e-01
	0.000000000000000e+00
	4.999999999999999e-01
	0.000000000000000e+00
	0.000000000000000e+00
	2.085824349858336e-10
	-4.171960554799625e-10
	2.085824349858335e-10
	3.136691415865732e-14

Title: *pmos off - w2
Date: Tue Feb 15 20:35:01  2022
Plotname: DC transfer characteristic
Flags: real
No. Variables: 10
No. Points: 2
Variables:
	0	temp-sweep	temp-sweep
	1	abs(v(alim))	voltage
	2	v(drain)	voltage
	3	v(gate)	voltage
	4	v(source)	voltage
	5	v(body)	voltage
	6	i(i(vd))	current
	7	i(i(vg))	current
	8	i(i(vs))	current
	9	i(i(vb))	current
Values:
 0	3.000000000000000e+01
	5.499999999999999e-01
	0.000000000000000e+00
	5.499999999999999e-01
	0.000000000000000e+00
	0.000000000000000e+00
	2.857841200237079e-10
	-5.716023210311505e-10
	2.857841200237078e-10
	3.461843525987348e-14

 1	1.000000000000000e+02
	5.499999999999999e-01
	0.000000000000000e+00
	5.499999999999999e-01
	0.000000000000000e+00
	0.000000000000000e+00
	2.857841200255802e-10
	-5.717089024415145e-10
	2.857841200255798e-10
	1.404127673511033e-13

Title: *pmos off - w2
Date: Tue Feb 15 20:35:01  2022
Plotname: DC transfer characteristic
Flags: real
No. Variables: 10
No. Points: 2
Variables:
	0	temp-sweep	temp-sweep
	1	abs(v(alim))	voltage
	2	v(drain)	voltage
	3	v(gate)	voltage
	4	v(source)	voltage
	5	v(body)	voltage
	6	i(i(vd))	current
	7	i(i(vg))	current
	8	i(i(vs))	current
	9	i(i(vb))	current
Values:
 0	3.000000000000000e+01
	6.000000000000000e-01
	0.000000000000000e+00
	6.000000000000000e-01
	0.000000000000000e+00
	0.000000000000000e+00
	3.805751595984370e-10
	-7.614069374994870e-10
	3.805751595984354e-10
	2.565297400138042e-13

 1	1.000000000000000e+02
	6.000000000000000e-01
	0.000000000000000e+00
	6.000000000000000e-01
	0.000000000000000e+00
	0.000000000000000e+00
	3.805751595987695e-10
	-7.618599084935340e-10
	3.805751595987669e-10
	7.087661574877592e-13

Title: *pmos off - w2
Date: Tue Feb 15 20:35:01  2022
Plotname: DC transfer characteristic
Flags: real
No. Variables: 10
No. Points: 2
Variables:
	0	temp-sweep	temp-sweep
	1	abs(v(alim))	voltage
	2	v(drain)	voltage
	3	v(gate)	voltage
	4	v(source)	voltage
	5	v(body)	voltage
	6	i(i(vd))	current
	7	i(i(vg))	current
	8	i(i(vs))	current
	9	i(i(vb))	current
Values:
 0	3.000000000000000e+01
	6.500000000000000e-01
	0.000000000000000e+00
	6.500000000000000e-01
	0.000000000000000e+00
	0.000000000000000e+00
	4.955758235195975e-10
	-9.930616329256736e-10
	4.955758235195888e-10
	1.909679926633636e-12

 1	1.000000000000000e+02
	6.500000000000000e-01
	0.000000000000000e+00
	6.500000000000000e-01
	0.000000000000000e+00
	0.000000000000000e+00
	4.955758235192307e-10
	-9.948104562340632e-10
	4.955758235192179e-10
	3.658840773765490e-12

Title: *pmos off - w2
Date: Tue Feb 15 20:35:01  2022
Plotname: DC transfer characteristic
Flags: real
No. Variables: 10
No. Points: 2
Variables:
	0	temp-sweep	temp-sweep
	1	abs(v(alim))	voltage
	2	v(drain)	voltage
	3	v(gate)	voltage
	4	v(source)	voltage
	5	v(body)	voltage
	6	i(i(vd))	current
	7	i(i(vg))	current
	8	i(i(vs))	current
	9	i(i(vb))	current
Values:
 0	3.000000000000000e+01
	7.000000000000001e-01
	0.000000000000000e+00
	7.000000000000001e-01
	0.000000000000000e+00
	0.000000000000000e+00
	6.337244110629339e-10
	-1.281640571448861e-09
	6.337244110628660e-10
	1.419068114667636e-11

 1	1.000000000000000e+02
	7.000000000000001e-01
	0.000000000000000e+00
	7.000000000000001e-01
	0.000000000000000e+00
	0.000000000000000e+00
	6.337244110614404e-10
	-1.286370121533764e-09
	6.337244110613748e-10
	1.892064193050240e-11

Title: *pmos off - w2
Date: Tue Feb 15 20:35:01  2022
Plotname: DC transfer characteristic
Flags: real
No. Variables: 10
No. Points: 2
Variables:
	0	temp-sweep	temp-sweep
	1	abs(v(alim))	voltage
	2	v(drain)	voltage
	3	v(gate)	voltage
	4	v(source)	voltage
	5	v(body)	voltage
	6	i(i(vd))	current
	7	i(i(vg))	current
	8	i(i(vs))	current
	9	i(i(vb))	current
Values:
 0	3.000000000000000e+01
	7.500000000000001e-01
	0.000000000000000e+00
	7.500000000000001e-01
	0.000000000000000e+00
	0.000000000000000e+00
	7.983114515950259e-10
	-1.701393692599140e-09
	7.983114515945246e-10
	1.047706975226543e-10

 1	1.000000000000000e+02
	7.500000000000001e-01
	0.000000000000000e+00
	7.500000000000001e-01
	0.000000000000000e+00
	0.000000000000000e+00
	7.983114515977080e-10
	-1.694063556101355e-09
	7.983114515973700e-10
	9.744050964176684e-11

Title: *pmos off - w2
Date: Tue Feb 15 20:35:01  2022
Plotname: DC transfer characteristic
Flags: real
No. Variables: 10
No. Points: 2
Variables:
	0	temp-sweep	temp-sweep
	1	abs(v(alim))	voltage
	2	v(drain)	voltage
	3	v(gate)	voltage
	4	v(source)	voltage
	5	v(body)	voltage
	6	i(i(vd))	current
	7	i(i(vg))	current
	8	i(i(vs))	current
	9	i(i(vb))	current
Values:
 0	3.000000000000000e+01
	8.000000000000002e-01
	0.000000000000000e+00
	8.000000000000002e-01
	0.000000000000000e+00
	0.000000000000000e+00
	9.930173573931947e-10
	-2.728429926435183e-09
	9.930173573896423e-10
	7.423954140919250e-10

 1	1.000000000000000e+02
	8.000000000000002e-01
	0.000000000000000e+00
	8.000000000000002e-01
	0.000000000000000e+00
	0.000000000000000e+00
	9.930173575041204e-10
	-2.478481420098433e-09
	9.930173575024146e-10
	4.924461668104780e-10

Title: *pmos off - w2
Date: Tue Feb 15 20:35:01  2022
Plotname: DC transfer characteristic
Flags: real
No. Variables: 10
No. Points: 2
Variables:
	0	temp-sweep	temp-sweep
	1	abs(v(alim))	voltage
	2	v(drain)	voltage
	3	v(gate)	voltage
	4	v(source)	voltage
	5	v(body)	voltage
	6	i(i(vd))	current
	7	i(i(vg))	current
	8	i(i(vs))	current
	9	i(i(vb))	current
Values:
 0	3.000000000000000e+01
	8.500000000000002e-01
	0.000000000000000e+00
	8.500000000000002e-01
	0.000000000000000e+00
	0.000000000000000e+00
	1.221953835889659e-09
	-6.700689780814173e-09
	1.221953835869290e-09
	4.256781945655884e-09

 1	1.000000000000000e+02
	8.500000000000002e-01
	0.000000000000000e+00
	8.500000000000002e-01
	0.000000000000000e+00
	0.000000000000000e+00
	1.221953836913615e-09
	-4.740011050330395e-09
	1.221953836905663e-09
	2.296103139408516e-09

Title: *pmos off - w2
Date: Tue Feb 15 20:35:01  2022
Plotname: DC transfer characteristic
Flags: real
No. Variables: 10
No. Points: 2
Variables:
	0	temp-sweep	temp-sweep
	1	abs(v(alim))	voltage
	2	v(drain)	voltage
	3	v(gate)	voltage
	4	v(source)	voltage
	5	v(body)	voltage
	6	i(i(vd))	current
	7	i(i(vg))	current
	8	i(i(vs))	current
	9	i(i(vb))	current
Values:
 0	3.000000000000000e+01
	9.000000000000002e-01
	0.000000000000000e+00
	9.000000000000002e-01
	0.000000000000000e+00
	0.000000000000000e+00
	1.489709408931601e-09
	-1.759188350547447e-08
	1.489709408861680e-09
	1.461246454256711e-08

 1	1.000000000000000e+02
	9.000000000000002e-01
	0.000000000000000e+00
	9.000000000000002e-01
	0.000000000000000e+00
	0.000000000000000e+00
	1.489709412714949e-09
	-1.139124350402199e-08
	1.489709412685814e-09
	8.411824472269129e-09

Title: *pmos off - w2
Date: Tue Feb 15 20:35:01  2022
Plotname: DC transfer characteristic
Flags: real
No. Variables: 10
No. Points: 2
Variables:
	0	temp-sweep	temp-sweep
	1	abs(v(alim))	voltage
	2	v(drain)	voltage
	3	v(gate)	voltage
	4	v(source)	voltage
	5	v(body)	voltage
	6	i(i(vd))	current
	7	i(i(vg))	current
	8	i(i(vs))	current
	9	i(i(vb))	current
Values:
 0	3.000000000000000e+01
	9.500000000000003e-01
	0.000000000000000e+00
	9.500000000000003e-01
	0.000000000000000e+00
	0.000000000000000e+00
	1.801399425294018e-09
	-3.502199064087108e-08
	1.801399425143677e-09
	3.141919113961380e-08

 1	1.000000000000000e+02
	9.500000000000003e-01
	0.000000000000000e+00
	9.500000000000003e-01
	0.000000000000000e+00
	0.000000000000000e+00
	1.801399432504849e-09
	-2.485275629737771e-08
	1.801399432431248e-09
	2.124995780854949e-08

Title: *pmos off - w2
Date: Tue Feb 15 20:35:01  2022
Plotname: DC transfer characteristic
Flags: real
No. Variables: 10
No. Points: 2
Variables:
	0	temp-sweep	temp-sweep
	1	abs(v(alim))	voltage
	2	v(drain)	voltage
	3	v(gate)	voltage
	4	v(source)	voltage
	5	v(body)	voltage
	6	i(i(vd))	current
	7	i(i(vg))	current
	8	i(i(vs))	current
	9	i(i(vb))	current
Values:
 0	3.000000000000000e+01
	1.000000000000000e+00
	0.000000000000000e+00
	1.000000000000000e+00
	0.000000000000000e+00
	0.000000000000000e+00
	2.162720977675404e-09
	-5.762442256695977e-08
	2.162720977420369e-09
	5.329897981705006e-08

 1	1.000000000000000e+02
	1.000000000000000e+00
	0.000000000000000e+00
	1.000000000000000e+00
	0.000000000000000e+00
	0.000000000000000e+00
	2.162720988486920e-09
	-4.444972923067780e-08
	2.162720988347945e-09
	4.012428819164952e-08

Title: *pmos off - w2
Date: Tue Feb 15 20:35:01  2022
Plotname: DC transfer characteristic
Flags: real
No. Variables: 10
No. Points: 2
Variables:
	0	temp-sweep	temp-sweep
	1	abs(v(alim))	voltage
	2	v(drain)	voltage
	3	v(gate)	voltage
	4	v(source)	voltage
	5	v(body)	voltage
	6	i(i(vd))	current
	7	i(i(vg))	current
	8	i(i(vs))	current
	9	i(i(vb))	current
Values:
 0	3.000000000000000e+01
	1.050000000000000e+00
	0.000000000000000e+00
	1.050000000000000e+00
	0.000000000000000e+00
	0.000000000000000e+00
	2.580013185101529e-09
	-8.577586640967638e-08
	2.580013184715785e-09
	8.061584149092675e-08

 1	1.000000000000000e+02
	1.050000000000000e+00
	0.000000000000000e+00
	1.050000000000000e+00
	0.000000000000000e+00
	0.000000000000000e+00
	2.580013200416843e-09
	-6.959391996019804e-08
	2.580013200193671e-09
	6.443389403043487e-08

Title: *pmos off - w2
Date: Tue Feb 15 20:35:01  2022
Plotname: DC transfer characteristic
Flags: real
No. Variables: 10
No. Points: 2
Variables:
	0	temp-sweep	temp-sweep
	1	abs(v(alim))	voltage
	2	v(drain)	voltage
	3	v(gate)	voltage
	4	v(source)	voltage
	5	v(body)	voltage
	6	i(i(vd))	current
	7	i(i(vg))	current
	8	i(i(vs))	current
	9	i(i(vb))	current
Values:
 0	3.000000000000000e+01
	1.100000000000000e+00
	0.000000000000000e+00
	1.100000000000000e+00
	0.000000000000000e+00
	0.000000000000000e+00
	3.060323343766866e-09
	-1.205340982579628e-07
	3.060323343219406e-09
	1.144134497946743e-07

 1	1.000000000000000e+02
	1.100000000000000e+00
	0.000000000000000e+00
	1.100000000000000e+00
	0.000000000000000e+00
	0.000000000000000e+00
	3.060323365194377e-09
	-1.008432732874098e-07
	3.060323364866298e-09
	9.472262626602516e-08

Title: *pmos off - w2
Date: Tue Feb 15 20:35:01  2022
Plotname: DC transfer characteristic
Flags: real
No. Variables: 10
No. Points: 2
Variables:
	0	temp-sweep	temp-sweep
	1	abs(v(alim))	voltage
	2	v(drain)	voltage
	3	v(gate)	voltage
	4	v(source)	voltage
	5	v(body)	voltage
	6	i(i(vd))	current
	7	i(i(vg))	current
	8	i(i(vs))	current
	9	i(i(vb))	current
Values:
 0	3.000000000000000e+01
	1.150000000000000e+00
	0.000000000000000e+00
	1.150000000000000e+00
	0.000000000000000e+00
	0.000000000000000e+00
	3.611479489188375e-09
	-1.632136594764688e-07
	3.611479488441978e-09
	1.559907016757237e-07

 1	1.000000000000000e+02
	1.150000000000000e+00
	0.000000000000000e+00
	1.150000000000000e+00
	0.000000000000000e+00
	0.000000000000000e+00
	3.611479519013883e-09
	-1.393081259237761e-07
	3.611479518556403e-09
	1.320851664695084e-07

Title: *pmos off - w2
Date: Tue Feb 15 20:35:01  2022
Plotname: DC transfer characteristic
Flags: real
No. Variables: 10
No. Points: 2
Variables:
	0	temp-sweep	temp-sweep
	1	abs(v(alim))	voltage
	2	v(drain)	voltage
	3	v(gate)	voltage
	4	v(source)	voltage
	5	v(body)	voltage
	6	i(i(vd))	current
	7	i(i(vg))	current
	8	i(i(vs))	current
	9	i(i(vb))	current
Values:
 0	3.000000000000000e+01
	1.200000000000000e+00
	0.000000000000000e+00
	1.200000000000000e+00
	0.000000000000000e+00
	0.000000000000000e+00
	4.242169963835585e-09
	-2.153313030106574e-07
	4.242169962845858e-09
	2.068469602468633e-07

 1	1.000000000000000e+02
	1.200000000000000e+00
	0.000000000000000e+00
	1.200000000000000e+00
	0.000000000000000e+00
	0.000000000000000e+00
	4.242170005148079e-09
	-1.863740806129499e-07
	4.242170004531956e-09
	1.778897391060235e-07

