  temp-sweep      abs(v(alim))    v(drain)        v(gate)         temp-sweep      v(source)       v(body)         i(vd)           temp-sweep      i(vg)           i(vs)           i(vb)
 3.00000000e+01  5.00000000e-02  3.00000000e+01  0.00000000e+00  3.00000000e+01  5.00000000e-02  3.00000000e+01  0.00000000e+00  3.00000000e+01  0.00000000e+00  3.00000000e+01  1.27794096e-11  3.00000000e+01 -2.55589994e-11  3.00000000e+01  1.27794096e-11  3.00000000e+01  1.56009845e-16 
 1.00000000e+02  5.00000000e-02  1.00000000e+02  0.00000000e+00  1.00000000e+02  5.00000000e-02  1.00000000e+02  0.00000000e+00  1.00000000e+02  0.00000000e+00  1.00000000e+02  1.27808895e-11  1.00000000e+02 -2.55636623e-11  1.00000000e+02  1.27808895e-11  1.00000000e+02  1.90650102e-15 
 3.00000000e+01  1.00000000e-01  3.00000000e+01  0.00000000e+00  3.00000000e+01  1.00000000e-01  3.00000000e+01  0.00000000e+00  3.00000000e+01  0.00000000e+00  3.00000000e+01  1.57975885e-11  3.00000000e+01 -3.15953930e-11  3.00000000e+01  1.57975885e-11  3.00000000e+01  2.85476708e-16 
 1.00000000e+02  1.00000000e-01  1.00000000e+02  0.00000000e+00  1.00000000e+02  1.00000000e-01  1.00000000e+02  0.00000000e+00  1.00000000e+02  0.00000000e+00  1.00000000e+02  1.57982316e-11  1.00000000e+02 -3.15999449e-11  1.00000000e+02  1.57982316e-11  1.00000000e+02  3.53369314e-15 
 3.00000000e+01  1.50000000e-01  3.00000000e+01  0.00000000e+00  3.00000000e+01  1.50000000e-01  3.00000000e+01  0.00000000e+00  3.00000000e+01  0.00000000e+00  3.00000000e+01  1.08804769e-11  3.00000000e+01 -2.17612595e-11  3.00000000e+01  1.08804769e-11  3.00000000e+01  3.90939043e-16 
 1.00000000e+02  1.50000000e-01  1.00000000e+02  0.00000000e+00  1.00000000e+02  1.50000000e-01  1.00000000e+02  0.00000000e+00  1.00000000e+02  0.00000000e+00  1.00000000e+02  1.08806841e-11  1.00000000e+02 -2.17662555e-11  1.00000000e+02  1.08806841e-11  1.00000000e+02  4.90921987e-15 
 3.00000000e+01  2.00000000e-01  3.00000000e+01  0.00000000e+00  3.00000000e+01  2.00000000e-01  3.00000000e+01  0.00000000e+00  3.00000000e+01  0.00000000e+00  3.00000000e+01  3.06006387e-12  3.00000000e+01 -6.12043749e-12  3.00000000e+01  3.06006387e-12  3.00000000e+01  4.74657326e-16 
 1.00000000e+02  2.00000000e-01  1.00000000e+02  0.00000000e+00  1.00000000e+02  2.00000000e-01  1.00000000e+02  0.00000000e+00  1.00000000e+02  0.00000000e+00  1.00000000e+02  3.06012273e-12  1.00000000e+02 -6.12621065e-12  1.00000000e+02  3.06012273e-12  1.00000000e+02  6.05270837e-15 
 3.00000000e+01  2.50000000e-01  3.00000000e+01  0.00000000e+00  3.00000000e+01  2.50000000e-01  3.00000000e+01  0.00000000e+00  3.00000000e+01  0.00000000e+00  3.00000000e+01  2.08645724e-11  3.00000000e+01 -4.17297308e-11  3.00000000e+01  2.08645724e-11  3.00000000e+01  5.38913654e-16 
 1.00000000e+02  2.50000000e-01  1.00000000e+02  0.00000000e+00  1.00000000e+02  2.50000000e-01  1.00000000e+02  0.00000000e+00  1.00000000e+02  0.00000000e+00  1.00000000e+02  2.08645880e-11  1.00000000e+02 -4.17363921e-11  1.00000000e+02  2.08645880e-11  1.00000000e+02  6.98606020e-15 
 3.00000000e+01  3.00000000e-01  3.00000000e+01  0.00000000e+00  3.00000000e+01  3.00000000e-01  3.00000000e+01  0.00000000e+00  3.00000000e+01  0.00000000e+00  3.00000000e+01  5.11677784e-11  3.00000000e+01 -1.02335918e-10  3.00000000e+01  5.11677784e-11  3.00000000e+01  5.87045514e-16 
 1.00000000e+02  3.00000000e-01  1.00000000e+02  0.00000000e+00  1.00000000e+02  3.00000000e-01  1.00000000e+02  0.00000000e+00  1.00000000e+02  0.00000000e+00  1.00000000e+02  5.11677824e-11  1.00000000e+02 -1.02343467e-10  1.00000000e+02  5.11677824e-11  1.00000000e+02  7.75210504e-15 
 3.00000000e+01  3.50000000e-01  3.00000000e+01  0.00000000e+00  3.00000000e+01  3.50000000e-01  3.00000000e+01  0.00000000e+00  3.00000000e+01  0.00000000e+00  3.00000000e+01  9.44558182e-11  3.00000000e+01 -1.88912441e-10  3.00000000e+01  9.44558182e-11  3.00000000e+01  6.31390807e-16 
 1.00000000e+02  3.50000000e-01  1.00000000e+02  0.00000000e+00  1.00000000e+02  3.50000000e-01  1.00000000e+02  0.00000000e+00  1.00000000e+02  0.00000000e+00  1.00000000e+02  9.44558192e-11  1.00000000e+02 -1.88920435e-10  1.00000000e+02  9.44558192e-11  1.00000000e+02  8.50953456e-15 
 3.00000000e+01  4.00000000e-01  3.00000000e+01  0.00000000e+00  3.00000000e+01  4.00000000e-01  3.00000000e+01  0.00000000e+00  3.00000000e+01  0.00000000e+00  3.00000000e+01  1.52926915e-10  3.00000000e+01 -3.05854009e-10  3.00000000e+01  1.52926915e-10  3.00000000e+01  7.54346974e-16 
 1.00000000e+02  4.00000000e-01  1.00000000e+02  0.00000000e+00  1.00000000e+02  4.00000000e-01  1.00000000e+02  0.00000000e+00  1.00000000e+02  0.00000000e+00  1.00000000e+02  1.52926916e-10  1.00000000e+02 -3.05863779e-10  1.00000000e+02  1.52926916e-10  1.00000000e+02  1.00390703e-14 
 3.00000000e+01  4.50000000e-01  3.00000000e+01  0.00000000e+00  3.00000000e+01  4.50000000e-01  3.00000000e+01  0.00000000e+00  3.00000000e+01  0.00000000e+00  3.00000000e+01  2.29120095e-10  3.00000000e+01 -4.58241889e-10  3.00000000e+01  2.29120095e-10  3.00000000e+01  1.57243278e-15 
 1.00000000e+02  4.50000000e-01  1.00000000e+02  0.00000000e+00  1.00000000e+02  4.50000000e-01  1.00000000e+02  0.00000000e+00  1.00000000e+02  0.00000000e+00  1.00000000e+02  2.29120095e-10  1.00000000e+02 -4.58256544e-10  1.00000000e+02  2.29120095e-10  1.00000000e+02  1.64161053e-14 
 3.00000000e+01  5.00000000e-01  3.00000000e+01  0.00000000e+00  3.00000000e+01  5.00000000e-01  3.00000000e+01  0.00000000e+00  3.00000000e+01  0.00000000e+00  3.00000000e+01  3.25910055e-10  3.00000000e+01 -6.51828369e-10  3.00000000e+01  3.25910055e-10  3.00000000e+01  7.73289695e-15 
 1.00000000e+02  5.00000000e-01  1.00000000e+02  0.00000000e+00  1.00000000e+02  5.00000000e-01  1.00000000e+02  0.00000000e+00  1.00000000e+02  0.00000000e+00  1.00000000e+02  3.25910055e-10  1.00000000e+02 -6.51868781e-10  1.00000000e+02  3.25910055e-10  1.00000000e+02  4.90108033e-14 
 3.00000000e+01  5.50000000e-01  3.00000000e+01  0.00000000e+00  3.00000000e+01  5.50000000e-01  3.00000000e+01  0.00000000e+00  3.00000000e+01  0.00000000e+00  3.00000000e+01  4.46537687e-10  3.00000000e+01 -8.93129126e-10  3.00000000e+01  4.46537687e-10  3.00000000e+01  5.40913049e-14 
 1.00000000e+02  5.50000000e-01  1.00000000e+02  0.00000000e+00  1.00000000e+02  5.50000000e-01  1.00000000e+02  0.00000000e+00  1.00000000e+02  0.00000000e+00  1.00000000e+02  4.46537687e-10  1.00000000e+02 -8.93295216e-10  1.00000000e+02  4.46537687e-10  1.00000000e+02  2.19394948e-13 
 3.00000000e+01  6.00000000e-01  3.00000000e+01  0.00000000e+00  3.00000000e+01  6.00000000e-01  3.00000000e+01  0.00000000e+00  3.00000000e+01  0.00000000e+00  3.00000000e+01  5.94648686e-10  3.00000000e+01 -1.18969812e-09  3.00000000e+01  5.94648686e-10  3.00000000e+01  4.00827717e-13 
 1.00000000e+02  6.00000000e-01  1.00000000e+02  0.00000000e+00  1.00000000e+02  6.00000000e-01  1.00000000e+02  0.00000000e+00  1.00000000e+02  0.00000000e+00  1.00000000e+02  5.94648686e-10  1.00000000e+02 -1.19040555e-09  1.00000000e+02  5.94648686e-10  1.00000000e+02  1.10744712e-12 
 3.00000000e+01  6.50000000e-01  3.00000000e+01  0.00000000e+00  3.00000000e+01  6.50000000e-01  3.00000000e+01  0.00000000e+00  3.00000000e+01  0.00000000e+00  3.00000000e+01  7.74337224e-10  3.00000000e+01 -1.55165836e-09  3.00000000e+01  7.74337224e-10  3.00000000e+01  2.98387486e-12 
 1.00000000e+02  6.50000000e-01  1.00000000e+02  0.00000000e+00  1.00000000e+02  6.50000000e-01  1.00000000e+02  0.00000000e+00  1.00000000e+02  0.00000000e+00  1.00000000e+02  7.74337224e-10  1.00000000e+02 -1.55439084e-09  1.00000000e+02  7.74337224e-10  1.00000000e+02  5.71693867e-12 
 3.00000000e+01  7.00000000e-01  3.00000000e+01  0.00000000e+00  3.00000000e+01  7.00000000e-01  3.00000000e+01  0.00000000e+00  3.00000000e+01  0.00000000e+00  3.00000000e+01  9.90194391e-10  3.00000000e+01 -2.00256078e-09  3.00000000e+01  9.90194391e-10  3.00000000e+01  2.21729389e-11 
 1.00000000e+02  7.00000000e-01  1.00000000e+02  0.00000000e+00  1.00000000e+02  7.00000000e-01  1.00000000e+02  0.00000000e+00  1.00000000e+02  0.00000000e+00  1.00000000e+02  9.90194391e-10  1.00000000e+02 -2.00995220e-09  1.00000000e+02  9.90194391e-10  1.00000000e+02  2.95635026e-11 
 3.00000000e+01  7.50000000e-01  3.00000000e+01  0.00000000e+00  3.00000000e+01  7.50000000e-01  3.00000000e+01  0.00000000e+00  3.00000000e+01  0.00000000e+00  3.00000000e+01  1.24736164e-09  3.00000000e+01 -2.65842726e-09  3.00000000e+01  1.24736164e-09  3.00000000e+01  1.63704204e-10 
 1.00000000e+02  7.50000000e-01  1.00000000e+02  0.00000000e+00  1.00000000e+02  7.50000000e-01  1.00000000e+02  0.00000000e+00  1.00000000e+02  0.00000000e+00  1.00000000e+02  1.24736164e-09  1.00000000e+02 -2.64697508e-09  1.00000000e+02  1.24736164e-09  1.00000000e+02  1.52250788e-10 
 3.00000000e+01  8.00000000e-01  3.00000000e+01  0.00000000e+00  3.00000000e+01  8.00000000e-01  3.00000000e+01  0.00000000e+00  3.00000000e+01  0.00000000e+00  3.00000000e+01  1.55158962e-09  3.00000000e+01 -4.26317115e-09  3.00000000e+01  1.55158962e-09  3.00000000e+01  1.15999236e-09 
 1.00000000e+02  8.00000000e-01  1.00000000e+02  0.00000000e+00  1.00000000e+02  8.00000000e-01  1.00000000e+02  0.00000000e+00  1.00000000e+02  0.00000000e+00  1.00000000e+02  1.55158962e-09  1.00000000e+02 -3.87262578e-09  1.00000000e+02  1.55158962e-09  1.00000000e+02  7.69446956e-10 
 3.00000000e+01  8.50000000e-01  3.00000000e+01  0.00000000e+00  3.00000000e+01  8.50000000e-01  3.00000000e+01  0.00000000e+00  3.00000000e+01  0.00000000e+00  3.00000000e+01  1.90930286e-09  3.00000000e+01 -1.04698143e-08  3.00000000e+01  1.90930286e-09  3.00000000e+01  6.65120944e-09 
 1.00000000e+02  8.50000000e-01  1.00000000e+02  0.00000000e+00  1.00000000e+02  8.50000000e-01  1.00000000e+02  0.00000000e+00  1.00000000e+02  0.00000000e+00  1.00000000e+02  1.90930286e-09  1.00000000e+02 -7.40626316e-09  1.00000000e+02  1.90930286e-09  1.00000000e+02  3.58765772e-09 
 3.00000000e+01  9.00000000e-01  3.00000000e+01  0.00000000e+00  3.00000000e+01  9.00000000e-01  3.00000000e+01  0.00000000e+00  3.00000000e+01  0.00000000e+00  3.00000000e+01  2.32767093e-09  3.00000000e+01 -2.74872258e-08  3.00000000e+01  2.32767093e-09  3.00000000e+01  2.28318850e-08 
 1.00000000e+02  9.00000000e-01  1.00000000e+02  0.00000000e+00  1.00000000e+02  9.00000000e-01  1.00000000e+02  0.00000000e+00  1.00000000e+02  0.00000000e+00  1.00000000e+02  2.32767094e-09  1.00000000e+02 -1.77987820e-08  1.00000000e+02  2.32767094e-09  1.00000000e+02  1.31434406e-08 
 3.00000000e+01  9.50000000e-01  3.00000000e+01  0.00000000e+00  3.00000000e+01  9.50000000e-01  3.00000000e+01  0.00000000e+00  3.00000000e+01  0.00000000e+00  3.00000000e+01  2.81468655e-09  3.00000000e+01 -5.47215890e-08  3.00000000e+01  2.81468655e-09  3.00000000e+01  4.90922155e-08 
 1.00000000e+02  9.50000000e-01  1.00000000e+02  0.00000000e+00  1.00000000e+02  9.50000000e-01  1.00000000e+02  0.00000000e+00  1.00000000e+02  0.00000000e+00  1.00000000e+02  2.81468657e-09  1.00000000e+02 -3.88322805e-08  1.00000000e+02  2.81468657e-09  1.00000000e+02  3.32029073e-08 
 3.00000000e+01  1.00000000e+00  3.00000000e+01  0.00000000e+00  3.00000000e+01  1.00000000e+00  3.00000000e+01  0.00000000e+00  3.00000000e+01  0.00000000e+00  3.00000000e+01  3.37925142e-09  3.00000000e+01 -9.00375801e-08  3.00000000e+01  3.37925142e-09  3.00000000e+01  8.32790771e-08 
 1.00000000e+02  1.00000000e+00  1.00000000e+02  0.00000000e+00  1.00000000e+02  1.00000000e+00  1.00000000e+02  0.00000000e+00  1.00000000e+02  0.00000000e+00  1.00000000e+02  3.37925146e-09  1.00000000e+02 -6.94523195e-08  1.00000000e+02  3.37925146e-09  1.00000000e+02  6.26938157e-08 
 3.00000000e+01  1.05000000e+00  3.00000000e+01  0.00000000e+00  3.00000000e+01  1.05000000e+00  3.00000000e+01  0.00000000e+00  3.00000000e+01  0.00000000e+00  3.00000000e+01  4.03127042e-09  3.00000000e+01 -1.34023705e-07  3.00000000e+01  4.03127042e-09  3.00000000e+01  1.25961166e-07 
 1.00000000e+02  1.05000000e+00  1.00000000e+02  0.00000000e+00  1.00000000e+02  1.05000000e+00  1.00000000e+02  0.00000000e+00  1.00000000e+02  0.00000000e+00  1.00000000e+02  4.03127048e-09  1.00000000e+02 -1.08739722e-07  1.00000000e+02  4.03127048e-09  1.00000000e+02  1.00677183e-07 
 3.00000000e+01  1.10000000e+00  3.00000000e+01  0.00000000e+00  3.00000000e+01  1.10000000e+00  3.00000000e+01  0.00000000e+00  3.00000000e+01  0.00000000e+00  3.00000000e+01  4.78175493e-09  3.00000000e+01 -1.88332622e-07  3.00000000e+01  4.78175493e-09  3.00000000e+01  1.78769113e-07 
 1.00000000e+02  1.10000000e+00  1.00000000e+02  0.00000000e+00  1.00000000e+02  1.10000000e+00  1.00000000e+02  0.00000000e+00  1.00000000e+02  0.00000000e+00  1.00000000e+02  4.78175501e-09  1.00000000e+02 -1.57566200e-07  1.00000000e+02  4.78175501e-09  1.00000000e+02  1.48002690e-07 
 3.00000000e+01  1.15000000e+00  3.00000000e+01  0.00000000e+00  3.00000000e+01  1.15000000e+00  3.00000000e+01  0.00000000e+00  3.00000000e+01  0.00000000e+00  3.00000000e+01  5.64293624e-09  3.00000000e+01 -2.55018161e-07  3.00000000e+01  5.64293624e-09  3.00000000e+01  2.43732289e-07 
 1.00000000e+02  1.15000000e+00  1.00000000e+02  0.00000000e+00  1.00000000e+02  1.15000000e+00  1.00000000e+02  0.00000000e+00  1.00000000e+02  0.00000000e+00  1.00000000e+02  5.64293635e-09  1.00000000e+02 -2.17666521e-07  1.00000000e+02  5.64293635e-09  1.00000000e+02  2.06380648e-07 
 3.00000000e+01  1.20000000e+00  3.00000000e+01  0.00000000e+00  3.00000000e+01  1.20000000e+00  3.00000000e+01  0.00000000e+00  3.00000000e+01  0.00000000e+00  3.00000000e+01  6.62838987e-09  3.00000000e+01 -3.36450008e-07  3.00000000e+01  6.62838987e-09  3.00000000e+01  3.23193229e-07 
 1.00000000e+02  1.20000000e+00  1.00000000e+02  0.00000000e+00  1.00000000e+02  1.20000000e+00  1.00000000e+02  0.00000000e+00  1.00000000e+02  0.00000000e+00  1.00000000e+02  6.62839003e-09  1.00000000e+02 -2.91205506e-07  1.00000000e+02  6.62839003e-09  1.00000000e+02  2.77948726e-07 
