Title: *pmos off - w4
Date: Tue Feb 15 20:35:05  2022
Plotname: DC transfer characteristic
Flags: real
No. Variables: 10
No. Points: 2
Variables:
	0	temp-sweep	temp-sweep
	1	abs(v(alim))	voltage
	2	v(drain)	voltage
	3	v(gate)	voltage
	4	v(source)	voltage
	5	v(body)	voltage
	6	i(i(vd))	current
	7	i(i(vg))	current
	8	i(i(vs))	current
	9	i(i(vb))	current
Values:
 0	3.000000000000000e+01
	5.000000000000000e-02
	0.000000000000000e+00
	5.000000000000000e-02
	0.000000000000000e+00
	0.000000000000000e+00
	1.737999704371179e-11
	-3.476016696701834e-11
	1.737999704371179e-11
	2.121733887034955e-16

 1	1.000000000000000e+02
	5.000000000000000e-02
	0.000000000000000e+00
	5.000000000000000e-02
	0.000000000000000e+00
	0.000000000000000e+00
	1.738200978677176e-11
	-3.476663401613678e-11
	1.738200978677176e-11
	2.592841382837796e-15

Title: *pmos off - w4
Date: Tue Feb 15 20:35:05  2022
Plotname: DC transfer characteristic
Flags: real
No. Variables: 10
No. Points: 2
Variables:
	0	temp-sweep	temp-sweep
	1	abs(v(alim))	voltage
	2	v(drain)	voltage
	3	v(gate)	voltage
	4	v(source)	voltage
	5	v(body)	voltage
	6	i(i(vd))	current
	7	i(i(vg))	current
	8	i(i(vs))	current
	9	i(i(vb))	current
Values:
 0	3.000000000000000e+01
	1.000000000000000e-01
	0.000000000000000e+00
	1.000000000000000e-01
	0.000000000000000e+00
	0.000000000000000e+00
	2.148472035796441e-11
	-4.296984990048713e-11
	2.148472035796441e-11
	3.882483224133924e-16

 1	1.000000000000000e+02
	1.000000000000000e-01
	0.000000000000000e+00
	1.000000000000000e-01
	0.000000000000000e+00
	0.000000000000000e+00
	2.148559495200594e-11
	-4.297601163827380e-11
	2.148559495200592e-11
	4.805822674389905e-15

Title: *pmos off - w4
Date: Tue Feb 15 20:35:05  2022
Plotname: DC transfer characteristic
Flags: real
No. Variables: 10
No. Points: 2
Variables:
	0	temp-sweep	temp-sweep
	1	abs(v(alim))	voltage
	2	v(drain)	voltage
	3	v(gate)	voltage
	4	v(source)	voltage
	5	v(body)	voltage
	6	i(i(vd))	current
	7	i(i(vg))	current
	8	i(i(vs))	current
	9	i(i(vb))	current
Values:
 0	3.000000000000000e+01
	1.500000000000000e-01
	0.000000000000000e+00
	1.500000000000000e-01
	0.000000000000000e+00
	0.000000000000000e+00
	1.479744857910507e-11
	-2.959543721203772e-11
	1.479744857910507e-11
	5.316770986910679e-16

 1	1.000000000000000e+02
	1.500000000000000e-01
	0.000000000000000e+00
	1.500000000000000e-01
	0.000000000000000e+00
	0.000000000000000e+00
	1.479773032297057e-11
	-2.960209855018547e-11
	1.479773032297056e-11
	6.676539021784092e-15

Title: *pmos off - w4
Date: Tue Feb 15 20:35:05  2022
Plotname: DC transfer characteristic
Flags: real
No. Variables: 10
No. Points: 2
Variables:
	0	temp-sweep	temp-sweep
	1	abs(v(alim))	voltage
	2	v(drain)	voltage
	3	v(gate)	voltage
	4	v(source)	voltage
	5	v(body)	voltage
	6	i(i(vd))	current
	7	i(i(vg))	current
	8	i(i(vs))	current
	9	i(i(vb))	current
Values:
 0	3.000000000000000e+01
	2.000000000000000e-01
	0.000000000000000e+00
	2.000000000000000e-01
	0.000000000000000e+00
	0.000000000000000e+00
	4.161686862219171e-12
	-8.323897127127111e-12
	4.161686862219168e-12
	6.455339631302197e-16

 1	1.000000000000000e+02
	2.000000000000000e-01
	0.000000000000000e+00
	2.000000000000000e-01
	0.000000000000000e+00
	0.000000000000000e+00
	4.161766912229520e-12
	-8.331779710601950e-12
	4.161766912229495e-12
	8.231683378717366e-15

Title: *pmos off - w4
Date: Tue Feb 15 20:35:05  2022
Plotname: DC transfer characteristic
Flags: real
No. Variables: 10
No. Points: 2
Variables:
	0	temp-sweep	temp-sweep
	1	abs(v(alim))	voltage
	2	v(drain)	voltage
	3	v(gate)	voltage
	4	v(source)	voltage
	5	v(body)	voltage
	6	i(i(vd))	current
	7	i(i(vg))	current
	8	i(i(vs))	current
	9	i(i(vb))	current
Values:
 0	3.000000000000000e+01
	2.500000000000000e-01
	0.000000000000000e+00
	2.500000000000000e-01
	0.000000000000000e+00
	0.000000000000000e+00
	2.837581848374077e-11
	-5.675238057278875e-11
	2.837581848374077e-11
	7.329225691949716e-16

 1	1.000000000000000e+02
	2.500000000000000e-01
	0.000000000000000e+00
	2.500000000000000e-01
	0.000000000000000e+00
	0.000000000000000e+00
	2.837583969233282e-11
	-5.676126235698575e-11
	2.837583969233280e-11
	9.501041865830090e-15

Title: *pmos off - w4
Date: Tue Feb 15 20:35:05  2022
Plotname: DC transfer characteristic
Flags: real
No. Variables: 10
No. Points: 2
Variables:
	0	temp-sweep	temp-sweep
	1	abs(v(alim))	voltage
	2	v(drain)	voltage
	3	v(gate)	voltage
	4	v(source)	voltage
	5	v(body)	voltage
	6	i(i(vd))	current
	7	i(i(vg))	current
	8	i(i(vs))	current
	9	i(i(vb))	current
Values:
 0	3.000000000000000e+01
	3.000000000000000e-01
	0.000000000000000e+00
	3.000000000000000e-01
	0.000000000000000e+00
	0.000000000000000e+00
	6.958817867456838e-11
	-1.391771142777998e-10
	6.958817867456836e-11
	7.983818986074988e-16

 1	1.000000000000000e+02
	3.000000000000000e-01
	0.000000000000000e+00
	3.000000000000000e-01
	0.000000000000000e+00
	0.000000000000000e+00
	6.958818404866740e-11
	-1.391868842404165e-10
	6.958818404866734e-11
	1.054286285429182e-14

Title: *pmos off - w4
Date: Tue Feb 15 20:35:05  2022
Plotname: DC transfer characteristic
Flags: real
No. Variables: 10
No. Points: 2
Variables:
	0	temp-sweep	temp-sweep
	1	abs(v(alim))	voltage
	2	v(drain)	voltage
	3	v(gate)	voltage
	4	v(source)	voltage
	5	v(body)	voltage
	6	i(i(vd))	current
	7	i(i(vg))	current
	8	i(i(vs))	current
	9	i(i(vb))	current
Values:
 0	3.000000000000000e+01
	3.500000000000000e-01
	0.000000000000000e+00
	3.500000000000000e-01
	0.000000000000000e+00
	0.000000000000000e+00
	1.284599127567204e-10
	-2.569207069313961e-10
	1.284599127567204e-10
	8.586914968360496e-16

 1	1.000000000000000e+02
	3.500000000000000e-01
	0.000000000000000e+00
	3.500000000000000e-01
	0.000000000000000e+00
	0.000000000000000e+00
	1.284599140771176e-10
	-2.569313650724325e-10
	1.284599140771175e-10
	1.157296699829259e-14

Title: *pmos off - w4
Date: Tue Feb 15 20:35:05  2022
Plotname: DC transfer characteristic
Flags: real
No. Variables: 10
No. Points: 2
Variables:
	0	temp-sweep	temp-sweep
	1	abs(v(alim))	voltage
	2	v(drain)	voltage
	3	v(gate)	voltage
	4	v(source)	voltage
	5	v(body)	voltage
	6	i(i(vd))	current
	7	i(i(vg))	current
	8	i(i(vs))	current
	9	i(i(vb))	current
Values:
 0	3.000000000000000e+01
	4.000000000000000e-01
	0.000000000000000e+00
	4.000000000000000e-01
	0.000000000000000e+00
	0.000000000000000e+00
	2.079806048398923e-10
	-4.159621536103941e-10
	2.079806048398923e-10
	1.025911884720582e-15

 1	1.000000000000000e+02
	4.000000000000000e-01
	0.000000000000000e+00
	4.000000000000000e-01
	0.000000000000000e+00
	0.000000000000000e+00
	2.079806051570673e-10
	-4.159750321974798e-10
	2.079806051570673e-10
	1.365313565633158e-14

Title: *pmos off - w4
Date: Tue Feb 15 20:35:05  2022
Plotname: DC transfer characteristic
Flags: real
No. Variables: 10
No. Points: 2
Variables:
	0	temp-sweep	temp-sweep
	1	abs(v(alim))	voltage
	2	v(drain)	voltage
	3	v(gate)	voltage
	4	v(source)	voltage
	5	v(body)	voltage
	6	i(i(vd))	current
	7	i(i(vg))	current
	8	i(i(vs))	current
	9	i(i(vb))	current
Values:
 0	3.000000000000000e+01
	4.500000000000000e-01
	0.000000000000000e+00
	4.500000000000000e-01
	0.000000000000000e+00
	0.000000000000000e+00
	3.116033288500906e-10
	-6.232085958401967e-10
	3.116033288500905e-10
	2.138508574893242e-15

 1	1.000000000000000e+02
	4.500000000000000e-01
	0.000000000000000e+00
	4.500000000000000e-01
	0.000000000000000e+00
	0.000000000000000e+00
	3.116033289249717e-10
	-6.232292459884547e-10
	3.116033289249717e-10
	2.232590323409826e-14

Title: *pmos off - w4
Date: Tue Feb 15 20:35:05  2022
Plotname: DC transfer characteristic
Flags: real
No. Variables: 10
No. Points: 2
Variables:
	0	temp-sweep	temp-sweep
	1	abs(v(alim))	voltage
	2	v(drain)	voltage
	3	v(gate)	voltage
	4	v(source)	voltage
	5	v(body)	voltage
	6	i(i(vd))	current
	7	i(i(vg))	current
	8	i(i(vs))	current
	9	i(i(vb))	current
Values:
 0	3.000000000000000e+01
	4.999999999999999e-01
	0.000000000000000e+00
	4.999999999999999e-01
	0.000000000000000e+00
	0.000000000000000e+00
	4.432376738673251e-10
	-8.864855516321768e-10
	4.432376738673251e-10
	1.051673982073728e-14

 1	1.000000000000000e+02
	4.999999999999999e-01
	0.000000000000000e+00
	4.999999999999999e-01
	0.000000000000000e+00
	0.000000000000000e+00
	4.432376738847332e-10
	-8.865419509618278e-10
	4.432376738847330e-10
	6.665469230262283e-14

Title: *pmos off - w4
Date: Tue Feb 15 20:35:05  2022
Plotname: DC transfer characteristic
Flags: real
No. Variables: 10
No. Points: 2
Variables:
	0	temp-sweep	temp-sweep
	1	abs(v(alim))	voltage
	2	v(drain)	voltage
	3	v(gate)	voltage
	4	v(source)	voltage
	5	v(body)	voltage
	6	i(i(vd))	current
	7	i(i(vg))	current
	8	i(i(vs))	current
	9	i(i(vb))	current
Values:
 0	3.000000000000000e+01
	5.499999999999999e-01
	0.000000000000000e+00
	5.499999999999999e-01
	0.000000000000000e+00
	0.000000000000000e+00
	6.072912542707100e-10
	-1.214655931391917e-09
	6.072912542707098e-10
	7.356417429718709e-14

 1	1.000000000000000e+02
	5.499999999999999e-01
	0.000000000000000e+00
	5.499999999999999e-01
	0.000000000000000e+00
	0.000000000000000e+00
	6.072912542745446e-10
	-1.214881084621311e-09
	6.072912542745439e-10
	2.983771285521139e-13

Title: *pmos off - w4
Date: Tue Feb 15 20:35:05  2022
Plotname: DC transfer characteristic
Flags: real
No. Variables: 10
No. Points: 2
Variables:
	0	temp-sweep	temp-sweep
	1	abs(v(alim))	voltage
	2	v(drain)	voltage
	3	v(gate)	voltage
	4	v(source)	voltage
	5	v(body)	voltage
	6	i(i(vd))	current
	7	i(i(vg))	current
	8	i(i(vs))	current
	9	i(i(vb))	current
Values:
 0	3.000000000000000e+01
	6.000000000000000e-01
	0.000000000000000e+00
	6.000000000000000e-01
	0.000000000000000e+00
	0.000000000000000e+00
	8.087222128793853e-10
	-1.617989298097200e-09
	8.087222128793820e-10
	5.451256911229999e-13

 1	1.000000000000000e+02
	6.000000000000000e-01
	0.000000000000000e+00
	6.000000000000000e-01
	0.000000000000000e+00
	0.000000000000000e+00
	8.087222128793386e-10
	-1.618950751236525e-09
	8.087222128793339e-10
	1.506128069592806e-12

Title: *pmos off - w4
Date: Tue Feb 15 20:35:05  2022
Plotname: DC transfer characteristic
Flags: real
No. Variables: 10
No. Points: 2
Variables:
	0	temp-sweep	temp-sweep
	1	abs(v(alim))	voltage
	2	v(drain)	voltage
	3	v(gate)	voltage
	4	v(source)	voltage
	5	v(body)	voltage
	6	i(i(vd))	current
	7	i(i(vg))	current
	8	i(i(vs))	current
	9	i(i(vb))	current
Values:
 0	3.000000000000000e+01
	6.500000000000000e-01
	0.000000000000000e+00
	6.500000000000000e-01
	0.000000000000000e+00
	0.000000000000000e+00
	1.053098622984057e-09
	-2.110255081788637e-09
	1.053098622984038e-09
	4.058069774703531e-12

 1	1.000000000000000e+02
	6.500000000000000e-01
	0.000000000000000e+00
	6.500000000000000e-01
	0.000000000000000e+00
	0.000000000000000e+00
	1.053098622979763e-09
	-2.113972108475082e-09
	1.053098622979740e-09
	7.775036522642824e-12

Title: *pmos off - w4
Date: Tue Feb 15 20:35:05  2022
Plotname: DC transfer characteristic
Flags: real
No. Variables: 10
No. Points: 2
Variables:
	0	temp-sweep	temp-sweep
	1	abs(v(alim))	voltage
	2	v(drain)	voltage
	3	v(gate)	voltage
	4	v(source)	voltage
	5	v(body)	voltage
	6	i(i(vd))	current
	7	i(i(vg))	current
	8	i(i(vs))	current
	9	i(i(vb))	current
Values:
 0	3.000000000000000e+01
	7.000000000000001e-01
	0.000000000000000e+00
	7.000000000000001e-01
	0.000000000000000e+00
	0.000000000000000e+00
	1.346664370428714e-09
	-2.723484104905083e-09
	1.346664370428570e-09
	3.015519637400180e-11

 1	1.000000000000000e+02
	7.000000000000001e-01
	0.000000000000000e+00
	7.000000000000001e-01
	0.000000000000000e+00
	0.000000000000000e+00
	1.346664370414174e-09
	-2.733535175991619e-09
	1.346664370414054e-09
	4.020636276355790e-11

Title: *pmos off - w4
Date: Tue Feb 15 20:35:05  2022
Plotname: DC transfer characteristic
Flags: real
No. Variables: 10
No. Points: 2
Variables:
	0	temp-sweep	temp-sweep
	1	abs(v(alim))	voltage
	2	v(drain)	voltage
	3	v(gate)	voltage
	4	v(source)	voltage
	5	v(body)	voltage
	6	i(i(vd))	current
	7	i(i(vg))	current
	8	i(i(vs))	current
	9	i(i(vb))	current
Values:
 0	3.000000000000000e+01
	7.500000000000001e-01
	0.000000000000000e+00
	7.500000000000001e-01
	0.000000000000000e+00
	0.000000000000000e+00
	1.696411829785711e-09
	-3.615461263706266e-09
	1.696411829784646e-09
	2.226377004999511e-10

 1	1.000000000000000e+02
	7.500000000000001e-01
	0.000000000000000e+00
	7.500000000000001e-01
	0.000000000000000e+00
	0.000000000000000e+00
	1.696411829812321e-09
	-3.599883946492355e-09
	1.696411829811703e-09
	2.070610601675577e-10

Title: *pmos off - w4
Date: Tue Feb 15 20:35:05  2022
Plotname: DC transfer characteristic
Flags: real
No. Variables: 10
No. Points: 2
Variables:
	0	temp-sweep	temp-sweep
	1	abs(v(alim))	voltage
	2	v(drain)	voltage
	3	v(gate)	voltage
	4	v(source)	voltage
	5	v(body)	voltage
	6	i(i(vd))	current
	7	i(i(vg))	current
	8	i(i(vs))	current
	9	i(i(vb))	current
Values:
 0	3.000000000000000e+01
	8.000000000000002e-01
	0.000000000000000e+00
	8.000000000000002e-01
	0.000000000000000e+00
	0.000000000000000e+00
	2.110161875281089e-09
	-5.797912372429437e-09
	2.110161875273540e-09
	1.577588942892659e-09

 1	1.000000000000000e+02
	8.000000000000002e-01
	0.000000000000000e+00
	8.000000000000002e-01
	0.000000000000000e+00
	0.000000000000000e+00
	2.110161876357723e-09
	-5.266771463396935e-09
	2.110161876354598e-09
	1.046447610939350e-09

Title: *pmos off - w4
Date: Tue Feb 15 20:35:05  2022
Plotname: DC transfer characteristic
Flags: real
No. Variables: 10
No. Points: 2
Variables:
	0	temp-sweep	temp-sweep
	1	abs(v(alim))	voltage
	2	v(drain)	voltage
	3	v(gate)	voltage
	4	v(source)	voltage
	5	v(body)	voltage
	6	i(i(vd))	current
	7	i(i(vg))	current
	8	i(i(vs))	current
	9	i(i(vb))	current
Values:
 0	3.000000000000000e+01
	8.500000000000002e-01
	0.000000000000000e+00
	8.500000000000002e-01
	0.000000000000000e+00
	0.000000000000000e+00
	2.596651874830347e-09
	-1.423893181140556e-08
	2.596651874787064e-09
	9.045627920553012e-09

 1	1.000000000000000e+02
	8.500000000000002e-01
	0.000000000000000e+00
	8.500000000000002e-01
	0.000000000000000e+00
	0.000000000000000e+00
	2.596651884741385e-09
	-1.007251304585566e-08
	2.596651884726812e-09
	4.879209771585371e-09

Title: *pmos off - w4
Date: Tue Feb 15 20:35:05  2022
Plotname: DC transfer characteristic
Flags: real
No. Variables: 10
No. Points: 2
Variables:
	0	temp-sweep	temp-sweep
	1	abs(v(alim))	voltage
	2	v(drain)	voltage
	3	v(gate)	voltage
	4	v(source)	voltage
	5	v(body)	voltage
	6	i(i(vd))	current
	7	i(i(vg))	current
	8	i(i(vs))	current
	9	i(i(vb))	current
Values:
 0	3.000000000000000e+01
	9.000000000000002e-01
	0.000000000000000e+00
	9.000000000000002e-01
	0.000000000000000e+00
	0.000000000000000e+00
	3.165632413002664e-09
	-3.738250464735415e-08
	3.165632412854084e-09
	3.105123935988887e-08

 1	1.000000000000000e+02
	9.000000000000002e-01
	0.000000000000000e+00
	9.000000000000002e-01
	0.000000000000000e+00
	0.000000000000000e+00
	3.165632449584192e-09
	-2.420629607868818e-08
	3.165632449530803e-09
	1.787503102794024e-08

Title: *pmos off - w4
Date: Tue Feb 15 20:35:05  2022
Plotname: DC transfer characteristic
Flags: real
No. Variables: 10
No. Points: 2
Variables:
	0	temp-sweep	temp-sweep
	1	abs(v(alim))	voltage
	2	v(drain)	voltage
	3	v(gate)	voltage
	4	v(source)	voltage
	5	v(body)	voltage
	6	i(i(vd))	current
	7	i(i(vg))	current
	8	i(i(vs))	current
	9	i(i(vb))	current
Values:
 0	3.000000000000000e+01
	9.500000000000003e-01
	0.000000000000000e+00
	9.500000000000003e-01
	0.000000000000000e+00
	0.000000000000000e+00
	3.827973591485773e-09
	-7.442099025922744e-08
	3.827973591166309e-09
	6.676504306885541e-08

 1	1.000000000000000e+02
	9.500000000000003e-01
	0.000000000000000e+00
	9.500000000000003e-01
	0.000000000000000e+00
	0.000000000000000e+00
	3.827973661183744e-09
	-5.281169279669484e-08
	3.827973661048873e-09
	4.515574626805266e-08

Title: *pmos off - w4
Date: Tue Feb 15 20:35:05  2022
Plotname: DC transfer characteristic
Flags: real
No. Variables: 10
No. Points: 2
Variables:
	0	temp-sweep	temp-sweep
	1	abs(v(alim))	voltage
	2	v(drain)	voltage
	3	v(gate)	voltage
	4	v(source)	voltage
	5	v(body)	voltage
	6	i(i(vd))	current
	7	i(i(vg))	current
	8	i(i(vs))	current
	9	i(i(vb))	current
Values:
 0	3.000000000000000e+01
	1.000000000000000e+00
	0.000000000000000e+00
	1.000000000000000e+00
	0.000000000000000e+00
	0.000000000000000e+00
	4.595781721053252e-09
	-1.224503174412916e-07
	4.595781720511324e-09
	1.132587535590486e-07

 1	1.000000000000000e+02
	1.000000000000000e+00
	0.000000000000000e+00
	1.000000000000000e+00
	0.000000000000000e+00
	0.000000000000000e+00
	4.595781825535420e-09
	-9.445462723078890e-08
	4.595781825280757e-09
	8.526306360504971e-08

Title: *pmos off - w4
Date: Tue Feb 15 20:35:05  2022
Plotname: DC transfer characteristic
Flags: real
No. Variables: 10
No. Points: 2
Variables:
	0	temp-sweep	temp-sweep
	1	abs(v(alim))	voltage
	2	v(drain)	voltage
	3	v(gate)	voltage
	4	v(source)	voltage
	5	v(body)	voltage
	6	i(i(vd))	current
	7	i(i(vg))	current
	8	i(i(vs))	current
	9	i(i(vb))	current
Values:
 0	3.000000000000000e+01
	1.050000000000000e+00
	0.000000000000000e+00
	1.050000000000000e+00
	0.000000000000000e+00
	0.000000000000000e+00
	5.482527406509682e-09
	-1.822707540455326e-07
	5.482527405690017e-09
	1.713056999778132e-07

 1	1.000000000000000e+02
	1.050000000000000e+00
	0.000000000000000e+00
	1.050000000000000e+00
	0.000000000000000e+00
	0.000000000000000e+00
	5.482527554477774e-09
	-1.478849611658006e-07
	5.482527554068830e-09
	1.369199064494341e-07

Title: *pmos off - w4
Date: Tue Feb 15 20:35:05  2022
Plotname: DC transfer characteristic
Flags: real
No. Variables: 10
No. Points: 2
Variables:
	0	temp-sweep	temp-sweep
	1	abs(v(alim))	voltage
	2	v(drain)	voltage
	3	v(gate)	voltage
	4	v(source)	voltage
	5	v(body)	voltage
	6	i(i(vd))	current
	7	i(i(vg))	current
	8	i(i(vs))	current
	9	i(i(vb))	current
Values:
 0	3.000000000000000e+01
	1.100000000000000e+00
	0.000000000000000e+00
	1.100000000000000e+00
	0.000000000000000e+00
	0.000000000000000e+00
	6.503186117439261e-09
	-2.561297662850848e-07
	6.503186116275983e-09
	2.431233929394685e-07

 1	1.000000000000000e+02
	1.100000000000000e+00
	0.000000000000000e+00
	1.100000000000000e+00
	0.000000000000000e+00
	0.000000000000000e+00
	6.503186324383735e-09
	-2.142880974886907e-07
	6.503186323782569e-09
	2.012817252976254e-07

Title: *pmos off - w4
Date: Tue Feb 15 20:35:05  2022
Plotname: DC transfer characteristic
Flags: real
No. Variables: 10
No. Points: 2
Variables:
	0	temp-sweep	temp-sweep
	1	abs(v(alim))	voltage
	2	v(drain)	voltage
	3	v(gate)	voltage
	4	v(source)	voltage
	5	v(body)	voltage
	6	i(i(vd))	current
	7	i(i(vg))	current
	8	i(i(vs))	current
	9	i(i(vb))	current
Values:
 0	3.000000000000000e+01
	1.150000000000000e+00
	0.000000000000000e+00
	1.150000000000000e+00
	0.000000000000000e+00
	0.000000000000000e+00
	7.674392381419157e-09
	-3.468203502166034e-07
	7.674392379833189e-09
	3.314715645780836e-07

 1	1.000000000000000e+02
	1.150000000000000e+00
	0.000000000000000e+00
	1.150000000000000e+00
	0.000000000000000e+00
	0.000000000000000e+00
	7.674392669344226e-09
	-2.960231535453772e-07
	7.674392668505948e-09
	2.806743686705504e-07

Title: *pmos off - w4
Date: Tue Feb 15 20:35:05  2022
Plotname: DC transfer characteristic
Flags: real
No. Variables: 10
No. Points: 2
Variables:
	0	temp-sweep	temp-sweep
	1	abs(v(alim))	voltage
	2	v(drain)	voltage
	3	v(gate)	voltage
	4	v(source)	voltage
	5	v(body)	voltage
	6	i(i(vd))	current
	7	i(i(vg))	current
	8	i(i(vs))	current
	9	i(i(vb))	current
Values:
 0	3.000000000000000e+01
	1.200000000000000e+00
	0.000000000000000e+00
	1.200000000000000e+00
	0.000000000000000e+00
	0.000000000000000e+00
	9.014608861615265e-09
	-4.575649752425193e-07
	9.014608859512304e-09
	4.395357575416829e-07

 1	1.000000000000000e+02
	1.200000000000000e+00
	0.000000000000000e+00
	1.200000000000000e+00
	0.000000000000000e+00
	0.000000000000000e+00
	9.014609260241413e-09
	-3.960340322350930e-07
	9.014609259112464e-09
	3.780048129929474e-07

