  temp-sweep      abs(v(alim))    v(drain)        v(gate)         temp-sweep      v(source)       v(body)         i(vd)           temp-sweep      i(vg)           i(vs)           i(vb)
 3.00000000e+01  5.00000000e-02  3.00000000e+01  0.00000000e+00  3.00000000e+01  5.00000000e-02  3.00000000e+01  0.00000000e+00  3.00000000e+01  0.00000000e+00  3.00000000e+01  1.73799970e-11  3.00000000e+01 -3.47601670e-11  3.00000000e+01  1.73799970e-11  3.00000000e+01  2.12173389e-16 
 1.00000000e+02  5.00000000e-02  1.00000000e+02  0.00000000e+00  1.00000000e+02  5.00000000e-02  1.00000000e+02  0.00000000e+00  1.00000000e+02  0.00000000e+00  1.00000000e+02  1.73820098e-11  1.00000000e+02 -3.47666340e-11  1.00000000e+02  1.73820098e-11  1.00000000e+02  2.59284138e-15 
 3.00000000e+01  1.00000000e-01  3.00000000e+01  0.00000000e+00  3.00000000e+01  1.00000000e-01  3.00000000e+01  0.00000000e+00  3.00000000e+01  0.00000000e+00  3.00000000e+01  2.14847204e-11  3.00000000e+01 -4.29698499e-11  3.00000000e+01  2.14847204e-11  3.00000000e+01  3.88248322e-16 
 1.00000000e+02  1.00000000e-01  1.00000000e+02  0.00000000e+00  1.00000000e+02  1.00000000e-01  1.00000000e+02  0.00000000e+00  1.00000000e+02  0.00000000e+00  1.00000000e+02  2.14855950e-11  1.00000000e+02 -4.29760116e-11  1.00000000e+02  2.14855950e-11  1.00000000e+02  4.80582267e-15 
 3.00000000e+01  1.50000000e-01  3.00000000e+01  0.00000000e+00  3.00000000e+01  1.50000000e-01  3.00000000e+01  0.00000000e+00  3.00000000e+01  0.00000000e+00  3.00000000e+01  1.47974486e-11  3.00000000e+01 -2.95954372e-11  3.00000000e+01  1.47974486e-11  3.00000000e+01  5.31677099e-16 
 1.00000000e+02  1.50000000e-01  1.00000000e+02  0.00000000e+00  1.00000000e+02  1.50000000e-01  1.00000000e+02  0.00000000e+00  1.00000000e+02  0.00000000e+00  1.00000000e+02  1.47977303e-11  1.00000000e+02 -2.96020986e-11  1.00000000e+02  1.47977303e-11  1.00000000e+02  6.67653902e-15 
 3.00000000e+01  2.00000000e-01  3.00000000e+01  0.00000000e+00  3.00000000e+01  2.00000000e-01  3.00000000e+01  0.00000000e+00  3.00000000e+01  0.00000000e+00  3.00000000e+01  4.16168686e-12  3.00000000e+01 -8.32389713e-12  3.00000000e+01  4.16168686e-12  3.00000000e+01  6.45533963e-16 
 1.00000000e+02  2.00000000e-01  1.00000000e+02  0.00000000e+00  1.00000000e+02  2.00000000e-01  1.00000000e+02  0.00000000e+00  1.00000000e+02  0.00000000e+00  1.00000000e+02  4.16176691e-12  1.00000000e+02 -8.33177971e-12  1.00000000e+02  4.16176691e-12  1.00000000e+02  8.23168338e-15 
 3.00000000e+01  2.50000000e-01  3.00000000e+01  0.00000000e+00  3.00000000e+01  2.50000000e-01  3.00000000e+01  0.00000000e+00  3.00000000e+01  0.00000000e+00  3.00000000e+01  2.83758185e-11  3.00000000e+01 -5.67523806e-11  3.00000000e+01  2.83758185e-11  3.00000000e+01  7.32922569e-16 
 1.00000000e+02  2.50000000e-01  1.00000000e+02  0.00000000e+00  1.00000000e+02  2.50000000e-01  1.00000000e+02  0.00000000e+00  1.00000000e+02  0.00000000e+00  1.00000000e+02  2.83758397e-11  1.00000000e+02 -5.67612624e-11  1.00000000e+02  2.83758397e-11  1.00000000e+02  9.50104187e-15 
 3.00000000e+01  3.00000000e-01  3.00000000e+01  0.00000000e+00  3.00000000e+01  3.00000000e-01  3.00000000e+01  0.00000000e+00  3.00000000e+01  0.00000000e+00  3.00000000e+01  6.95881787e-11  3.00000000e+01 -1.39177114e-10  3.00000000e+01  6.95881787e-11  3.00000000e+01  7.98381899e-16 
 1.00000000e+02  3.00000000e-01  1.00000000e+02  0.00000000e+00  1.00000000e+02  3.00000000e-01  1.00000000e+02  0.00000000e+00  1.00000000e+02  0.00000000e+00  1.00000000e+02  6.95881840e-11  1.00000000e+02 -1.39186884e-10  1.00000000e+02  6.95881840e-11  1.00000000e+02  1.05428629e-14 
 3.00000000e+01  3.50000000e-01  3.00000000e+01  0.00000000e+00  3.00000000e+01  3.50000000e-01  3.00000000e+01  0.00000000e+00  3.00000000e+01  0.00000000e+00  3.00000000e+01  1.28459913e-10  3.00000000e+01 -2.56920707e-10  3.00000000e+01  1.28459913e-10  3.00000000e+01  8.58691497e-16 
 1.00000000e+02  3.50000000e-01  1.00000000e+02  0.00000000e+00  1.00000000e+02  3.50000000e-01  1.00000000e+02  0.00000000e+00  1.00000000e+02  0.00000000e+00  1.00000000e+02  1.28459914e-10  1.00000000e+02 -2.56931365e-10  1.00000000e+02  1.28459914e-10  1.00000000e+02  1.15729670e-14 
 3.00000000e+01  4.00000000e-01  3.00000000e+01  0.00000000e+00  3.00000000e+01  4.00000000e-01  3.00000000e+01  0.00000000e+00  3.00000000e+01  0.00000000e+00  3.00000000e+01  2.07980605e-10  3.00000000e+01 -4.15962154e-10  3.00000000e+01  2.07980605e-10  3.00000000e+01  1.02591188e-15 
 1.00000000e+02  4.00000000e-01  1.00000000e+02  0.00000000e+00  1.00000000e+02  4.00000000e-01  1.00000000e+02  0.00000000e+00  1.00000000e+02  0.00000000e+00  1.00000000e+02  2.07980605e-10  1.00000000e+02 -4.15975032e-10  1.00000000e+02  2.07980605e-10  1.00000000e+02  1.36531357e-14 
 3.00000000e+01  4.50000000e-01  3.00000000e+01  0.00000000e+00  3.00000000e+01  4.50000000e-01  3.00000000e+01  0.00000000e+00  3.00000000e+01  0.00000000e+00  3.00000000e+01  3.11603329e-10  3.00000000e+01 -6.23208596e-10  3.00000000e+01  3.11603329e-10  3.00000000e+01  2.13850857e-15 
 1.00000000e+02  4.50000000e-01  1.00000000e+02  0.00000000e+00  1.00000000e+02  4.50000000e-01  1.00000000e+02  0.00000000e+00  1.00000000e+02  0.00000000e+00  1.00000000e+02  3.11603329e-10  1.00000000e+02 -6.23229246e-10  1.00000000e+02  3.11603329e-10  1.00000000e+02  2.23259032e-14 
 3.00000000e+01  5.00000000e-01  3.00000000e+01  0.00000000e+00  3.00000000e+01  5.00000000e-01  3.00000000e+01  0.00000000e+00  3.00000000e+01  0.00000000e+00  3.00000000e+01  4.43237674e-10  3.00000000e+01 -8.86485552e-10  3.00000000e+01  4.43237674e-10  3.00000000e+01  1.05167398e-14 
 1.00000000e+02  5.00000000e-01  1.00000000e+02  0.00000000e+00  1.00000000e+02  5.00000000e-01  1.00000000e+02  0.00000000e+00  1.00000000e+02  0.00000000e+00  1.00000000e+02  4.43237674e-10  1.00000000e+02 -8.86541951e-10  1.00000000e+02  4.43237674e-10  1.00000000e+02  6.66546923e-14 
 3.00000000e+01  5.50000000e-01  3.00000000e+01  0.00000000e+00  3.00000000e+01  5.50000000e-01  3.00000000e+01  0.00000000e+00  3.00000000e+01  0.00000000e+00  3.00000000e+01  6.07291254e-10  3.00000000e+01 -1.21465593e-09  3.00000000e+01  6.07291254e-10  3.00000000e+01  7.35641743e-14 
 1.00000000e+02  5.50000000e-01  1.00000000e+02  0.00000000e+00  1.00000000e+02  5.50000000e-01  1.00000000e+02  0.00000000e+00  1.00000000e+02  0.00000000e+00  1.00000000e+02  6.07291254e-10  1.00000000e+02 -1.21488108e-09  1.00000000e+02  6.07291254e-10  1.00000000e+02  2.98377129e-13 
 3.00000000e+01  6.00000000e-01  3.00000000e+01  0.00000000e+00  3.00000000e+01  6.00000000e-01  3.00000000e+01  0.00000000e+00  3.00000000e+01  0.00000000e+00  3.00000000e+01  8.08722213e-10  3.00000000e+01 -1.61798930e-09  3.00000000e+01  8.08722213e-10  3.00000000e+01  5.45125691e-13 
 1.00000000e+02  6.00000000e-01  1.00000000e+02  0.00000000e+00  1.00000000e+02  6.00000000e-01  1.00000000e+02  0.00000000e+00  1.00000000e+02  0.00000000e+00  1.00000000e+02  8.08722213e-10  1.00000000e+02 -1.61895075e-09  1.00000000e+02  8.08722213e-10  1.00000000e+02  1.50612807e-12 
 3.00000000e+01  6.50000000e-01  3.00000000e+01  0.00000000e+00  3.00000000e+01  6.50000000e-01  3.00000000e+01  0.00000000e+00  3.00000000e+01  0.00000000e+00  3.00000000e+01  1.05309862e-09  3.00000000e+01 -2.11025508e-09  3.00000000e+01  1.05309862e-09  3.00000000e+01  4.05806977e-12 
 1.00000000e+02  6.50000000e-01  1.00000000e+02  0.00000000e+00  1.00000000e+02  6.50000000e-01  1.00000000e+02  0.00000000e+00  1.00000000e+02  0.00000000e+00  1.00000000e+02  1.05309862e-09  1.00000000e+02 -2.11397211e-09  1.00000000e+02  1.05309862e-09  1.00000000e+02  7.77503652e-12 
 3.00000000e+01  7.00000000e-01  3.00000000e+01  0.00000000e+00  3.00000000e+01  7.00000000e-01  3.00000000e+01  0.00000000e+00  3.00000000e+01  0.00000000e+00  3.00000000e+01  1.34666437e-09  3.00000000e+01 -2.72348410e-09  3.00000000e+01  1.34666437e-09  3.00000000e+01  3.01551964e-11 
 1.00000000e+02  7.00000000e-01  1.00000000e+02  0.00000000e+00  1.00000000e+02  7.00000000e-01  1.00000000e+02  0.00000000e+00  1.00000000e+02  0.00000000e+00  1.00000000e+02  1.34666437e-09  1.00000000e+02 -2.73353518e-09  1.00000000e+02  1.34666437e-09  1.00000000e+02  4.02063628e-11 
 3.00000000e+01  7.50000000e-01  3.00000000e+01  0.00000000e+00  3.00000000e+01  7.50000000e-01  3.00000000e+01  0.00000000e+00  3.00000000e+01  0.00000000e+00  3.00000000e+01  1.69641183e-09  3.00000000e+01 -3.61546126e-09  3.00000000e+01  1.69641183e-09  3.00000000e+01  2.22637700e-10 
 1.00000000e+02  7.50000000e-01  1.00000000e+02  0.00000000e+00  1.00000000e+02  7.50000000e-01  1.00000000e+02  0.00000000e+00  1.00000000e+02  0.00000000e+00  1.00000000e+02  1.69641183e-09  1.00000000e+02 -3.59988395e-09  1.00000000e+02  1.69641183e-09  1.00000000e+02  2.07061060e-10 
 3.00000000e+01  8.00000000e-01  3.00000000e+01  0.00000000e+00  3.00000000e+01  8.00000000e-01  3.00000000e+01  0.00000000e+00  3.00000000e+01  0.00000000e+00  3.00000000e+01  2.11016188e-09  3.00000000e+01 -5.79791237e-09  3.00000000e+01  2.11016188e-09  3.00000000e+01  1.57758894e-09 
 1.00000000e+02  8.00000000e-01  1.00000000e+02  0.00000000e+00  1.00000000e+02  8.00000000e-01  1.00000000e+02  0.00000000e+00  1.00000000e+02  0.00000000e+00  1.00000000e+02  2.11016188e-09  1.00000000e+02 -5.26677146e-09  1.00000000e+02  2.11016188e-09  1.00000000e+02  1.04644761e-09 
 3.00000000e+01  8.50000000e-01  3.00000000e+01  0.00000000e+00  3.00000000e+01  8.50000000e-01  3.00000000e+01  0.00000000e+00  3.00000000e+01  0.00000000e+00  3.00000000e+01  2.59665187e-09  3.00000000e+01 -1.42389318e-08  3.00000000e+01  2.59665187e-09  3.00000000e+01  9.04562792e-09 
 1.00000000e+02  8.50000000e-01  1.00000000e+02  0.00000000e+00  1.00000000e+02  8.50000000e-01  1.00000000e+02  0.00000000e+00  1.00000000e+02  0.00000000e+00  1.00000000e+02  2.59665188e-09  1.00000000e+02 -1.00725130e-08  1.00000000e+02  2.59665188e-09  1.00000000e+02  4.87920977e-09 
 3.00000000e+01  9.00000000e-01  3.00000000e+01  0.00000000e+00  3.00000000e+01  9.00000000e-01  3.00000000e+01  0.00000000e+00  3.00000000e+01  0.00000000e+00  3.00000000e+01  3.16563241e-09  3.00000000e+01 -3.73825046e-08  3.00000000e+01  3.16563241e-09  3.00000000e+01  3.10512394e-08 
 1.00000000e+02  9.00000000e-01  1.00000000e+02  0.00000000e+00  1.00000000e+02  9.00000000e-01  1.00000000e+02  0.00000000e+00  1.00000000e+02  0.00000000e+00  1.00000000e+02  3.16563245e-09  1.00000000e+02 -2.42062961e-08  1.00000000e+02  3.16563245e-09  1.00000000e+02  1.78750310e-08 
 3.00000000e+01  9.50000000e-01  3.00000000e+01  0.00000000e+00  3.00000000e+01  9.50000000e-01  3.00000000e+01  0.00000000e+00  3.00000000e+01  0.00000000e+00  3.00000000e+01  3.82797359e-09  3.00000000e+01 -7.44209903e-08  3.00000000e+01  3.82797359e-09  3.00000000e+01  6.67650431e-08 
 1.00000000e+02  9.50000000e-01  1.00000000e+02  0.00000000e+00  1.00000000e+02  9.50000000e-01  1.00000000e+02  0.00000000e+00  1.00000000e+02  0.00000000e+00  1.00000000e+02  3.82797366e-09  1.00000000e+02 -5.28116928e-08  1.00000000e+02  3.82797366e-09  1.00000000e+02  4.51557463e-08 
 3.00000000e+01  1.00000000e+00  3.00000000e+01  0.00000000e+00  3.00000000e+01  1.00000000e+00  3.00000000e+01  0.00000000e+00  3.00000000e+01  0.00000000e+00  3.00000000e+01  4.59578172e-09  3.00000000e+01 -1.22450317e-07  3.00000000e+01  4.59578172e-09  3.00000000e+01  1.13258754e-07 
 1.00000000e+02  1.00000000e+00  1.00000000e+02  0.00000000e+00  1.00000000e+02  1.00000000e+00  1.00000000e+02  0.00000000e+00  1.00000000e+02  0.00000000e+00  1.00000000e+02  4.59578183e-09  1.00000000e+02 -9.44546272e-08  1.00000000e+02  4.59578183e-09  1.00000000e+02  8.52630636e-08 
 3.00000000e+01  1.05000000e+00  3.00000000e+01  0.00000000e+00  3.00000000e+01  1.05000000e+00  3.00000000e+01  0.00000000e+00  3.00000000e+01  0.00000000e+00  3.00000000e+01  5.48252741e-09  3.00000000e+01 -1.82270754e-07  3.00000000e+01  5.48252741e-09  3.00000000e+01  1.71305700e-07 
 1.00000000e+02  1.05000000e+00  1.00000000e+02  0.00000000e+00  1.00000000e+02  1.05000000e+00  1.00000000e+02  0.00000000e+00  1.00000000e+02  0.00000000e+00  1.00000000e+02  5.48252755e-09  1.00000000e+02 -1.47884961e-07  1.00000000e+02  5.48252755e-09  1.00000000e+02  1.36919906e-07 
 3.00000000e+01  1.10000000e+00  3.00000000e+01  0.00000000e+00  3.00000000e+01  1.10000000e+00  3.00000000e+01  0.00000000e+00  3.00000000e+01  0.00000000e+00  3.00000000e+01  6.50318612e-09  3.00000000e+01 -2.56129766e-07  3.00000000e+01  6.50318612e-09  3.00000000e+01  2.43123393e-07 
 1.00000000e+02  1.10000000e+00  1.00000000e+02  0.00000000e+00  1.00000000e+02  1.10000000e+00  1.00000000e+02  0.00000000e+00  1.00000000e+02  0.00000000e+00  1.00000000e+02  6.50318632e-09  1.00000000e+02 -2.14288097e-07  1.00000000e+02  6.50318632e-09  1.00000000e+02  2.01281725e-07 
 3.00000000e+01  1.15000000e+00  3.00000000e+01  0.00000000e+00  3.00000000e+01  1.15000000e+00  3.00000000e+01  0.00000000e+00  3.00000000e+01  0.00000000e+00  3.00000000e+01  7.67439238e-09  3.00000000e+01 -3.46820350e-07  3.00000000e+01  7.67439238e-09  3.00000000e+01  3.31471565e-07 
 1.00000000e+02  1.15000000e+00  1.00000000e+02  0.00000000e+00  1.00000000e+02  1.15000000e+00  1.00000000e+02  0.00000000e+00  1.00000000e+02  0.00000000e+00  1.00000000e+02  7.67439267e-09  1.00000000e+02 -2.96023154e-07  1.00000000e+02  7.67439267e-09  1.00000000e+02  2.80674369e-07 
 3.00000000e+01  1.20000000e+00  3.00000000e+01  0.00000000e+00  3.00000000e+01  1.20000000e+00  3.00000000e+01  0.00000000e+00  3.00000000e+01  0.00000000e+00  3.00000000e+01  9.01460886e-09  3.00000000e+01 -4.57564975e-07  3.00000000e+01  9.01460886e-09  3.00000000e+01  4.39535758e-07 
 1.00000000e+02  1.20000000e+00  1.00000000e+02  0.00000000e+00  1.00000000e+02  1.20000000e+00  1.00000000e+02  0.00000000e+00  1.00000000e+02  0.00000000e+00  1.00000000e+02  9.01460926e-09  1.00000000e+02 -3.96034032e-07  1.00000000e+02  9.01460926e-09  1.00000000e+02  3.78004813e-07 
