Title: *pmos off - w6
Date: Tue Feb 15 20:35:07  2022
Plotname: DC transfer characteristic
Flags: real
No. Variables: 10
No. Points: 2
Variables:
	0	temp-sweep	temp-sweep
	1	abs(v(alim))	voltage
	2	v(drain)	voltage
	3	v(gate)	voltage
	4	v(source)	voltage
	5	v(body)	voltage
	6	i(i(vd))	current
	7	i(i(vg))	current
	8	i(i(vs))	current
	9	i(i(vb))	current
Values:
 0	3.000000000000000e+01
	5.000000000000000e-02
	0.000000000000000e+00
	5.000000000000000e-02
	0.000000000000000e+00
	0.000000000000000e+00
	2.658117194587775e-11
	-5.316266871169262e-11
	2.658117194587775e-11
	3.245004767847559e-16

 1	1.000000000000000e+02
	5.000000000000000e-02
	0.000000000000000e+00
	5.000000000000000e-02
	0.000000000000000e+00
	0.000000000000000e+00
	2.658425025879272e-11
	-5.317246642988493e-11
	2.658425025879271e-11
	3.965522114145833e-15

Title: *pmos off - w6
Date: Tue Feb 15 20:35:07  2022
Plotname: DC transfer characteristic
Flags: real
No. Variables: 10
No. Points: 2
Variables:
	0	temp-sweep	temp-sweep
	1	abs(v(alim))	voltage
	2	v(drain)	voltage
	3	v(gate)	voltage
	4	v(source)	voltage
	5	v(body)	voltage
	6	i(i(vd))	current
	7	i(i(vg))	current
	8	i(i(vs))	current
	9	i(i(vb))	current
Values:
 0	3.000000000000000e+01
	1.000000000000000e-01
	0.000000000000000e+00
	1.000000000000000e-01
	0.000000000000000e+00
	0.000000000000000e+00
	3.285898407756387e-11
	-6.571859723081275e-11
	3.285898407756387e-11
	5.937915518519617e-16

 1	1.000000000000000e+02
	1.000000000000000e-01
	0.000000000000000e+00
	1.000000000000000e-01
	0.000000000000000e+00
	0.000000000000000e+00
	3.286032169198079e-11
	-6.572803412652206e-11
	3.286032169198077e-11
	7.350081736483990e-15

Title: *pmos off - w6
Date: Tue Feb 15 20:35:07  2022
Plotname: DC transfer characteristic
Flags: real
No. Variables: 10
No. Points: 2
Variables:
	0	temp-sweep	temp-sweep
	1	abs(v(alim))	voltage
	2	v(drain)	voltage
	3	v(gate)	voltage
	4	v(source)	voltage
	5	v(body)	voltage
	6	i(i(vd))	current
	7	i(i(vg))	current
	8	i(i(vs))	current
	9	i(i(vb))	current
Values:
 0	3.000000000000000e+01
	1.500000000000000e-01
	0.000000000000000e+00
	1.500000000000000e-01
	0.000000000000000e+00
	0.000000000000000e+00
	2.263139194759682e-11
	-4.526357066936271e-11
	2.263139194759680e-11
	8.131532097495381e-16

 1	1.000000000000000e+02
	1.500000000000000e-01
	0.000000000000000e+00
	1.500000000000000e-01
	0.000000000000000e+00
	0.000000000000000e+00
	2.263182284998014e-11
	-4.527389574349172e-11
	2.263182284998010e-11
	1.021117732693082e-14

Title: *pmos off - w6
Date: Tue Feb 15 20:35:07  2022
Plotname: DC transfer characteristic
Flags: real
No. Variables: 10
No. Points: 2
Variables:
	0	temp-sweep	temp-sweep
	1	abs(v(alim))	voltage
	2	v(drain)	voltage
	3	v(gate)	voltage
	4	v(source)	voltage
	5	v(body)	voltage
	6	i(i(vd))	current
	7	i(i(vg))	current
	8	i(i(vs))	current
	9	i(i(vb))	current
Values:
 0	3.000000000000000e+01
	2.000000000000000e-01
	0.000000000000000e+00
	2.000000000000000e-01
	0.000000000000000e+00
	0.000000000000000e+00
	6.364932847521399e-12
	-1.273081640107421e-11
	6.364932847521393e-12
	9.872872377170876e-16

 1	1.000000000000000e+02
	2.000000000000000e-01
	0.000000000000000e+00
	2.000000000000000e-01
	0.000000000000000e+00
	0.000000000000000e+00
	6.365055276948465e-12
	-1.274280680974016e-11
	6.365055276948437e-12
	1.258963340264009e-14

Title: *pmos off - w6
Date: Tue Feb 15 20:35:07  2022
Plotname: DC transfer characteristic
Flags: real
No. Variables: 10
No. Points: 2
Variables:
	0	temp-sweep	temp-sweep
	1	abs(v(alim))	voltage
	2	v(drain)	voltage
	3	v(gate)	voltage
	4	v(source)	voltage
	5	v(body)	voltage
	6	i(i(vd))	current
	7	i(i(vg))	current
	8	i(i(vs))	current
	9	i(i(vb))	current
Values:
 0	3.000000000000000e+01
	2.500000000000000e-01
	0.000000000000000e+00
	2.500000000000000e-01
	0.000000000000000e+00
	0.000000000000000e+00
	4.339831060469068e-11
	-8.679790219900951e-11
	4.339831060469071e-11
	1.120940399876243e-15

 1	1.000000000000000e+02
	2.500000000000000e-01
	0.000000000000000e+00
	2.500000000000000e-01
	0.000000000000000e+00
	0.000000000000000e+00
	4.339834304135829e-11
	-8.681111385300255e-11
	4.339834304135828e-11
	1.453100520598013e-14

Title: *pmos off - w6
Date: Tue Feb 15 20:35:07  2022
Plotname: DC transfer characteristic
Flags: real
No. Variables: 10
No. Points: 2
Variables:
	0	temp-sweep	temp-sweep
	1	abs(v(alim))	voltage
	2	v(drain)	voltage
	3	v(gate)	voltage
	4	v(source)	voltage
	5	v(body)	voltage
	6	i(i(vd))	current
	7	i(i(vg))	current
	8	i(i(vs))	current
	9	i(i(vb))	current
Values:
 0	3.000000000000000e+01
	3.000000000000000e-01
	0.000000000000000e+00
	3.000000000000000e-01
	0.000000000000000e+00
	0.000000000000000e+00
	1.064289790852635e-10
	-2.128591747307951e-10
	1.064289790852635e-10
	1.221054668370319e-15

 1	1.000000000000000e+02
	3.000000000000000e-01
	0.000000000000000e+00
	3.000000000000000e-01
	0.000000000000000e+00
	0.000000000000000e+00
	1.064289873044694e-10
	-2.128740517193251e-10
	1.064289873044694e-10
	1.612437848195913e-14

Title: *pmos off - w6
Date: Tue Feb 15 20:35:07  2022
Plotname: DC transfer characteristic
Flags: real
No. Variables: 10
No. Points: 2
Variables:
	0	temp-sweep	temp-sweep
	1	abs(v(alim))	voltage
	2	v(drain)	voltage
	3	v(gate)	voltage
	4	v(source)	voltage
	5	v(body)	voltage
	6	i(i(vd))	current
	7	i(i(vg))	current
	8	i(i(vs))	current
	9	i(i(vb))	current
Values:
 0	3.000000000000000e+01
	3.500000000000000e-01
	0.000000000000000e+00
	3.500000000000000e-01
	0.000000000000000e+00
	0.000000000000000e+00
	1.964681016994471e-10
	-3.929376823919029e-10
	1.964681016994472e-10
	1.313292877475656e-15

 1	1.000000000000000e+02
	3.500000000000000e-01
	0.000000000000000e+00
	3.500000000000000e-01
	0.000000000000000e+00
	0.000000000000000e+00
	1.964681037188715e-10
	-3.929536696034575e-10
	1.964681037188714e-10
	1.769983187601026e-14

Title: *pmos off - w6
Date: Tue Feb 15 20:35:07  2022
Plotname: DC transfer characteristic
Flags: real
No. Variables: 10
No. Points: 2
Variables:
	0	temp-sweep	temp-sweep
	1	abs(v(alim))	voltage
	2	v(drain)	voltage
	3	v(gate)	voltage
	4	v(source)	voltage
	5	v(body)	voltage
	6	i(i(vd))	current
	7	i(i(vg))	current
	8	i(i(vs))	current
	9	i(i(vb))	current
Values:
 0	3.000000000000000e+01
	4.000000000000000e-01
	0.000000000000000e+00
	4.000000000000000e-01
	0.000000000000000e+00
	0.000000000000000e+00
	3.180879835214942e-10
	-6.361775550800530e-10
	3.180879835214943e-10
	1.569041703964310e-15

 1	1.000000000000000e+02
	4.000000000000000e-01
	0.000000000000000e+00
	4.000000000000000e-01
	0.000000000000000e+00
	0.000000000000000e+00
	3.180879840065750e-10
	-6.361968729606815e-10
	3.180879840065749e-10
	2.088126628321472e-14

Title: *pmos off - w6
Date: Tue Feb 15 20:35:07  2022
Plotname: DC transfer characteristic
Flags: real
No. Variables: 10
No. Points: 2
Variables:
	0	temp-sweep	temp-sweep
	1	abs(v(alim))	voltage
	2	v(drain)	voltage
	3	v(gate)	voltage
	4	v(source)	voltage
	5	v(body)	voltage
	6	i(i(vd))	current
	7	i(i(vg))	current
	8	i(i(vs))	current
	9	i(i(vb))	current
Values:
 0	3.000000000000000e+01
	4.500000000000000e-01
	0.000000000000000e+00
	4.500000000000000e-01
	0.000000000000000e+00
	0.000000000000000e+00
	4.765697963882301e-10
	-9.531428979414613e-10
	4.765697963882301e-10
	3.270660156877800e-15

 1	1.000000000000000e+02
	4.500000000000000e-01
	0.000000000000000e+00
	4.500000000000000e-01
	0.000000000000000e+00
	0.000000000000000e+00
	4.765697965027326e-10
	-9.531737621415459e-10
	4.765697965027324e-10
	3.414549896233841e-14

Title: *pmos off - w6
Date: Tue Feb 15 20:35:07  2022
Plotname: DC transfer characteristic
Flags: real
No. Variables: 10
No. Points: 2
Variables:
	0	temp-sweep	temp-sweep
	1	abs(v(alim))	voltage
	2	v(drain)	voltage
	3	v(gate)	voltage
	4	v(source)	voltage
	5	v(body)	voltage
	6	i(i(vd))	current
	7	i(i(vg))	current
	8	i(i(vs))	current
	9	i(i(vb))	current
Values:
 0	3.000000000000000e+01
	4.999999999999999e-01
	0.000000000000000e+00
	4.999999999999999e-01
	0.000000000000000e+00
	0.000000000000000e+00
	6.778929117631317e-10
	-1.355801693136982e-09
	6.778929117631317e-10
	1.608442544732959e-14

 1	1.000000000000000e+02
	4.999999999999999e-01
	0.000000000000000e+00
	4.999999999999999e-01
	0.000000000000000e+00
	0.000000000000000e+00
	6.778929117896799e-10
	-1.355887846443693e-09
	6.778929117896794e-10
	1.019424698307341e-13

Title: *pmos off - w6
Date: Tue Feb 15 20:35:07  2022
Plotname: DC transfer characteristic
Flags: real
No. Variables: 10
No. Points: 2
Variables:
	0	temp-sweep	temp-sweep
	1	abs(v(alim))	voltage
	2	v(drain)	voltage
	3	v(gate)	voltage
	4	v(source)	voltage
	5	v(body)	voltage
	6	i(i(vd))	current
	7	i(i(vg))	current
	8	i(i(vs))	current
	9	i(i(vb))	current
Values:
 0	3.000000000000000e+01
	5.499999999999999e-01
	0.000000000000000e+00
	5.499999999999999e-01
	0.000000000000000e+00
	0.000000000000000e+00
	9.287983868336271e-10
	-1.857709097663474e-09
	9.287983868336266e-10
	1.125099119725249e-13

 1	1.000000000000000e+02
	5.499999999999999e-01
	0.000000000000000e+00
	5.499999999999999e-01
	0.000000000000000e+00
	0.000000000000000e+00
	9.287983868391121e-10
	-1.858053488845712e-09
	9.287983868391111e-10
	4.563414853282303e-13

Title: *pmos off - w6
Date: Tue Feb 15 20:35:07  2022
Plotname: DC transfer characteristic
Flags: real
No. Variables: 10
No. Points: 2
Variables:
	0	temp-sweep	temp-sweep
	1	abs(v(alim))	voltage
	2	v(drain)	voltage
	3	v(gate)	voltage
	4	v(source)	voltage
	5	v(body)	voltage
	6	i(i(vd))	current
	7	i(i(vg))	current
	8	i(i(vs))	current
	9	i(i(vb))	current
Values:
 0	3.000000000000000e+01
	6.000000000000000e-01
	0.000000000000000e+00
	6.000000000000000e-01
	0.000000000000000e+00
	0.000000000000000e+00
	1.236869263422975e-09
	-2.474572102784123e-09
	1.236869263422970e-09
	8.337216285675722e-13

 1	1.000000000000000e+02
	6.000000000000000e-01
	0.000000000000000e+00
	6.000000000000000e-01
	0.000000000000000e+00
	0.000000000000000e+00
	1.236869263420925e-09
	-2.476041816024122e-09
	1.236869263420919e-09
	2.303489950234548e-12

Title: *pmos off - w6
Date: Tue Feb 15 20:35:07  2022
Plotname: DC transfer characteristic
Flags: real
No. Variables: 10
No. Points: 2
Variables:
	0	temp-sweep	temp-sweep
	1	abs(v(alim))	voltage
	2	v(drain)	voltage
	3	v(gate)	voltage
	4	v(source)	voltage
	5	v(body)	voltage
	6	i(i(vd))	current
	7	i(i(vg))	current
	8	i(i(vs))	current
	9	i(i(vb))	current
Values:
 0	3.000000000000000e+01
	6.500000000000000e-01
	0.000000000000000e+00
	6.500000000000000e-01
	0.000000000000000e+00
	0.000000000000000e+00
	1.610621418139123e-09
	-3.227449418830020e-09
	1.610621418139093e-09
	6.206459482506189e-12

 1	1.000000000000000e+02
	6.500000000000000e-01
	0.000000000000000e+00
	6.500000000000000e-01
	0.000000000000000e+00
	0.000000000000000e+00
	1.610621418123310e-09
	-3.233133982760705e-09
	1.610621418123281e-09
	1.189123203777338e-11

Title: *pmos off - w6
Date: Tue Feb 15 20:35:07  2022
Plotname: DC transfer characteristic
Flags: real
No. Variables: 10
No. Points: 2
Variables:
	0	temp-sweep	temp-sweep
	1	abs(v(alim))	voltage
	2	v(drain)	voltage
	3	v(gate)	voltage
	4	v(source)	voltage
	5	v(body)	voltage
	6	i(i(vd))	current
	7	i(i(vg))	current
	8	i(i(vs))	current
	9	i(i(vb))	current
Values:
 0	3.000000000000000e+01
	7.000000000000001e-01
	0.000000000000000e+00
	7.000000000000001e-01
	0.000000000000000e+00
	0.000000000000000e+00
	2.059604323141658e-09
	-4.165328526539724e-09
	2.059604323141438e-09
	4.611970983646672e-11

 1	1.000000000000000e+02
	7.000000000000001e-01
	0.000000000000000e+00
	7.000000000000001e-01
	0.000000000000000e+00
	0.000000000000000e+00
	2.059604323089515e-09
	-4.180701118627894e-09
	2.059604323089360e-09
	6.149208147770166e-11

Title: *pmos off - w6
Date: Tue Feb 15 20:35:07  2022
Plotname: DC transfer characteristic
Flags: real
No. Variables: 10
No. Points: 2
Variables:
	0	temp-sweep	temp-sweep
	1	abs(v(alim))	voltage
	2	v(drain)	voltage
	3	v(gate)	voltage
	4	v(source)	voltage
	5	v(body)	voltage
	6	i(i(vd))	current
	7	i(i(vg))	current
	8	i(i(vs))	current
	9	i(i(vb))	current
Values:
 0	3.000000000000000e+01
	7.500000000000001e-01
	0.000000000000000e+00
	7.500000000000001e-01
	0.000000000000000e+00
	0.000000000000000e+00
	2.594512197492364e-09
	-5.529529278902601e-09
	2.594512197490735e-09
	3.405046636485988e-10

 1	1.000000000000000e+02
	7.500000000000001e-01
	0.000000000000000e+00
	7.500000000000001e-01
	0.000000000000000e+00
	0.000000000000000e+00
	2.594512197588068e-09
	-5.505706557329404e-09
	2.594512197587275e-09
	3.166815817959641e-10

Title: *pmos off - w6
Date: Tue Feb 15 20:35:07  2022
Plotname: DC transfer characteristic
Flags: real
No. Variables: 10
No. Points: 2
Variables:
	0	temp-sweep	temp-sweep
	1	abs(v(alim))	voltage
	2	v(drain)	voltage
	3	v(gate)	voltage
	4	v(source)	voltage
	5	v(body)	voltage
	6	i(i(vd))	current
	7	i(i(vg))	current
	8	i(i(vs))	current
	9	i(i(vb))	current
Values:
 0	3.000000000000000e+01
	8.000000000000002e-01
	0.000000000000000e+00
	8.000000000000002e-01
	0.000000000000000e+00
	0.000000000000000e+00
	3.227306373341381e-09
	-8.867394374334481e-09
	3.227306373329836e-09
	2.412781014896083e-09

 1	1.000000000000000e+02
	8.000000000000002e-01
	0.000000000000000e+00
	8.000000000000002e-01
	0.000000000000000e+00
	0.000000000000000e+00
	3.227306377200113e-09
	-8.055061506695438e-09
	3.227306377196095e-09
	1.600448498289036e-09

Title: *pmos off - w6
Date: Tue Feb 15 20:35:07  2022
Plotname: DC transfer characteristic
Flags: real
No. Variables: 10
No. Points: 2
Variables:
	0	temp-sweep	temp-sweep
	1	abs(v(alim))	voltage
	2	v(drain)	voltage
	3	v(gate)	voltage
	4	v(source)	voltage
	5	v(body)	voltage
	6	i(i(vd))	current
	7	i(i(vg))	current
	8	i(i(vs))	current
	9	i(i(vb))	current
Values:
 0	3.000000000000000e+01
	8.500000000000002e-01
	0.000000000000000e+00
	8.500000000000002e-01
	0.000000000000000e+00
	0.000000000000000e+00
	3.971349856671297e-09
	-2.177713698259254e-08
	3.971349856605100e-09
	1.383443743476781e-08

 1	1.000000000000000e+02
	8.500000000000002e-01
	0.000000000000000e+00
	8.500000000000002e-01
	0.000000000000000e+00
	0.000000000000000e+00
	3.971349892177097e-09
	-1.540500615959672e-08
	3.971349892158367e-09
	7.462306173649380e-09

Title: *pmos off - w6
Date: Tue Feb 15 20:35:07  2022
Plotname: DC transfer characteristic
Flags: real
No. Variables: 10
No. Points: 2
Variables:
	0	temp-sweep	temp-sweep
	1	abs(v(alim))	voltage
	2	v(drain)	voltage
	3	v(gate)	voltage
	4	v(source)	voltage
	5	v(body)	voltage
	6	i(i(vd))	current
	7	i(i(vg))	current
	8	i(i(vs))	current
	9	i(i(vb))	current
Values:
 0	3.000000000000000e+01
	9.000000000000002e-01
	0.000000000000000e+00
	9.000000000000002e-01
	0.000000000000000e+00
	0.000000000000000e+00
	4.841555242165510e-09
	-5.717285800344030e-08
	4.841555241938276e-09
	4.748974749973765e-08

 1	1.000000000000000e+02
	9.000000000000002e-01
	0.000000000000000e+00
	9.000000000000002e-01
	0.000000000000000e+00
	0.000000000000000e+00
	4.841555373194466e-09
	-3.702124518056849e-08
	4.841555373125847e-09
	2.733813408755796e-08

Title: *pmos off - w6
Date: Tue Feb 15 20:35:07  2022
Plotname: DC transfer characteristic
Flags: real
No. Variables: 10
No. Points: 2
Variables:
	0	temp-sweep	temp-sweep
	1	abs(v(alim))	voltage
	2	v(drain)	voltage
	3	v(gate)	voltage
	4	v(source)	voltage
	5	v(body)	voltage
	6	i(i(vd))	current
	7	i(i(vg))	current
	8	i(i(vs))	current
	9	i(i(vb))	current
Values:
 0	3.000000000000000e+01
	9.500000000000003e-01
	0.000000000000000e+00
	9.500000000000003e-01
	0.000000000000000e+00
	0.000000000000000e+00
	5.854547353194531e-09
	-1.138191954019874e-07
	5.854547352705952e-09
	1.021101015908879e-07

 1	1.000000000000000e+02
	9.500000000000003e-01
	0.000000000000000e+00
	9.500000000000003e-01
	0.000000000000000e+00
	0.000000000000000e+00
	5.854547602826344e-09
	-8.077018431862371e-08
	5.854547602653002e-09
	6.906108929954753e-08

Title: *pmos off - w6
Date: Tue Feb 15 20:35:07  2022
Plotname: DC transfer characteristic
Flags: real
No. Variables: 10
No. Points: 2
Variables:
	0	temp-sweep	temp-sweep
	1	abs(v(alim))	voltage
	2	v(drain)	voltage
	3	v(gate)	voltage
	4	v(source)	voltage
	5	v(body)	voltage
	6	i(i(vd))	current
	7	i(i(vg))	current
	8	i(i(vs))	current
	9	i(i(vb))	current
Values:
 0	3.000000000000000e+01
	1.000000000000000e+00
	0.000000000000000e+00
	1.000000000000000e+00
	0.000000000000000e+00
	0.000000000000000e+00
	7.028841694394009e-09
	-1.872745150066635e-07
	7.028841693565212e-09
	1.732168312462860e-07

 1	1.000000000000000e+02
	1.000000000000000e+00
	0.000000000000000e+00
	1.000000000000000e+00
	0.000000000000000e+00
	0.000000000000000e+00
	7.028842068597366e-09
	-1.444583959120394e-07
	7.028842068270066e-09
	1.304007117395305e-07

Title: *pmos off - w6
Date: Tue Feb 15 20:35:07  2022
Plotname: DC transfer characteristic
Flags: real
No. Variables: 10
No. Points: 2
Variables:
	0	temp-sweep	temp-sweep
	1	abs(v(alim))	voltage
	2	v(drain)	voltage
	3	v(gate)	voltage
	4	v(source)	voltage
	5	v(body)	voltage
	6	i(i(vd))	current
	7	i(i(vg))	current
	8	i(i(vs))	current
	9	i(i(vb))	current
Values:
 0	3.000000000000000e+01
	1.050000000000000e+00
	0.000000000000000e+00
	1.050000000000000e+00
	0.000000000000000e+00
	0.000000000000000e+00
	8.385040306401708e-09
	-2.787624562294866e-07
	8.385040305148165e-09
	2.619923754745131e-07

 1	1.000000000000000e+02
	1.050000000000000e+00
	0.000000000000000e+00
	1.050000000000000e+00
	0.000000000000000e+00
	0.000000000000000e+00
	8.385040836325253e-09
	-2.261737246378459e-07
	8.385040835799671e-09
	2.094036428638439e-07

Title: *pmos off - w6
Date: Tue Feb 15 20:35:07  2022
Plotname: DC transfer characteristic
Flags: real
No. Variables: 10
No. Points: 2
Variables:
	0	temp-sweep	temp-sweep
	1	abs(v(alim))	voltage
	2	v(drain)	voltage
	3	v(gate)	voltage
	4	v(source)	voltage
	5	v(body)	voltage
	6	i(i(vd))	current
	7	i(i(vg))	current
	8	i(i(vs))	current
	9	i(i(vb))	current
Values:
 0	3.000000000000000e+01
	1.100000000000000e+00
	0.000000000000000e+00
	1.100000000000000e+00
	0.000000000000000e+00
	0.000000000000000e+00
	9.946046756969037e-09
	-3.917198578839987e-07
	9.946046755190020e-09
	3.718277642650086e-07

 1	1.000000000000000e+02
	1.100000000000000e+00
	0.000000000000000e+00
	1.100000000000000e+00
	0.000000000000000e+00
	0.000000000000000e+00
	9.946047498058045e-09
	-3.277287778935545e-07
	9.946047497285420e-09
	3.078366828168203e-07

Title: *pmos off - w6
Date: Tue Feb 15 20:35:07  2022
Plotname: DC transfer characteristic
Flags: real
No. Variables: 10
No. Points: 2
Variables:
	0	temp-sweep	temp-sweep
	1	abs(v(alim))	voltage
	2	v(drain)	voltage
	3	v(gate)	voltage
	4	v(source)	voltage
	5	v(body)	voltage
	6	i(i(vd))	current
	7	i(i(vg))	current
	8	i(i(vs))	current
	9	i(i(vb))	current
Values:
 0	3.000000000000000e+01
	1.150000000000000e+00
	0.000000000000000e+00
	1.150000000000000e+00
	0.000000000000000e+00
	0.000000000000000e+00
	1.173730196229235e-08
	-5.304177137510635e-07
	1.173730195986696e-08
	5.069431099485255e-07

 1	1.000000000000000e+02
	1.150000000000000e+00
	0.000000000000000e+00
	1.150000000000000e+00
	0.000000000000000e+00
	0.000000000000000e+00
	1.173730299329952e-08
	-4.527310770718884e-07
	1.173730299222217e-08
	4.292564715414069e-07

Title: *pmos off - w6
Date: Tue Feb 15 20:35:07  2022
Plotname: DC transfer characteristic
Flags: real
No. Variables: 10
No. Points: 2
Variables:
	0	temp-sweep	temp-sweep
	1	abs(v(alim))	voltage
	2	v(drain)	voltage
	3	v(gate)	voltage
	4	v(source)	voltage
	5	v(body)	voltage
	6	i(i(vd))	current
	7	i(i(vg))	current
	8	i(i(vs))	current
	9	i(i(vb))	current
Values:
 0	3.000000000000000e+01
	1.200000000000000e+00
	0.000000000000000e+00
	1.200000000000000e+00
	0.000000000000000e+00
	0.000000000000000e+00
	1.378704276678303e-08
	-6.997835719779744e-07
	1.378704276356706e-08
	6.722094864709025e-07

 1	1.000000000000000e+02
	1.200000000000000e+00
	0.000000000000000e+00
	1.200000000000000e+00
	0.000000000000000e+00
	0.000000000000000e+00
	1.378704419405742e-08
	-6.056822883238056e-07
	1.378704419260652e-08
	5.781082001266762e-07

