  temp-sweep      abs(v(alim))    v(drain)        v(gate)         temp-sweep      v(source)       v(body)         i(vd)           temp-sweep      i(vg)           i(vs)           i(vb)
 3.00000000e+01  5.00000000e-02  3.00000000e+01  0.00000000e+00  3.00000000e+01  5.00000000e-02  3.00000000e+01  0.00000000e+00  3.00000000e+01  0.00000000e+00  3.00000000e+01  2.65811719e-11  3.00000000e+01 -5.31626687e-11  3.00000000e+01  2.65811719e-11  3.00000000e+01  3.24500477e-16 
 1.00000000e+02  5.00000000e-02  1.00000000e+02  0.00000000e+00  1.00000000e+02  5.00000000e-02  1.00000000e+02  0.00000000e+00  1.00000000e+02  0.00000000e+00  1.00000000e+02  2.65842503e-11  1.00000000e+02 -5.31724664e-11  1.00000000e+02  2.65842503e-11  1.00000000e+02  3.96552211e-15 
 3.00000000e+01  1.00000000e-01  3.00000000e+01  0.00000000e+00  3.00000000e+01  1.00000000e-01  3.00000000e+01  0.00000000e+00  3.00000000e+01  0.00000000e+00  3.00000000e+01  3.28589841e-11  3.00000000e+01 -6.57185972e-11  3.00000000e+01  3.28589841e-11  3.00000000e+01  5.93791552e-16 
 1.00000000e+02  1.00000000e-01  1.00000000e+02  0.00000000e+00  1.00000000e+02  1.00000000e-01  1.00000000e+02  0.00000000e+00  1.00000000e+02  0.00000000e+00  1.00000000e+02  3.28603217e-11  1.00000000e+02 -6.57280341e-11  1.00000000e+02  3.28603217e-11  1.00000000e+02  7.35008174e-15 
 3.00000000e+01  1.50000000e-01  3.00000000e+01  0.00000000e+00  3.00000000e+01  1.50000000e-01  3.00000000e+01  0.00000000e+00  3.00000000e+01  0.00000000e+00  3.00000000e+01  2.26313919e-11  3.00000000e+01 -4.52635707e-11  3.00000000e+01  2.26313919e-11  3.00000000e+01  8.13153210e-16 
 1.00000000e+02  1.50000000e-01  1.00000000e+02  0.00000000e+00  1.00000000e+02  1.50000000e-01  1.00000000e+02  0.00000000e+00  1.00000000e+02  0.00000000e+00  1.00000000e+02  2.26318228e-11  1.00000000e+02 -4.52738957e-11  1.00000000e+02  2.26318228e-11  1.00000000e+02  1.02111773e-14 
 3.00000000e+01  2.00000000e-01  3.00000000e+01  0.00000000e+00  3.00000000e+01  2.00000000e-01  3.00000000e+01  0.00000000e+00  3.00000000e+01  0.00000000e+00  3.00000000e+01  6.36493285e-12  3.00000000e+01 -1.27308164e-11  3.00000000e+01  6.36493285e-12  3.00000000e+01  9.87287238e-16 
 1.00000000e+02  2.00000000e-01  1.00000000e+02  0.00000000e+00  1.00000000e+02  2.00000000e-01  1.00000000e+02  0.00000000e+00  1.00000000e+02  0.00000000e+00  1.00000000e+02  6.36505528e-12  1.00000000e+02 -1.27428068e-11  1.00000000e+02  6.36505528e-12  1.00000000e+02  1.25896334e-14 
 3.00000000e+01  2.50000000e-01  3.00000000e+01  0.00000000e+00  3.00000000e+01  2.50000000e-01  3.00000000e+01  0.00000000e+00  3.00000000e+01  0.00000000e+00  3.00000000e+01  4.33983106e-11  3.00000000e+01 -8.67979022e-11  3.00000000e+01  4.33983106e-11  3.00000000e+01  1.12094040e-15 
 1.00000000e+02  2.50000000e-01  1.00000000e+02  0.00000000e+00  1.00000000e+02  2.50000000e-01  1.00000000e+02  0.00000000e+00  1.00000000e+02  0.00000000e+00  1.00000000e+02  4.33983430e-11  1.00000000e+02 -8.68111139e-11  1.00000000e+02  4.33983430e-11  1.00000000e+02  1.45310052e-14 
 3.00000000e+01  3.00000000e-01  3.00000000e+01  0.00000000e+00  3.00000000e+01  3.00000000e-01  3.00000000e+01  0.00000000e+00  3.00000000e+01  0.00000000e+00  3.00000000e+01  1.06428979e-10  3.00000000e+01 -2.12859175e-10  3.00000000e+01  1.06428979e-10  3.00000000e+01  1.22105467e-15 
 1.00000000e+02  3.00000000e-01  1.00000000e+02  0.00000000e+00  1.00000000e+02  3.00000000e-01  1.00000000e+02  0.00000000e+00  1.00000000e+02  0.00000000e+00  1.00000000e+02  1.06428987e-10  1.00000000e+02 -2.12874052e-10  1.00000000e+02  1.06428987e-10  1.00000000e+02  1.61243785e-14 
 3.00000000e+01  3.50000000e-01  3.00000000e+01  0.00000000e+00  3.00000000e+01  3.50000000e-01  3.00000000e+01  0.00000000e+00  3.00000000e+01  0.00000000e+00  3.00000000e+01  1.96468102e-10  3.00000000e+01 -3.92937682e-10  3.00000000e+01  1.96468102e-10  3.00000000e+01  1.31329288e-15 
 1.00000000e+02  3.50000000e-01  1.00000000e+02  0.00000000e+00  1.00000000e+02  3.50000000e-01  1.00000000e+02  0.00000000e+00  1.00000000e+02  0.00000000e+00  1.00000000e+02  1.96468104e-10  1.00000000e+02 -3.92953670e-10  1.00000000e+02  1.96468104e-10  1.00000000e+02  1.76998319e-14 
 3.00000000e+01  4.00000000e-01  3.00000000e+01  0.00000000e+00  3.00000000e+01  4.00000000e-01  3.00000000e+01  0.00000000e+00  3.00000000e+01  0.00000000e+00  3.00000000e+01  3.18087984e-10  3.00000000e+01 -6.36177555e-10  3.00000000e+01  3.18087984e-10  3.00000000e+01  1.56904170e-15 
 1.00000000e+02  4.00000000e-01  1.00000000e+02  0.00000000e+00  1.00000000e+02  4.00000000e-01  1.00000000e+02  0.00000000e+00  1.00000000e+02  0.00000000e+00  1.00000000e+02  3.18087984e-10  1.00000000e+02 -6.36196873e-10  1.00000000e+02  3.18087984e-10  1.00000000e+02  2.08812663e-14 
 3.00000000e+01  4.50000000e-01  3.00000000e+01  0.00000000e+00  3.00000000e+01  4.50000000e-01  3.00000000e+01  0.00000000e+00  3.00000000e+01  0.00000000e+00  3.00000000e+01  4.76569796e-10  3.00000000e+01 -9.53142898e-10  3.00000000e+01  4.76569796e-10  3.00000000e+01  3.27066016e-15 
 1.00000000e+02  4.50000000e-01  1.00000000e+02  0.00000000e+00  1.00000000e+02  4.50000000e-01  1.00000000e+02  0.00000000e+00  1.00000000e+02  0.00000000e+00  1.00000000e+02  4.76569797e-10  1.00000000e+02 -9.53173762e-10  1.00000000e+02  4.76569797e-10  1.00000000e+02  3.41454990e-14 
 3.00000000e+01  5.00000000e-01  3.00000000e+01  0.00000000e+00  3.00000000e+01  5.00000000e-01  3.00000000e+01  0.00000000e+00  3.00000000e+01  0.00000000e+00  3.00000000e+01  6.77892912e-10  3.00000000e+01 -1.35580169e-09  3.00000000e+01  6.77892912e-10  3.00000000e+01  1.60844254e-14 
 1.00000000e+02  5.00000000e-01  1.00000000e+02  0.00000000e+00  1.00000000e+02  5.00000000e-01  1.00000000e+02  0.00000000e+00  1.00000000e+02  0.00000000e+00  1.00000000e+02  6.77892912e-10  1.00000000e+02 -1.35588785e-09  1.00000000e+02  6.77892912e-10  1.00000000e+02  1.01942470e-13 
 3.00000000e+01  5.50000000e-01  3.00000000e+01  0.00000000e+00  3.00000000e+01  5.50000000e-01  3.00000000e+01  0.00000000e+00  3.00000000e+01  0.00000000e+00  3.00000000e+01  9.28798387e-10  3.00000000e+01 -1.85770910e-09  3.00000000e+01  9.28798387e-10  3.00000000e+01  1.12509912e-13 
 1.00000000e+02  5.50000000e-01  1.00000000e+02  0.00000000e+00  1.00000000e+02  5.50000000e-01  1.00000000e+02  0.00000000e+00  1.00000000e+02  0.00000000e+00  1.00000000e+02  9.28798387e-10  1.00000000e+02 -1.85805349e-09  1.00000000e+02  9.28798387e-10  1.00000000e+02  4.56341485e-13 
 3.00000000e+01  6.00000000e-01  3.00000000e+01  0.00000000e+00  3.00000000e+01  6.00000000e-01  3.00000000e+01  0.00000000e+00  3.00000000e+01  0.00000000e+00  3.00000000e+01  1.23686926e-09  3.00000000e+01 -2.47457210e-09  3.00000000e+01  1.23686926e-09  3.00000000e+01  8.33721629e-13 
 1.00000000e+02  6.00000000e-01  1.00000000e+02  0.00000000e+00  1.00000000e+02  6.00000000e-01  1.00000000e+02  0.00000000e+00  1.00000000e+02  0.00000000e+00  1.00000000e+02  1.23686926e-09  1.00000000e+02 -2.47604182e-09  1.00000000e+02  1.23686926e-09  1.00000000e+02  2.30348995e-12 
 3.00000000e+01  6.50000000e-01  3.00000000e+01  0.00000000e+00  3.00000000e+01  6.50000000e-01  3.00000000e+01  0.00000000e+00  3.00000000e+01  0.00000000e+00  3.00000000e+01  1.61062142e-09  3.00000000e+01 -3.22744942e-09  3.00000000e+01  1.61062142e-09  3.00000000e+01  6.20645948e-12 
 1.00000000e+02  6.50000000e-01  1.00000000e+02  0.00000000e+00  1.00000000e+02  6.50000000e-01  1.00000000e+02  0.00000000e+00  1.00000000e+02  0.00000000e+00  1.00000000e+02  1.61062142e-09  1.00000000e+02 -3.23313398e-09  1.00000000e+02  1.61062142e-09  1.00000000e+02  1.18912320e-11 
 3.00000000e+01  7.00000000e-01  3.00000000e+01  0.00000000e+00  3.00000000e+01  7.00000000e-01  3.00000000e+01  0.00000000e+00  3.00000000e+01  0.00000000e+00  3.00000000e+01  2.05960432e-09  3.00000000e+01 -4.16532853e-09  3.00000000e+01  2.05960432e-09  3.00000000e+01  4.61197098e-11 
 1.00000000e+02  7.00000000e-01  1.00000000e+02  0.00000000e+00  1.00000000e+02  7.00000000e-01  1.00000000e+02  0.00000000e+00  1.00000000e+02  0.00000000e+00  1.00000000e+02  2.05960432e-09  1.00000000e+02 -4.18070112e-09  1.00000000e+02  2.05960432e-09  1.00000000e+02  6.14920815e-11 
 3.00000000e+01  7.50000000e-01  3.00000000e+01  0.00000000e+00  3.00000000e+01  7.50000000e-01  3.00000000e+01  0.00000000e+00  3.00000000e+01  0.00000000e+00  3.00000000e+01  2.59451220e-09  3.00000000e+01 -5.52952928e-09  3.00000000e+01  2.59451220e-09  3.00000000e+01  3.40504664e-10 
 1.00000000e+02  7.50000000e-01  1.00000000e+02  0.00000000e+00  1.00000000e+02  7.50000000e-01  1.00000000e+02  0.00000000e+00  1.00000000e+02  0.00000000e+00  1.00000000e+02  2.59451220e-09  1.00000000e+02 -5.50570656e-09  1.00000000e+02  2.59451220e-09  1.00000000e+02  3.16681582e-10 
 3.00000000e+01  8.00000000e-01  3.00000000e+01  0.00000000e+00  3.00000000e+01  8.00000000e-01  3.00000000e+01  0.00000000e+00  3.00000000e+01  0.00000000e+00  3.00000000e+01  3.22730637e-09  3.00000000e+01 -8.86739437e-09  3.00000000e+01  3.22730637e-09  3.00000000e+01  2.41278101e-09 
 1.00000000e+02  8.00000000e-01  1.00000000e+02  0.00000000e+00  1.00000000e+02  8.00000000e-01  1.00000000e+02  0.00000000e+00  1.00000000e+02  0.00000000e+00  1.00000000e+02  3.22730638e-09  1.00000000e+02 -8.05506151e-09  1.00000000e+02  3.22730638e-09  1.00000000e+02  1.60044850e-09 
 3.00000000e+01  8.50000000e-01  3.00000000e+01  0.00000000e+00  3.00000000e+01  8.50000000e-01  3.00000000e+01  0.00000000e+00  3.00000000e+01  0.00000000e+00  3.00000000e+01  3.97134986e-09  3.00000000e+01 -2.17771370e-08  3.00000000e+01  3.97134986e-09  3.00000000e+01  1.38344374e-08 
 1.00000000e+02  8.50000000e-01  1.00000000e+02  0.00000000e+00  1.00000000e+02  8.50000000e-01  1.00000000e+02  0.00000000e+00  1.00000000e+02  0.00000000e+00  1.00000000e+02  3.97134989e-09  1.00000000e+02 -1.54050062e-08  1.00000000e+02  3.97134989e-09  1.00000000e+02  7.46230617e-09 
 3.00000000e+01  9.00000000e-01  3.00000000e+01  0.00000000e+00  3.00000000e+01  9.00000000e-01  3.00000000e+01  0.00000000e+00  3.00000000e+01  0.00000000e+00  3.00000000e+01  4.84155524e-09  3.00000000e+01 -5.71728580e-08  3.00000000e+01  4.84155524e-09  3.00000000e+01  4.74897475e-08 
 1.00000000e+02  9.00000000e-01  1.00000000e+02  0.00000000e+00  1.00000000e+02  9.00000000e-01  1.00000000e+02  0.00000000e+00  1.00000000e+02  0.00000000e+00  1.00000000e+02  4.84155537e-09  1.00000000e+02 -3.70212452e-08  1.00000000e+02  4.84155537e-09  1.00000000e+02  2.73381341e-08 
 3.00000000e+01  9.50000000e-01  3.00000000e+01  0.00000000e+00  3.00000000e+01  9.50000000e-01  3.00000000e+01  0.00000000e+00  3.00000000e+01  0.00000000e+00  3.00000000e+01  5.85454735e-09  3.00000000e+01 -1.13819195e-07  3.00000000e+01  5.85454735e-09  3.00000000e+01  1.02110102e-07 
 1.00000000e+02  9.50000000e-01  1.00000000e+02  0.00000000e+00  1.00000000e+02  9.50000000e-01  1.00000000e+02  0.00000000e+00  1.00000000e+02  0.00000000e+00  1.00000000e+02  5.85454760e-09  1.00000000e+02 -8.07701843e-08  1.00000000e+02  5.85454760e-09  1.00000000e+02  6.90610893e-08 
 3.00000000e+01  1.00000000e+00  3.00000000e+01  0.00000000e+00  3.00000000e+01  1.00000000e+00  3.00000000e+01  0.00000000e+00  3.00000000e+01  0.00000000e+00  3.00000000e+01  7.02884169e-09  3.00000000e+01 -1.87274515e-07  3.00000000e+01  7.02884169e-09  3.00000000e+01  1.73216831e-07 
 1.00000000e+02  1.00000000e+00  1.00000000e+02  0.00000000e+00  1.00000000e+02  1.00000000e+00  1.00000000e+02  0.00000000e+00  1.00000000e+02  0.00000000e+00  1.00000000e+02  7.02884207e-09  1.00000000e+02 -1.44458396e-07  1.00000000e+02  7.02884207e-09  1.00000000e+02  1.30400712e-07 
 3.00000000e+01  1.05000000e+00  3.00000000e+01  0.00000000e+00  3.00000000e+01  1.05000000e+00  3.00000000e+01  0.00000000e+00  3.00000000e+01  0.00000000e+00  3.00000000e+01  8.38504031e-09  3.00000000e+01 -2.78762456e-07  3.00000000e+01  8.38504031e-09  3.00000000e+01  2.61992375e-07 
 1.00000000e+02  1.05000000e+00  1.00000000e+02  0.00000000e+00  1.00000000e+02  1.05000000e+00  1.00000000e+02  0.00000000e+00  1.00000000e+02  0.00000000e+00  1.00000000e+02  8.38504084e-09  1.00000000e+02 -2.26173725e-07  1.00000000e+02  8.38504084e-09  1.00000000e+02  2.09403643e-07 
 3.00000000e+01  1.10000000e+00  3.00000000e+01  0.00000000e+00  3.00000000e+01  1.10000000e+00  3.00000000e+01  0.00000000e+00  3.00000000e+01  0.00000000e+00  3.00000000e+01  9.94604676e-09  3.00000000e+01 -3.91719858e-07  3.00000000e+01  9.94604676e-09  3.00000000e+01  3.71827764e-07 
 1.00000000e+02  1.10000000e+00  1.00000000e+02  0.00000000e+00  1.00000000e+02  1.10000000e+00  1.00000000e+02  0.00000000e+00  1.00000000e+02  0.00000000e+00  1.00000000e+02  9.94604750e-09  1.00000000e+02 -3.27728778e-07  1.00000000e+02  9.94604750e-09  1.00000000e+02  3.07836683e-07 
 3.00000000e+01  1.15000000e+00  3.00000000e+01  0.00000000e+00  3.00000000e+01  1.15000000e+00  3.00000000e+01  0.00000000e+00  3.00000000e+01  0.00000000e+00  3.00000000e+01  1.17373020e-08  3.00000000e+01 -5.30417714e-07  3.00000000e+01  1.17373020e-08  3.00000000e+01  5.06943110e-07 
 1.00000000e+02  1.15000000e+00  1.00000000e+02  0.00000000e+00  1.00000000e+02  1.15000000e+00  1.00000000e+02  0.00000000e+00  1.00000000e+02  0.00000000e+00  1.00000000e+02  1.17373030e-08  1.00000000e+02 -4.52731077e-07  1.00000000e+02  1.17373030e-08  1.00000000e+02  4.29256472e-07 
 3.00000000e+01  1.20000000e+00  3.00000000e+01  0.00000000e+00  3.00000000e+01  1.20000000e+00  3.00000000e+01  0.00000000e+00  3.00000000e+01  0.00000000e+00  3.00000000e+01  1.37870428e-08  3.00000000e+01 -6.99783572e-07  3.00000000e+01  1.37870428e-08  3.00000000e+01  6.72209486e-07 
 1.00000000e+02  1.20000000e+00  1.00000000e+02  0.00000000e+00  1.00000000e+02  1.20000000e+00  1.00000000e+02  0.00000000e+00  1.00000000e+02  0.00000000e+00  1.00000000e+02  1.37870442e-08  1.00000000e+02 -6.05682288e-07  1.00000000e+02  1.37870442e-08  1.00000000e+02  5.78108200e-07 
