Title: *pmos off - w8
Date: Tue Feb 15 20:35:09  2022
Plotname: DC transfer characteristic
Flags: real
No. Variables: 10
No. Points: 2
Variables:
	0	temp-sweep	temp-sweep
	1	abs(v(alim))	voltage
	2	v(drain)	voltage
	3	v(gate)	voltage
	4	v(source)	voltage
	5	v(body)	voltage
	6	i(i(vd))	current
	7	i(i(vg))	current
	8	i(i(vs))	current
	9	i(i(vb))	current
Values:
 0	3.000000000000000e+01
	5.000000000000000e-02
	0.000000000000000e+00
	5.000000000000000e-02
	0.000000000000000e+00
	0.000000000000000e+00
	3.578234684386361e-11
	-7.156512882300348e-11
	3.578234684386361e-11
	4.368275647742492e-16

 1	1.000000000000000e+02
	5.000000000000000e-02
	0.000000000000000e+00
	5.000000000000000e-02
	0.000000000000000e+00
	0.000000000000000e+00
	3.578649072663323e-11
	-7.157829884363309e-11
	3.578649072663323e-11
	5.338202844486841e-15

Title: *pmos off - w8
Date: Tue Feb 15 20:35:09  2022
Plotname: DC transfer characteristic
Flags: real
No. Variables: 10
No. Points: 2
Variables:
	0	temp-sweep	temp-sweep
	1	abs(v(alim))	voltage
	2	v(drain)	voltage
	3	v(gate)	voltage
	4	v(source)	voltage
	5	v(body)	voltage
	6	i(i(vd))	current
	7	i(i(vg))	current
	8	i(i(vs))	current
	9	i(i(vb))	current
Values:
 0	3.000000000000000e+01
	1.000000000000000e-01
	0.000000000000000e+00
	1.000000000000000e-01
	0.000000000000000e+00
	0.000000000000000e+00
	4.423324779801378e-11
	-8.846731680556275e-11
	4.423324779801377e-11
	7.993347812268050e-16

 1	1.000000000000000e+02
	1.000000000000000e-01
	0.000000000000000e+00
	1.000000000000000e-01
	0.000000000000000e+00
	0.000000000000000e+00
	4.423504843280666e-11
	-8.847997334804347e-11
	4.423504843280664e-11
	9.894340797528856e-15

Title: *pmos off - w8
Date: Tue Feb 15 20:35:09  2022
Plotname: DC transfer characteristic
Flags: real
No. Variables: 10
No. Points: 2
Variables:
	0	temp-sweep	temp-sweep
	1	abs(v(alim))	voltage
	2	v(drain)	voltage
	3	v(gate)	voltage
	4	v(source)	voltage
	5	v(body)	voltage
	6	i(i(vd))	current
	7	i(i(vg))	current
	8	i(i(vs))	current
	9	i(i(vb))	current
Values:
 0	3.000000000000000e+01
	1.500000000000000e-01
	0.000000000000000e+00
	1.500000000000000e-01
	0.000000000000000e+00
	0.000000000000000e+00
	3.046533531996026e-11
	-6.093175963783892e-11
	3.046533531996029e-11
	1.094629320729270e-15

 1	1.000000000000000e+02
	1.500000000000000e-01
	0.000000000000000e+00
	1.500000000000000e-01
	0.000000000000000e+00
	0.000000000000000e+00
	3.046591538086241e-11
	-6.094558191449551e-11
	3.046591538086239e-11
	1.374581563151392e-14

Title: *pmos off - w8
Date: Tue Feb 15 20:35:09  2022
Plotname: DC transfer characteristic
Flags: real
No. Variables: 10
No. Points: 2
Variables:
	0	temp-sweep	temp-sweep
	1	abs(v(alim))	voltage
	2	v(drain)	voltage
	3	v(gate)	voltage
	4	v(source)	voltage
	5	v(body)	voltage
	6	i(i(vd))	current
	7	i(i(vg))	current
	8	i(i(vs))	current
	9	i(i(vb))	current
Values:
 0	3.000000000000000e+01
	2.000000000000000e-01
	0.000000000000000e+00
	2.000000000000000e-01
	0.000000000000000e+00
	0.000000000000000e+00
	8.568178832097120e-12
	-1.713768016387007e-11
	8.568178832097120e-12
	1.329040512289582e-15

 1	1.000000000000000e+02
	2.000000000000000e-01
	0.000000000000000e+00
	2.000000000000000e-01
	0.000000000000000e+00
	0.000000000000000e+00
	8.568343640940260e-12
	-1.715366737542467e-11
	8.568343640940233e-12
	1.694758342640861e-14

Title: *pmos off - w8
Date: Tue Feb 15 20:35:09  2022
Plotname: DC transfer characteristic
Flags: real
No. Variables: 10
No. Points: 2
Variables:
	0	temp-sweep	temp-sweep
	1	abs(v(alim))	voltage
	2	v(drain)	voltage
	3	v(gate)	voltage
	4	v(source)	voltage
	5	v(body)	voltage
	6	i(i(vd))	current
	7	i(i(vg))	current
	8	i(i(vs))	current
	9	i(i(vb))	current
Values:
 0	3.000000000000000e+01
	2.500000000000000e-01
	0.000000000000000e+00
	2.500000000000000e-01
	0.000000000000000e+00
	0.000000000000000e+00
	5.842080270366272e-11
	-1.168430907583229e-10
	5.842080270366277e-11
	1.508958230540836e-15

 1	1.000000000000000e+02
	2.500000000000000e-01
	0.000000000000000e+00
	2.500000000000000e-01
	0.000000000000000e+00
	0.000000000000000e+00
	5.842084636840228e-11
	-1.168612984159267e-10
	5.842084636840227e-11
	1.956096854530810e-14

Title: *pmos off - w8
Date: Tue Feb 15 20:35:09  2022
Plotname: DC transfer characteristic
Flags: real
No. Variables: 10
No. Points: 2
Variables:
	0	temp-sweep	temp-sweep
	1	abs(v(alim))	voltage
	2	v(drain)	voltage
	3	v(gate)	voltage
	4	v(source)	voltage
	5	v(body)	voltage
	6	i(i(vd))	current
	7	i(i(vg))	current
	8	i(i(vs))	current
	9	i(i(vb))	current
Values:
 0	3.000000000000000e+01
	3.000000000000000e-01
	0.000000000000000e+00
	3.000000000000000e-01
	0.000000000000000e+00
	0.000000000000000e+00
	1.432697794154903e-10
	-2.865412351837904e-10
	1.432697794154903e-10
	1.643727438070193e-15

 1	1.000000000000000e+02
	3.000000000000000e-01
	0.000000000000000e+00
	3.000000000000000e-01
	0.000000000000000e+00
	0.000000000000000e+00
	1.432697904797975e-10
	-2.865612191982336e-10
	1.432697904797974e-10
	2.170589410565437e-14

Title: *pmos off - w8
Date: Tue Feb 15 20:35:09  2022
Plotname: DC transfer characteristic
Flags: real
No. Variables: 10
No. Points: 2
Variables:
	0	temp-sweep	temp-sweep
	1	abs(v(alim))	voltage
	2	v(drain)	voltage
	3	v(gate)	voltage
	4	v(source)	voltage
	5	v(body)	voltage
	6	i(i(vd))	current
	7	i(i(vg))	current
	8	i(i(vs))	current
	9	i(i(vb))	current
Values:
 0	3.000000000000000e+01
	3.500000000000000e-01
	0.000000000000000e+00
	3.500000000000000e-01
	0.000000000000000e+00
	0.000000000000000e+00
	2.644762904365059e-10
	-5.289543247855022e-10
	2.644762904365060e-10
	1.767894257949523e-15

 1	1.000000000000000e+02
	3.500000000000000e-01
	0.000000000000000e+00
	3.500000000000000e-01
	0.000000000000000e+00
	0.000000000000000e+00
	2.644762931549481e-10
	-5.289765292459947e-10
	2.644762931549481e-10
	2.382669675019460e-14

Title: *pmos off - w8
Date: Tue Feb 15 20:35:09  2022
Plotname: DC transfer characteristic
Flags: real
No. Variables: 10
No. Points: 2
Variables:
	0	temp-sweep	temp-sweep
	1	abs(v(alim))	voltage
	2	v(drain)	voltage
	3	v(gate)	voltage
	4	v(source)	voltage
	5	v(body)	voltage
	6	i(i(vd))	current
	7	i(i(vg))	current
	8	i(i(vs))	current
	9	i(i(vb))	current
Values:
 0	3.000000000000000e+01
	4.000000000000000e-01
	0.000000000000000e+00
	4.000000000000000e-01
	0.000000000000000e+00
	0.000000000000000e+00
	4.281953617619514e-10
	-8.563929565497119e-10
	4.281953617619516e-10
	2.112171521636615e-15

 1	1.000000000000000e+02
	4.000000000000000e-01
	0.000000000000000e+00
	4.000000000000000e-01
	0.000000000000000e+00
	0.000000000000000e+00
	4.281953624149245e-10
	-8.564189357684882e-10
	4.281953624149243e-10
	2.810939689208559e-14

Title: *pmos off - w8
Date: Tue Feb 15 20:35:09  2022
Plotname: DC transfer characteristic
Flags: real
No. Variables: 10
No. Points: 2
Variables:
	0	temp-sweep	temp-sweep
	1	abs(v(alim))	voltage
	2	v(drain)	voltage
	3	v(gate)	voltage
	4	v(source)	voltage
	5	v(body)	voltage
	6	i(i(vd))	current
	7	i(i(vg))	current
	8	i(i(vs))	current
	9	i(i(vb))	current
Values:
 0	3.000000000000000e+01
	4.500000000000000e-01
	0.000000000000000e+00
	4.500000000000000e-01
	0.000000000000000e+00
	0.000000000000000e+00
	6.415362630766680e-10
	-1.283077200042726e-09
	6.415362630766676e-10
	4.402811721053109e-15

 1	1.000000000000000e+02
	4.500000000000000e-01
	0.000000000000000e+00
	4.500000000000000e-01
	0.000000000000000e+00
	0.000000000000000e+00
	6.415362632307647e-10
	-1.283118500339242e-09
	6.415362632307646e-10
	4.596509456413247e-14

Title: *pmos off - w8
Date: Tue Feb 15 20:35:09  2022
Plotname: DC transfer characteristic
Flags: real
No. Variables: 10
No. Points: 2
Variables:
	0	temp-sweep	temp-sweep
	1	abs(v(alim))	voltage
	2	v(drain)	voltage
	3	v(gate)	voltage
	4	v(source)	voltage
	5	v(body)	voltage
	6	i(i(vd))	current
	7	i(i(vg))	current
	8	i(i(vs))	current
	9	i(i(vb))	current
Values:
 0	3.000000000000000e+01
	4.999999999999999e-01
	0.000000000000000e+00
	4.999999999999999e-01
	0.000000000000000e+00
	0.000000000000000e+00
	9.125481481388725e-10
	-1.825117834641787e-09
	9.125481481388725e-10
	2.165211087372568e-14

 1	1.000000000000000e+02
	4.999999999999999e-01
	0.000000000000000e+00
	4.999999999999999e-01
	0.000000000000000e+00
	0.000000000000000e+00
	9.125481481744632e-10
	-1.825233741925558e-09
	9.125481481744630e-10
	1.372302464201162e-13

Title: *pmos off - w8
Date: Tue Feb 15 20:35:09  2022
Plotname: DC transfer characteristic
Flags: real
No. Variables: 10
No. Points: 2
Variables:
	0	temp-sweep	temp-sweep
	1	abs(v(alim))	voltage
	2	v(drain)	voltage
	3	v(gate)	voltage
	4	v(source)	voltage
	5	v(body)	voltage
	6	i(i(vd))	current
	7	i(i(vg))	current
	8	i(i(vs))	current
	9	i(i(vb))	current
Values:
 0	3.000000000000000e+01
	5.499999999999999e-01
	0.000000000000000e+00
	5.499999999999999e-01
	0.000000000000000e+00
	0.000000000000000e+00
	1.250305516820888e-09
	-2.500762708024240e-09
	1.250305516820888e-09
	1.514556475718898e-13

 1	1.000000000000000e+02
	5.499999999999999e-01
	0.000000000000000e+00
	5.499999999999999e-01
	0.000000000000000e+00
	0.000000000000000e+00
	1.250305516827549e-09
	-2.501225448980904e-09
	1.250305516827548e-09
	6.143058353503268e-13

Title: *pmos off - w8
Date: Tue Feb 15 20:35:09  2022
Plotname: DC transfer characteristic
Flags: real
No. Variables: 10
No. Points: 2
Variables:
	0	temp-sweep	temp-sweep
	1	abs(v(alim))	voltage
	2	v(drain)	voltage
	3	v(gate)	voltage
	4	v(source)	voltage
	5	v(body)	voltage
	6	i(i(vd))	current
	7	i(i(vg))	current
	8	i(i(vs))	current
	9	i(i(vb))	current
Values:
 0	3.000000000000000e+01
	6.000000000000000e-01
	0.000000000000000e+00
	6.000000000000000e-01
	0.000000000000000e+00
	0.000000000000000e+00
	1.665016309780013e-09
	-3.331154685426441e-09
	1.665016309780008e-09
	1.122317545197422e-12

 1	1.000000000000000e+02
	6.000000000000000e-01
	0.000000000000000e+00
	6.000000000000000e-01
	0.000000000000000e+00
	0.000000000000000e+00
	1.665016309773472e-09
	-3.333133546945533e-09
	1.665016309773466e-09
	3.100851783308565e-12

Title: *pmos off - w8
Date: Tue Feb 15 20:35:09  2022
Plotname: DC transfer characteristic
Flags: real
No. Variables: 10
No. Points: 2
Variables:
	0	temp-sweep	temp-sweep
	1	abs(v(alim))	voltage
	2	v(drain)	voltage
	3	v(gate)	voltage
	4	v(source)	voltage
	5	v(body)	voltage
	6	i(i(vd))	current
	7	i(i(vg))	current
	8	i(i(vs))	current
	9	i(i(vb))	current
Values:
 0	3.000000000000000e+01
	6.500000000000000e-01
	0.000000000000000e+00
	6.500000000000000e-01
	0.000000000000000e+00
	0.000000000000000e+00
	2.168144206703351e-09
	-4.344643311782193e-09
	2.168144206703312e-09
	8.354848980680037e-12

 1	1.000000000000000e+02
	6.500000000000000e-01
	0.000000000000000e+00
	6.500000000000000e-01
	0.000000000000000e+00
	0.000000000000000e+00
	2.168144206664413e-09
	-4.352295857046329e-09
	2.168144206664380e-09
	1.600742721012880e-11

Title: *pmos off - w8
Date: Tue Feb 15 20:35:09  2022
Plotname: DC transfer characteristic
Flags: real
No. Variables: 10
No. Points: 2
Variables:
	0	temp-sweep	temp-sweep
	1	abs(v(alim))	voltage
	2	v(drain)	voltage
	3	v(gate)	voltage
	4	v(source)	voltage
	5	v(body)	voltage
	6	i(i(vd))	current
	7	i(i(vg))	current
	8	i(i(vs))	current
	9	i(i(vb))	current
Values:
 0	3.000000000000000e+01
	7.000000000000001e-01
	0.000000000000000e+00
	7.000000000000001e-01
	0.000000000000000e+00
	0.000000000000000e+00
	2.772544265679655e-09
	-5.607172726129761e-09
	2.772544265679359e-09
	6.208422086980555e-11

 1	1.000000000000000e+02
	7.000000000000001e-01
	0.000000000000000e+00
	7.000000000000001e-01
	0.000000000000000e+00
	0.000000000000000e+00
	2.772544265552361e-09
	-5.627866395130354e-09
	2.772544265552192e-09
	8.277779734456830e-11

Title: *pmos off - w8
Date: Tue Feb 15 20:35:09  2022
Plotname: DC transfer characteristic
Flags: real
No. Variables: 10
No. Points: 2
Variables:
	0	temp-sweep	temp-sweep
	1	abs(v(alim))	voltage
	2	v(drain)	voltage
	3	v(gate)	voltage
	4	v(source)	voltage
	5	v(body)	voltage
	6	i(i(vd))	current
	7	i(i(vg))	current
	8	i(i(vs))	current
	9	i(i(vb))	current
Values:
 0	3.000000000000000e+01
	7.500000000000001e-01
	0.000000000000000e+00
	7.500000000000001e-01
	0.000000000000000e+00
	0.000000000000000e+00
	3.492612549164619e-09
	-7.443596850009726e-09
	3.492612549162425e-09
	4.583715805031148e-10

 1	1.000000000000000e+02
	7.500000000000001e-01
	0.000000000000000e+00
	7.500000000000001e-01
	0.000000000000000e+00
	0.000000000000000e+00
	3.492612549398507e-09
	-7.411527169765009e-09
	3.492612549397640e-09
	4.263020696112771e-10

Title: *pmos off - w8
Date: Tue Feb 15 20:35:09  2022
Plotname: DC transfer characteristic
Flags: real
No. Variables: 10
No. Points: 2
Variables:
	0	temp-sweep	temp-sweep
	1	abs(v(alim))	voltage
	2	v(drain)	voltage
	3	v(gate)	voltage
	4	v(source)	voltage
	5	v(body)	voltage
	6	i(i(vd))	current
	7	i(i(vg))	current
	8	i(i(vs))	current
	9	i(i(vb))	current
Values:
 0	3.000000000000000e+01
	8.000000000000002e-01
	0.000000000000000e+00
	8.000000000000002e-01
	0.000000000000000e+00
	0.000000000000000e+00
	4.344450841077140e-09
	-1.193687326761506e-08
	4.344450841061599e-09
	3.247971559940984e-09

 1	1.000000000000000e+02
	8.000000000000002e-01
	0.000000000000000e+00
	8.000000000000002e-01
	0.000000000000000e+00
	0.000000000000000e+00
	4.344450850495952e-09
	-1.084335066181552e-08
	4.344450850491573e-09
	2.154448793329859e-09

Title: *pmos off - w8
Date: Tue Feb 15 20:35:09  2022
Plotname: DC transfer characteristic
Flags: real
No. Variables: 10
No. Points: 2
Variables:
	0	temp-sweep	temp-sweep
	1	abs(v(alim))	voltage
	2	v(drain)	voltage
	3	v(gate)	voltage
	4	v(source)	voltage
	5	v(body)	voltage
	6	i(i(vd))	current
	7	i(i(vg))	current
	8	i(i(vs))	current
	9	i(i(vb))	current
Values:
 0	3.000000000000000e+01
	8.500000000000002e-01
	0.000000000000000e+00
	8.500000000000002e-01
	0.000000000000000e+00
	0.000000000000000e+00
	5.346047751183680e-09
	-2.931530507233049e-08
	5.346047751094571e-09
	1.862320969541992e-08

 1	1.000000000000000e+02
	8.500000000000002e-01
	0.000000000000000e+00
	8.500000000000002e-01
	0.000000000000000e+00
	0.000000000000000e+00
	5.346047837836881e-09
	-2.073748750497373e-08
	5.346047837816458e-09
	1.004539205739715e-08

Title: *pmos off - w8
Date: Tue Feb 15 20:35:09  2022
Plotname: DC transfer characteristic
Flags: real
No. Variables: 10
No. Points: 2
Variables:
	0	temp-sweep	temp-sweep
	1	abs(v(alim))	voltage
	2	v(drain)	voltage
	3	v(gate)	voltage
	4	v(source)	voltage
	5	v(body)	voltage
	6	i(i(vd))	current
	7	i(i(vg))	current
	8	i(i(vs))	current
	9	i(i(vb))	current
Values:
 0	3.000000000000000e+01
	9.000000000000002e-01
	0.000000000000000e+00
	9.000000000000002e-01
	0.000000000000000e+00
	0.000000000000000e+00
	6.517477803825285e-09
	-7.696294046510843e-08
	6.517477803519401e-09
	6.392798448838207e-08

 1	1.000000000000000e+02
	9.000000000000002e-01
	0.000000000000000e+00
	9.000000000000002e-01
	0.000000000000000e+00
	0.000000000000000e+00
	6.517478123586585e-09
	-4.983608770103842e-08
	6.517478123511760e-09
	3.680113170430317e-08

Title: *pmos off - w8
Date: Tue Feb 15 20:35:09  2022
Plotname: DC transfer characteristic
Flags: real
No. Variables: 10
No. Points: 2
Variables:
	0	temp-sweep	temp-sweep
	1	abs(v(alim))	voltage
	2	v(drain)	voltage
	3	v(gate)	voltage
	4	v(source)	voltage
	5	v(body)	voltage
	6	i(i(vd))	current
	7	i(i(vg))	current
	8	i(i(vs))	current
	9	i(i(vb))	current
Values:
 0	3.000000000000000e+01
	9.500000000000003e-01
	0.000000000000000e+00
	9.500000000000003e-01
	0.000000000000000e+00
	0.000000000000000e+00
	7.881120496294555e-09
	-1.532165954110098e-07
	7.881120495636870e-09
	1.374543543631872e-07

 1	1.000000000000000e+02
	9.500000000000003e-01
	0.000000000000000e+00
	9.500000000000003e-01
	0.000000000000000e+00
	0.000000000000000e+00
	7.881121105479178e-09
	-1.087282215372909e-07
	7.881121105290166e-09
	9.296597963903291e-08

Title: *pmos off - w8
Date: Tue Feb 15 20:35:09  2022
Plotname: DC transfer characteristic
Flags: real
No. Variables: 10
No. Points: 2
Variables:
	0	temp-sweep	temp-sweep
	1	abs(v(alim))	voltage
	2	v(drain)	voltage
	3	v(gate)	voltage
	4	v(source)	voltage
	5	v(body)	voltage
	6	i(i(vd))	current
	7	i(i(vg))	current
	8	i(i(vs))	current
	9	i(i(vb))	current
Values:
 0	3.000000000000000e+01
	1.000000000000000e+00
	0.000000000000000e+00
	1.000000000000000e+00
	0.000000000000000e+00
	0.000000000000000e+00
	9.461900490061526e-09
	-2.520969881736335e-07
	9.461900488945880e-09
	2.331731872876468e-07

 1	1.000000000000000e+02
	1.000000000000000e+00
	0.000000000000000e+00
	1.000000000000000e+00
	0.000000000000000e+00
	0.000000000000000e+00
	9.461901403229605e-09
	-1.944610179549500e-07
	9.461901402872718e-09
	1.755372151691233e-07

Title: *pmos off - w8
Date: Tue Feb 15 20:35:09  2022
Plotname: DC transfer characteristic
Flags: real
No. Variables: 10
No. Points: 2
Variables:
	0	temp-sweep	temp-sweep
	1	abs(v(alim))	voltage
	2	v(drain)	voltage
	3	v(gate)	voltage
	4	v(source)	voltage
	5	v(body)	voltage
	6	i(i(vd))	current
	7	i(i(vg))	current
	8	i(i(vs))	current
	9	i(i(vb))	current
Values:
 0	3.000000000000000e+01
	1.050000000000000e+00
	0.000000000000000e+00
	1.050000000000000e+00
	0.000000000000000e+00
	0.000000000000000e+00
	1.128755118521750e-08
	-3.752509232235468e-07
	1.128755118353013e-08
	3.526758207448377e-07

 1	1.000000000000000e+02
	1.050000000000000e+00
	0.000000000000000e+00
	1.050000000000000e+00
	0.000000000000000e+00
	0.000000000000000e+00
	1.128755247836406e-08
	-3.044601735169294e-07
	1.128755247779097e-08
	2.818850689787061e-07

Title: *pmos off - w8
Date: Tue Feb 15 20:35:09  2022
Plotname: DC transfer characteristic
Flags: real
No. Variables: 10
No. Points: 2
Variables:
	0	temp-sweep	temp-sweep
	1	abs(v(alim))	voltage
	2	v(drain)	voltage
	3	v(gate)	voltage
	4	v(source)	voltage
	5	v(body)	voltage
	6	i(i(vd))	current
	7	i(i(vg))	current
	8	i(i(vs))	current
	9	i(i(vb))	current
Values:
 0	3.000000000000000e+01
	1.100000000000000e+00
	0.000000000000000e+00
	1.100000000000000e+00
	0.000000000000000e+00
	0.000000000000000e+00
	1.338890413264905e-08
	-5.273042904541114e-07
	1.338890413025437e-08
	5.005264819832466e-07

 1	1.000000000000000e+02
	1.100000000000000e+00
	0.000000000000000e+00
	1.100000000000000e+00
	0.000000000000000e+00
	0.000000000000000e+00
	1.338890594104351e-08
	-4.411652492208873e-07
	1.338890594020105e-08
	4.143874373587597e-07

Title: *pmos off - w8
Date: Tue Feb 15 20:35:09  2022
Plotname: DC transfer characteristic
Flags: real
No. Variables: 10
No. Points: 2
Variables:
	0	temp-sweep	temp-sweep
	1	abs(v(alim))	voltage
	2	v(drain)	voltage
	3	v(gate)	voltage
	4	v(source)	voltage
	5	v(body)	voltage
	6	i(i(vd))	current
	7	i(i(vg))	current
	8	i(i(vs))	current
	9	i(i(vb))	current
Values:
 0	3.000000000000000e+01
	1.150000000000000e+00
	0.000000000000000e+00
	1.150000000000000e+00
	0.000000000000000e+00
	0.000000000000000e+00
	1.580020647899325e-08
	-7.140056150767293e-07
	1.580020647572854e-08
	6.824052021306002e-07

 1	1.000000000000000e+02
	1.150000000000000e+00
	0.000000000000000e+00
	1.150000000000000e+00
	0.000000000000000e+00
	0.000000000000000e+00
	1.580020899475894e-08
	-6.094317881455424e-07
	1.580020899358422e-08
	5.778313708195625e-07

Title: *pmos off - w8
Date: Tue Feb 15 20:35:09  2022
Plotname: DC transfer characteristic
Flags: real
No. Variables: 10
No. Points: 2
Variables:
	0	temp-sweep	temp-sweep
	1	abs(v(alim))	voltage
	2	v(drain)	voltage
	3	v(gate)	voltage
	4	v(source)	voltage
	5	v(body)	voltage
	6	i(i(vd))	current
	7	i(i(vg))	current
	8	i(i(vs))	current
	9	i(i(vb))	current
Values:
 0	3.000000000000000e+01
	1.200000000000000e+00
	0.000000000000000e+00
	1.200000000000000e+00
	0.000000000000000e+00
	0.000000000000000e+00
	1.855946903670662e-08
	-9.419868667315257e-07
	1.855946903237786e-08
	9.048679291213671e-07

 1	1.000000000000000e+02
	1.200000000000000e+00
	0.000000000000000e+00
	1.200000000000000e+00
	0.000000000000000e+00
	0.000000000000000e+00
	1.855947251925187e-08
	-8.153186747961172e-07
	1.855947251766987e-08
	7.781997302582280e-07

