  temp-sweep      abs(v(alim))    v(drain)        v(gate)         temp-sweep      v(source)       v(body)         i(vd)           temp-sweep      i(vg)           i(vs)           i(vb)
 3.00000000e+01  5.00000000e-02  3.00000000e+01  0.00000000e+00  3.00000000e+01  5.00000000e-02  3.00000000e+01  0.00000000e+00  3.00000000e+01  0.00000000e+00  3.00000000e+01  3.57823468e-11  3.00000000e+01 -7.15651288e-11  3.00000000e+01  3.57823468e-11  3.00000000e+01  4.36827565e-16 
 1.00000000e+02  5.00000000e-02  1.00000000e+02  0.00000000e+00  1.00000000e+02  5.00000000e-02  1.00000000e+02  0.00000000e+00  1.00000000e+02  0.00000000e+00  1.00000000e+02  3.57864907e-11  1.00000000e+02 -7.15782988e-11  1.00000000e+02  3.57864907e-11  1.00000000e+02  5.33820284e-15 
 3.00000000e+01  1.00000000e-01  3.00000000e+01  0.00000000e+00  3.00000000e+01  1.00000000e-01  3.00000000e+01  0.00000000e+00  3.00000000e+01  0.00000000e+00  3.00000000e+01  4.42332478e-11  3.00000000e+01 -8.84673168e-11  3.00000000e+01  4.42332478e-11  3.00000000e+01  7.99334781e-16 
 1.00000000e+02  1.00000000e-01  1.00000000e+02  0.00000000e+00  1.00000000e+02  1.00000000e-01  1.00000000e+02  0.00000000e+00  1.00000000e+02  0.00000000e+00  1.00000000e+02  4.42350484e-11  1.00000000e+02 -8.84799733e-11  1.00000000e+02  4.42350484e-11  1.00000000e+02  9.89434080e-15 
 3.00000000e+01  1.50000000e-01  3.00000000e+01  0.00000000e+00  3.00000000e+01  1.50000000e-01  3.00000000e+01  0.00000000e+00  3.00000000e+01  0.00000000e+00  3.00000000e+01  3.04653353e-11  3.00000000e+01 -6.09317596e-11  3.00000000e+01  3.04653353e-11  3.00000000e+01  1.09462932e-15 
 1.00000000e+02  1.50000000e-01  1.00000000e+02  0.00000000e+00  1.00000000e+02  1.50000000e-01  1.00000000e+02  0.00000000e+00  1.00000000e+02  0.00000000e+00  1.00000000e+02  3.04659154e-11  1.00000000e+02 -6.09455819e-11  1.00000000e+02  3.04659154e-11  1.00000000e+02  1.37458156e-14 
 3.00000000e+01  2.00000000e-01  3.00000000e+01  0.00000000e+00  3.00000000e+01  2.00000000e-01  3.00000000e+01  0.00000000e+00  3.00000000e+01  0.00000000e+00  3.00000000e+01  8.56817883e-12  3.00000000e+01 -1.71376802e-11  3.00000000e+01  8.56817883e-12  3.00000000e+01  1.32904051e-15 
 1.00000000e+02  2.00000000e-01  1.00000000e+02  0.00000000e+00  1.00000000e+02  2.00000000e-01  1.00000000e+02  0.00000000e+00  1.00000000e+02  0.00000000e+00  1.00000000e+02  8.56834364e-12  1.00000000e+02 -1.71536674e-11  1.00000000e+02  8.56834364e-12  1.00000000e+02  1.69475834e-14 
 3.00000000e+01  2.50000000e-01  3.00000000e+01  0.00000000e+00  3.00000000e+01  2.50000000e-01  3.00000000e+01  0.00000000e+00  3.00000000e+01  0.00000000e+00  3.00000000e+01  5.84208027e-11  3.00000000e+01 -1.16843091e-10  3.00000000e+01  5.84208027e-11  3.00000000e+01  1.50895823e-15 
 1.00000000e+02  2.50000000e-01  1.00000000e+02  0.00000000e+00  1.00000000e+02  2.50000000e-01  1.00000000e+02  0.00000000e+00  1.00000000e+02  0.00000000e+00  1.00000000e+02  5.84208464e-11  1.00000000e+02 -1.16861298e-10  1.00000000e+02  5.84208464e-11  1.00000000e+02  1.95609685e-14 
 3.00000000e+01  3.00000000e-01  3.00000000e+01  0.00000000e+00  3.00000000e+01  3.00000000e-01  3.00000000e+01  0.00000000e+00  3.00000000e+01  0.00000000e+00  3.00000000e+01  1.43269779e-10  3.00000000e+01 -2.86541235e-10  3.00000000e+01  1.43269779e-10  3.00000000e+01  1.64372744e-15 
 1.00000000e+02  3.00000000e-01  1.00000000e+02  0.00000000e+00  1.00000000e+02  3.00000000e-01  1.00000000e+02  0.00000000e+00  1.00000000e+02  0.00000000e+00  1.00000000e+02  1.43269790e-10  1.00000000e+02 -2.86561219e-10  1.00000000e+02  1.43269790e-10  1.00000000e+02  2.17058941e-14 
 3.00000000e+01  3.50000000e-01  3.00000000e+01  0.00000000e+00  3.00000000e+01  3.50000000e-01  3.00000000e+01  0.00000000e+00  3.00000000e+01  0.00000000e+00  3.00000000e+01  2.64476290e-10  3.00000000e+01 -5.28954325e-10  3.00000000e+01  2.64476290e-10  3.00000000e+01  1.76789426e-15 
 1.00000000e+02  3.50000000e-01  1.00000000e+02  0.00000000e+00  1.00000000e+02  3.50000000e-01  1.00000000e+02  0.00000000e+00  1.00000000e+02  0.00000000e+00  1.00000000e+02  2.64476293e-10  1.00000000e+02 -5.28976529e-10  1.00000000e+02  2.64476293e-10  1.00000000e+02  2.38266968e-14 
 3.00000000e+01  4.00000000e-01  3.00000000e+01  0.00000000e+00  3.00000000e+01  4.00000000e-01  3.00000000e+01  0.00000000e+00  3.00000000e+01  0.00000000e+00  3.00000000e+01  4.28195362e-10  3.00000000e+01 -8.56392957e-10  3.00000000e+01  4.28195362e-10  3.00000000e+01  2.11217152e-15 
 1.00000000e+02  4.00000000e-01  1.00000000e+02  0.00000000e+00  1.00000000e+02  4.00000000e-01  1.00000000e+02  0.00000000e+00  1.00000000e+02  0.00000000e+00  1.00000000e+02  4.28195362e-10  1.00000000e+02 -8.56418936e-10  1.00000000e+02  4.28195362e-10  1.00000000e+02  2.81093969e-14 
 3.00000000e+01  4.50000000e-01  3.00000000e+01  0.00000000e+00  3.00000000e+01  4.50000000e-01  3.00000000e+01  0.00000000e+00  3.00000000e+01  0.00000000e+00  3.00000000e+01  6.41536263e-10  3.00000000e+01 -1.28307720e-09  3.00000000e+01  6.41536263e-10  3.00000000e+01  4.40281172e-15 
 1.00000000e+02  4.50000000e-01  1.00000000e+02  0.00000000e+00  1.00000000e+02  4.50000000e-01  1.00000000e+02  0.00000000e+00  1.00000000e+02  0.00000000e+00  1.00000000e+02  6.41536263e-10  1.00000000e+02 -1.28311850e-09  1.00000000e+02  6.41536263e-10  1.00000000e+02  4.59650946e-14 
 3.00000000e+01  5.00000000e-01  3.00000000e+01  0.00000000e+00  3.00000000e+01  5.00000000e-01  3.00000000e+01  0.00000000e+00  3.00000000e+01  0.00000000e+00  3.00000000e+01  9.12548148e-10  3.00000000e+01 -1.82511783e-09  3.00000000e+01  9.12548148e-10  3.00000000e+01  2.16521109e-14 
 1.00000000e+02  5.00000000e-01  1.00000000e+02  0.00000000e+00  1.00000000e+02  5.00000000e-01  1.00000000e+02  0.00000000e+00  1.00000000e+02  0.00000000e+00  1.00000000e+02  9.12548148e-10  1.00000000e+02 -1.82523374e-09  1.00000000e+02  9.12548148e-10  1.00000000e+02  1.37230246e-13 
 3.00000000e+01  5.50000000e-01  3.00000000e+01  0.00000000e+00  3.00000000e+01  5.50000000e-01  3.00000000e+01  0.00000000e+00  3.00000000e+01  0.00000000e+00  3.00000000e+01  1.25030552e-09  3.00000000e+01 -2.50076271e-09  3.00000000e+01  1.25030552e-09  3.00000000e+01  1.51455648e-13 
 1.00000000e+02  5.50000000e-01  1.00000000e+02  0.00000000e+00  1.00000000e+02  5.50000000e-01  1.00000000e+02  0.00000000e+00  1.00000000e+02  0.00000000e+00  1.00000000e+02  1.25030552e-09  1.00000000e+02 -2.50122545e-09  1.00000000e+02  1.25030552e-09  1.00000000e+02  6.14305835e-13 
 3.00000000e+01  6.00000000e-01  3.00000000e+01  0.00000000e+00  3.00000000e+01  6.00000000e-01  3.00000000e+01  0.00000000e+00  3.00000000e+01  0.00000000e+00  3.00000000e+01  1.66501631e-09  3.00000000e+01 -3.33115469e-09  3.00000000e+01  1.66501631e-09  3.00000000e+01  1.12231755e-12 
 1.00000000e+02  6.00000000e-01  1.00000000e+02  0.00000000e+00  1.00000000e+02  6.00000000e-01  1.00000000e+02  0.00000000e+00  1.00000000e+02  0.00000000e+00  1.00000000e+02  1.66501631e-09  1.00000000e+02 -3.33313355e-09  1.00000000e+02  1.66501631e-09  1.00000000e+02  3.10085178e-12 
 3.00000000e+01  6.50000000e-01  3.00000000e+01  0.00000000e+00  3.00000000e+01  6.50000000e-01  3.00000000e+01  0.00000000e+00  3.00000000e+01  0.00000000e+00  3.00000000e+01  2.16814421e-09  3.00000000e+01 -4.34464331e-09  3.00000000e+01  2.16814421e-09  3.00000000e+01  8.35484898e-12 
 1.00000000e+02  6.50000000e-01  1.00000000e+02  0.00000000e+00  1.00000000e+02  6.50000000e-01  1.00000000e+02  0.00000000e+00  1.00000000e+02  0.00000000e+00  1.00000000e+02  2.16814421e-09  1.00000000e+02 -4.35229586e-09  1.00000000e+02  2.16814421e-09  1.00000000e+02  1.60074272e-11 
 3.00000000e+01  7.00000000e-01  3.00000000e+01  0.00000000e+00  3.00000000e+01  7.00000000e-01  3.00000000e+01  0.00000000e+00  3.00000000e+01  0.00000000e+00  3.00000000e+01  2.77254427e-09  3.00000000e+01 -5.60717273e-09  3.00000000e+01  2.77254427e-09  3.00000000e+01  6.20842209e-11 
 1.00000000e+02  7.00000000e-01  1.00000000e+02  0.00000000e+00  1.00000000e+02  7.00000000e-01  1.00000000e+02  0.00000000e+00  1.00000000e+02  0.00000000e+00  1.00000000e+02  2.77254427e-09  1.00000000e+02 -5.62786640e-09  1.00000000e+02  2.77254427e-09  1.00000000e+02  8.27777973e-11 
 3.00000000e+01  7.50000000e-01  3.00000000e+01  0.00000000e+00  3.00000000e+01  7.50000000e-01  3.00000000e+01  0.00000000e+00  3.00000000e+01  0.00000000e+00  3.00000000e+01  3.49261255e-09  3.00000000e+01 -7.44359685e-09  3.00000000e+01  3.49261255e-09  3.00000000e+01  4.58371581e-10 
 1.00000000e+02  7.50000000e-01  1.00000000e+02  0.00000000e+00  1.00000000e+02  7.50000000e-01  1.00000000e+02  0.00000000e+00  1.00000000e+02  0.00000000e+00  1.00000000e+02  3.49261255e-09  1.00000000e+02 -7.41152717e-09  1.00000000e+02  3.49261255e-09  1.00000000e+02  4.26302070e-10 
 3.00000000e+01  8.00000000e-01  3.00000000e+01  0.00000000e+00  3.00000000e+01  8.00000000e-01  3.00000000e+01  0.00000000e+00  3.00000000e+01  0.00000000e+00  3.00000000e+01  4.34445084e-09  3.00000000e+01 -1.19368733e-08  3.00000000e+01  4.34445084e-09  3.00000000e+01  3.24797156e-09 
 1.00000000e+02  8.00000000e-01  1.00000000e+02  0.00000000e+00  1.00000000e+02  8.00000000e-01  1.00000000e+02  0.00000000e+00  1.00000000e+02  0.00000000e+00  1.00000000e+02  4.34445085e-09  1.00000000e+02 -1.08433507e-08  1.00000000e+02  4.34445085e-09  1.00000000e+02  2.15444879e-09 
 3.00000000e+01  8.50000000e-01  3.00000000e+01  0.00000000e+00  3.00000000e+01  8.50000000e-01  3.00000000e+01  0.00000000e+00  3.00000000e+01  0.00000000e+00  3.00000000e+01  5.34604775e-09  3.00000000e+01 -2.93153051e-08  3.00000000e+01  5.34604775e-09  3.00000000e+01  1.86232097e-08 
 1.00000000e+02  8.50000000e-01  1.00000000e+02  0.00000000e+00  1.00000000e+02  8.50000000e-01  1.00000000e+02  0.00000000e+00  1.00000000e+02  0.00000000e+00  1.00000000e+02  5.34604784e-09  1.00000000e+02 -2.07374875e-08  1.00000000e+02  5.34604784e-09  1.00000000e+02  1.00453921e-08 
 3.00000000e+01  9.00000000e-01  3.00000000e+01  0.00000000e+00  3.00000000e+01  9.00000000e-01  3.00000000e+01  0.00000000e+00  3.00000000e+01  0.00000000e+00  3.00000000e+01  6.51747780e-09  3.00000000e+01 -7.69629405e-08  3.00000000e+01  6.51747780e-09  3.00000000e+01  6.39279845e-08 
 1.00000000e+02  9.00000000e-01  1.00000000e+02  0.00000000e+00  1.00000000e+02  9.00000000e-01  1.00000000e+02  0.00000000e+00  1.00000000e+02  0.00000000e+00  1.00000000e+02  6.51747812e-09  1.00000000e+02 -4.98360877e-08  1.00000000e+02  6.51747812e-09  1.00000000e+02  3.68011317e-08 
 3.00000000e+01  9.50000000e-01  3.00000000e+01  0.00000000e+00  3.00000000e+01  9.50000000e-01  3.00000000e+01  0.00000000e+00  3.00000000e+01  0.00000000e+00  3.00000000e+01  7.88112050e-09  3.00000000e+01 -1.53216595e-07  3.00000000e+01  7.88112050e-09  3.00000000e+01  1.37454354e-07 
 1.00000000e+02  9.50000000e-01  1.00000000e+02  0.00000000e+00  1.00000000e+02  9.50000000e-01  1.00000000e+02  0.00000000e+00  1.00000000e+02  0.00000000e+00  1.00000000e+02  7.88112111e-09  1.00000000e+02 -1.08728222e-07  1.00000000e+02  7.88112111e-09  1.00000000e+02  9.29659796e-08 
 3.00000000e+01  1.00000000e+00  3.00000000e+01  0.00000000e+00  3.00000000e+01  1.00000000e+00  3.00000000e+01  0.00000000e+00  3.00000000e+01  0.00000000e+00  3.00000000e+01  9.46190049e-09  3.00000000e+01 -2.52096988e-07  3.00000000e+01  9.46190049e-09  3.00000000e+01  2.33173187e-07 
 1.00000000e+02  1.00000000e+00  1.00000000e+02  0.00000000e+00  1.00000000e+02  1.00000000e+00  1.00000000e+02  0.00000000e+00  1.00000000e+02  0.00000000e+00  1.00000000e+02  9.46190140e-09  1.00000000e+02 -1.94461018e-07  1.00000000e+02  9.46190140e-09  1.00000000e+02  1.75537215e-07 
 3.00000000e+01  1.05000000e+00  3.00000000e+01  0.00000000e+00  3.00000000e+01  1.05000000e+00  3.00000000e+01  0.00000000e+00  3.00000000e+01  0.00000000e+00  3.00000000e+01  1.12875512e-08  3.00000000e+01 -3.75250923e-07  3.00000000e+01  1.12875512e-08  3.00000000e+01  3.52675821e-07 
 1.00000000e+02  1.05000000e+00  1.00000000e+02  0.00000000e+00  1.00000000e+02  1.05000000e+00  1.00000000e+02  0.00000000e+00  1.00000000e+02  0.00000000e+00  1.00000000e+02  1.12875525e-08  1.00000000e+02 -3.04460174e-07  1.00000000e+02  1.12875525e-08  1.00000000e+02  2.81885069e-07 
 3.00000000e+01  1.10000000e+00  3.00000000e+01  0.00000000e+00  3.00000000e+01  1.10000000e+00  3.00000000e+01  0.00000000e+00  3.00000000e+01  0.00000000e+00  3.00000000e+01  1.33889041e-08  3.00000000e+01 -5.27304290e-07  3.00000000e+01  1.33889041e-08  3.00000000e+01  5.00526482e-07 
 1.00000000e+02  1.10000000e+00  1.00000000e+02  0.00000000e+00  1.00000000e+02  1.10000000e+00  1.00000000e+02  0.00000000e+00  1.00000000e+02  0.00000000e+00  1.00000000e+02  1.33889059e-08  1.00000000e+02 -4.41165249e-07  1.00000000e+02  1.33889059e-08  1.00000000e+02  4.14387437e-07 
 3.00000000e+01  1.15000000e+00  3.00000000e+01  0.00000000e+00  3.00000000e+01  1.15000000e+00  3.00000000e+01  0.00000000e+00  3.00000000e+01  0.00000000e+00  3.00000000e+01  1.58002065e-08  3.00000000e+01 -7.14005615e-07  3.00000000e+01  1.58002065e-08  3.00000000e+01  6.82405202e-07 
 1.00000000e+02  1.15000000e+00  1.00000000e+02  0.00000000e+00  1.00000000e+02  1.15000000e+00  1.00000000e+02  0.00000000e+00  1.00000000e+02  0.00000000e+00  1.00000000e+02  1.58002090e-08  1.00000000e+02 -6.09431788e-07  1.00000000e+02  1.58002090e-08  1.00000000e+02  5.77831371e-07 
 3.00000000e+01  1.20000000e+00  3.00000000e+01  0.00000000e+00  3.00000000e+01  1.20000000e+00  3.00000000e+01  0.00000000e+00  3.00000000e+01  0.00000000e+00  3.00000000e+01  1.85594690e-08  3.00000000e+01 -9.41986867e-07  3.00000000e+01  1.85594690e-08  3.00000000e+01  9.04867929e-07 
 1.00000000e+02  1.20000000e+00  1.00000000e+02  0.00000000e+00  1.00000000e+02  1.20000000e+00  1.00000000e+02  0.00000000e+00  1.00000000e+02  0.00000000e+00  1.00000000e+02  1.85594725e-08  1.00000000e+02 -8.15318675e-07  1.00000000e+02  1.85594725e-08  1.00000000e+02  7.78199730e-07 
