  temp-sweep      abs(v(alim))    v(drain)        v(gate)         temp-sweep      v(source)       v(body)         i(vd)           temp-sweep      i(vg)           i(vs)           i(vb)
 3.00000000e+01  5.00000000e-02  3.00000000e+01  5.00000000e-02  3.00000000e+01  0.00000000e+00  3.00000000e+01  0.00000000e+00  3.00000000e+01  0.00000000e+00  3.00000000e+01 -5.07193080e-10  3.00000000e+01  3.14495974e-12  3.00000000e+01  5.04039595e-10  3.00000000e+01  8.52523974e-15 
 1.00000000e+02  5.00000000e-02  1.00000000e+02  5.00000000e-02  1.00000000e+02  0.00000000e+00  1.00000000e+02  0.00000000e+00  1.00000000e+02  0.00000000e+00  1.00000000e+02 -3.89980647e-09  1.00000000e+02  3.14495974e-12  1.00000000e+02  3.89665363e-09  1.00000000e+02  7.88849078e-15 
 3.00000000e+01  1.00000000e-01  3.00000000e+01  1.00000000e-01  3.00000000e+01  0.00000000e+00  3.00000000e+01  0.00000000e+00  3.00000000e+01  0.00000000e+00  3.00000000e+01 -6.48132924e-10  3.00000000e+01  3.77721706e-12  3.00000000e+01  6.44345924e-10  3.00000000e+01  9.78274831e-15 
 1.00000000e+02  1.00000000e-01  1.00000000e+02  1.00000000e-01  1.00000000e+02  0.00000000e+00  1.00000000e+02  0.00000000e+00  1.00000000e+02  0.00000000e+00  1.00000000e+02 -5.03090992e-09  1.00000000e+02  3.77721706e-12  1.00000000e+02  5.02712315e-09  1.00000000e+02  9.55575496e-15 
 3.00000000e+01  1.50000000e-01  3.00000000e+01  1.50000000e-01  3.00000000e+01  0.00000000e+00  3.00000000e+01  0.00000000e+00  3.00000000e+01  0.00000000e+00  3.00000000e+01 -7.53964950e-10  3.00000000e+01  2.52813998e-12  3.00000000e+01  7.51426841e-10  3.00000000e+01  9.96845577e-15 
 1.00000000e+02  1.50000000e-01  1.00000000e+02  1.50000000e-01  1.00000000e+02  0.00000000e+00  1.00000000e+02  0.00000000e+00  1.00000000e+02  0.00000000e+00  1.00000000e+02 -5.74755266e-09  1.00000000e+02  2.52813998e-12  1.00000000e+02  5.74501461e-09  1.00000000e+02  9.90956722e-15 
 3.00000000e+01  2.00000000e-01  3.00000000e+01  2.00000000e-01  3.00000000e+01  0.00000000e+00  3.00000000e+01  0.00000000e+00  3.00000000e+01  0.00000000e+00  3.00000000e+01 -8.65185528e-10  3.00000000e+01  6.95932447e-13  3.00000000e+01  8.64479599e-10  3.00000000e+01  9.99615864e-15 
 1.00000000e+02  2.00000000e-01  1.00000000e+02  2.00000000e-01  1.00000000e+02  0.00000000e+00  1.00000000e+02  0.00000000e+00  1.00000000e+02  0.00000000e+00  1.00000000e+02 -6.45450387e-09  1.00000000e+02  6.95932447e-13  1.00000000e+02  6.45379795e-09  1.00000000e+02  9.98636422e-15 
 3.00000000e+01  2.50000000e-01  3.00000000e+01  2.50000000e-01  3.00000000e+01  0.00000000e+00  3.00000000e+01  0.00000000e+00  3.00000000e+01  0.00000000e+00  3.00000000e+01 -9.95028636e-10  3.00000000e+01  4.86679167e-12  3.00000000e+01  9.90151844e-10  3.00000000e+01  1.00006385e-14 
 1.00000000e+02  2.50000000e-01  1.00000000e+02  2.50000000e-01  1.00000000e+02  0.00000000e+00  1.00000000e+02  0.00000000e+00  1.00000000e+02  0.00000000e+00  1.00000000e+02 -7.21720881e-09  1.00000000e+02  4.86679167e-12  1.00000000e+02  7.21233201e-09  1.00000000e+02  1.00050914e-14 
 3.00000000e+01  3.00000000e-01  3.00000000e+01  3.00000000e-01  3.00000000e+01  0.00000000e+00  3.00000000e+01  0.00000000e+00  3.00000000e+01  0.00000000e+00  3.00000000e+01 -1.14396077e-09  3.00000000e+01  1.22824355e-11  3.00000000e+01  1.13166833e-09  3.00000000e+01  1.00017883e-14 
 1.00000000e+02  3.00000000e-01  1.00000000e+02  3.00000000e-01  1.00000000e+02  0.00000000e+00  1.00000000e+02  0.00000000e+00  1.00000000e+02  0.00000000e+00  1.00000000e+02 -8.05279243e-09  1.00000000e+02  1.22824355e-11  1.00000000e+02  8.04049998e-09  1.00000000e+02  1.00120515e-14 
 3.00000000e+01  3.50000000e-01  3.00000000e+01  3.50000000e-01  3.00000000e+01  0.00000000e+00  3.00000000e+01  0.00000000e+00  3.00000000e+01  0.00000000e+00  3.00000000e+01 -1.31507848e-09  3.00000000e+01  2.33372650e-11  3.00000000e+01  1.29173121e-09  3.00000000e+01  1.00025598e-14 
 1.00000000e+02  3.50000000e-01  1.00000000e+02  3.50000000e-01  1.00000000e+02  0.00000000e+00  1.00000000e+02  0.00000000e+00  1.00000000e+02  0.00000000e+00  1.00000000e+02 -8.97423048e-09  1.00000000e+02  2.33372650e-11  1.00000000e+02  8.95088320e-09  1.00000000e+02  1.00170963e-14 
 3.00000000e+01  4.00000000e-01  3.00000000e+01  4.00000000e-01  3.00000000e+01  0.00000000e+00  3.00000000e+01  0.00000000e+00  3.00000000e+01  0.00000000e+00  3.00000000e+01 -1.51199008e-09  3.00000000e+01  3.88923243e-11  3.00000000e+01  1.47308775e-09  3.00000000e+01  1.00034097e-14 
 1.00000000e+02  4.00000000e-01  1.00000000e+02  4.00000000e-01  1.00000000e+02  0.00000000e+00  1.00000000e+02  0.00000000e+00  1.00000000e+02  0.00000000e+00  1.00000000e+02 -9.99333113e-09  1.00000000e+02  3.88923243e-11  1.00000000e+02  9.95442879e-09  1.00000000e+02  1.00223906e-14 
 3.00000000e+01  4.50000000e-01  3.00000000e+01  4.50000000e-01  3.00000000e+01  0.00000000e+00  3.00000000e+01  0.00000000e+00  3.00000000e+01  0.00000000e+00  3.00000000e+01 -1.73870588e-09  3.00000000e+01  5.99813017e-11  3.00000000e+01  1.67871458e-09  3.00000000e+01  1.00044300e-14 
 1.00000000e+02  4.50000000e-01  1.00000000e+02  4.50000000e-01  1.00000000e+02  0.00000000e+00  1.00000000e+02  0.00000000e+00  1.00000000e+02  0.00000000e+00  1.00000000e+02 -1.11220041e-08  1.00000000e+02  5.99813017e-11  1.00000000e+02  1.10620128e-08  1.00000000e+02  1.00284871e-14 
 3.00000000e+01  5.00000000e-01  3.00000000e+01  5.00000000e-01  3.00000000e+01  0.00000000e+00  3.00000000e+01  0.00000000e+00  3.00000000e+01  0.00000000e+00  3.00000000e+01 -1.99974828e-09  3.00000000e+01  8.78280637e-11  3.00000000e+01  1.91191021e-09  3.00000000e+01  1.00056635e-14 
 1.00000000e+02  5.00000000e-01  1.00000000e+02  5.00000000e-01  1.00000000e+02  0.00000000e+00  1.00000000e+02  0.00000000e+00  1.00000000e+02  0.00000000e+00  1.00000000e+02 -1.23728694e-08  1.00000000e+02  8.78280637e-11  1.00000000e+02  1.22850313e-08  1.00000000e+02  1.00356115e-14 
 3.00000000e+01  5.50000000e-01  3.00000000e+01  5.50000000e-01  3.00000000e+01  0.00000000e+00  3.00000000e+01  0.00000000e+00  3.00000000e+01  0.00000000e+00  3.00000000e+01 -2.30024705e-09  3.00000000e+01  1.23875357e-10  3.00000000e+01  2.17636169e-09  3.00000000e+01  1.00071503e-14 
 1.00000000e+02  5.50000000e-01  1.00000000e+02  5.50000000e-01  1.00000000e+02  0.00000000e+00  1.00000000e+02  0.00000000e+00  1.00000000e+02  0.00000000e+00  1.00000000e+02 -1.37595805e-08  1.00000000e+02  1.23875357e-10  1.00000000e+02  1.36356951e-08  1.00000000e+02  1.00439340e-14 
 3.00000000e+01  6.00000000e-01  3.00000000e+01  6.00000000e-01  3.00000000e+01  0.00000000e+00  3.00000000e+01  0.00000000e+00  3.00000000e+01  0.00000000e+00  3.00000000e+01 -2.64603350e-09  3.00000000e+01  1.69818918e-10  3.00000000e+01  2.47620458e-09  3.00000000e+01  1.00089360e-14 
 1.00000000e+02  6.00000000e-01  1.00000000e+02  6.00000000e-01  1.00000000e+02  0.00000000e+00  1.00000000e+02  0.00000000e+00  1.00000000e+02  0.00000000e+00  1.00000000e+02 -1.52970461e-08  1.00000000e+02  1.69818918e-10  1.00000000e+02  1.51272171e-08  1.00000000e+02  1.00536294e-14 
 3.00000000e+01  6.50000000e-01  3.00000000e+01  6.50000000e-01  3.00000000e+01  0.00000000e+00  3.00000000e+01  0.00000000e+00  3.00000000e+01  0.00000000e+00  3.00000000e+01 -3.04374036e-09  3.00000000e+01  2.27646835e-10  3.00000000e+01  2.81608351e-09  3.00000000e+01  1.00110732e-14 
 1.00000000e+02  6.50000000e-01  1.00000000e+02  6.50000000e-01  1.00000000e+02  0.00000000e+00  1.00000000e+02  0.00000000e+00  1.00000000e+02  0.00000000e+00  1.00000000e+02 -1.70016164e-08  1.00000000e+02  2.27646835e-10  1.00000000e+02  1.67739595e-08  1.00000000e+02  1.00648906e-14 
 3.00000000e+01  7.00000000e-01  3.00000000e+01  7.00000000e-01  3.00000000e+01  0.00000000e+00  3.00000000e+01  0.00000000e+00  3.00000000e+01  0.00000000e+00  3.00000000e+01 -3.50091110e-09  3.00000000e+01  2.99684721e-10  3.00000000e+01  3.20121637e-09  3.00000000e+01  1.00136230e-14 
 1.00000000e+02  7.00000000e-01  1.00000000e+02  7.00000000e-01  1.00000000e+02  0.00000000e+00  1.00000000e+02  0.00000000e+00  1.00000000e+02  0.00000000e+00  1.00000000e+02 -1.88912593e-08  1.00000000e+02  2.99684721e-10  1.00000000e+02  1.85915645e-08  1.00000000e+02  1.00779339e-14 
 3.00000000e+01  7.50000000e-01  3.00000000e+01  7.50000000e-01  3.00000000e+01  0.00000000e+00  3.00000000e+01  0.00000000e+00  3.00000000e+01  0.00000000e+00  3.00000000e+01 -4.02612126e-09  3.00000000e+01  3.88647414e-10  3.00000000e+01  3.63746383e-09  3.00000000e+01  1.00166561e-14 
 1.00000000e+02  7.50000000e-01  1.00000000e+02  7.50000000e-01  1.00000000e+02  0.00000000e+00  1.00000000e+02  0.00000000e+00  1.00000000e+02  0.00000000e+00  1.00000000e+02 -2.09857392e-08  1.00000000e+02  3.88647414e-10  1.00000000e+02  2.05970817e-08  1.00000000e+02  1.00930020e-14 
 3.00000000e+01  8.00000000e-01  3.00000000e+01  8.00000000e-01  3.00000000e+01  0.00000000e+00  3.00000000e+01  0.00000000e+00  3.00000000e+01  0.00000000e+00  3.00000000e+01 -4.62911371e-09  3.00000000e+01  4.97698115e-10  3.00000000e+01  4.13140558e-09  3.00000000e+01  1.00202544e-14 
 1.00000000e+02  8.00000000e-01  1.00000000e+02  8.00000000e-01  1.00000000e+02  0.00000000e+00  1.00000000e+02  0.00000000e+00  1.00000000e+02  0.00000000e+00  1.00000000e+02 -2.33068055e-08  1.00000000e+02  4.97698115e-10  1.00000000e+02  2.28090972e-08  1.00000000e+02  1.01103672e-14 
 3.00000000e+01  8.50000000e-01  3.00000000e+01  8.50000000e-01  3.00000000e+01  0.00000000e+00  3.00000000e+01  0.00000000e+00  3.00000000e+01  0.00000000e+00  3.00000000e+01 -5.32095012e-09  3.00000000e+01  6.30515952e-10  3.00000000e+01  4.69042415e-09  3.00000000e+01  1.00245124e-14 
 1.00000000e+02  8.50000000e-01  1.00000000e+02  8.50000000e-01  1.00000000e+02  0.00000000e+00  1.00000000e+02  0.00000000e+00  1.00000000e+02  0.00000000e+00  1.00000000e+02 -2.58783946e-08  1.00000000e+02  6.30515952e-10  1.00000000e+02  2.52478686e-08  1.00000000e+02  1.01303342e-14 
 3.00000000e+01  9.00000000e-01  3.00000000e+01  9.00000000e-01  3.00000000e+01  0.00000000e+00  3.00000000e+01  0.00000000e+00  3.00000000e+01  0.00000000e+00  3.00000000e+01 -6.11418071e-09  3.00000000e+01  7.91373117e-10  3.00000000e+01  5.32279756e-09  3.00000000e+01  1.00295394e-14 
 1.00000000e+02  9.00000000e-01  1.00000000e+02  9.00000000e-01  1.00000000e+02  0.00000000e+00  1.00000000e+02  0.00000000e+00  1.00000000e+02  0.00000000e+00  1.00000000e+02 -2.87268506e-08  1.00000000e+02  7.91373117e-10  1.00000000e+02  2.79354673e-08  1.00000000e+02  1.01532439e-14 
 3.00000000e+01  9.50000000e-01  3.00000000e+01  9.50000000e-01  3.00000000e+01  0.00000000e+00  3.00000000e+01  0.00000000e+00  3.00000000e+01  0.00000000e+00  3.00000000e+01 -7.02303480e-09  3.00000000e+01  9.85222881e-10  3.00000000e+01  6.03780183e-09  3.00000000e+01  1.00906091e-14 
 1.00000000e+02  9.50000000e-01  1.00000000e+02  9.50000000e-01  1.00000000e+02  0.00000000e+00  1.00000000e+02  0.00000000e+00  1.00000000e+02  0.00000000e+00  1.00000000e+02 -3.18811668e-08  1.00000000e+02  9.85222881e-10  1.00000000e+02  3.08959336e-08  1.00000000e+02  1.03207914e-14 
 3.00000000e+01  1.00000000e+00  3.00000000e+01  1.00000000e+00  3.00000000e+01  0.00000000e+00  3.00000000e+01  0.00000000e+00  3.00000000e+01  0.00000000e+00  3.00000000e+01 -8.06363553e-09  3.00000000e+01  1.21779994e-09  3.00000000e+01  6.84582465e-09  3.00000000e+01  1.09344421e-14 
 1.00000000e+02  1.00000000e+00  1.00000000e+02  1.00000000e+00  1.00000000e+02  0.00000000e+00  1.00000000e+02  0.00000000e+00  1.00000000e+02  0.00000000e+00  1.00000000e+02 -3.53732556e-08  1.00000000e+02  1.21779994e-09  1.00000000e+02  3.41554432e-08  1.00000000e+02  1.25068965e-14 
 3.00000000e+01  1.05000000e+00  3.00000000e+01  1.05000000e+00  3.00000000e+01  0.00000000e+00  3.00000000e+01  0.00000000e+00  3.00000000e+01  0.00000000e+00  3.00000000e+01 -9.25435779e-09  3.00000000e+01  1.49573478e-09  3.00000000e+01  7.75849182e-09  3.00000000e+01  1.31191314e-13 
 1.00000000e+02  1.05000000e+00  1.00000000e+02  1.05000000e+00  1.00000000e+02  0.00000000e+00  1.00000000e+02  0.00000000e+00  1.00000000e+02  0.00000000e+00  1.00000000e+02 -3.92383666e-08  1.00000000e+02  1.49573478e-09  1.00000000e+02  3.77424917e-08  1.00000000e+02  1.40145916e-13 
 3.00000000e+01  1.10000000e+00  3.00000000e+01  1.10000000e+00  3.00000000e+01  0.00000000e+00  3.00000000e+01  0.00000000e+00  3.00000000e+01  0.00000000e+00  3.00000000e+01 -1.06217096e-08  3.00000000e+01  1.82668389e-09  3.00000000e+01  8.78880788e-09  3.00000000e+01  6.21787635e-12 
 1.00000000e+02  1.10000000e+00  1.00000000e+02  1.10000000e+00  1.00000000e+02  0.00000000e+00  1.00000000e+02  0.00000000e+00  1.00000000e+02  0.00000000e+00  1.00000000e+02 -4.35210428e-08  1.00000000e+02  1.82668389e-09  1.00000000e+02  4.16880974e-08  1.00000000e+02  6.26150304e-12 
 3.00000000e+01  1.15000000e+00  3.00000000e+01  1.15000000e+00  3.00000000e+01  0.00000000e+00  3.00000000e+01  0.00000000e+00  3.00000000e+01  0.00000000e+00  3.00000000e+01 -1.22783505e-08  3.00000000e+01  2.21947798e-09  3.00000000e+01  9.95131308e-09  3.00000000e+01  1.07559451e-10 
 1.00000000e+02  1.15000000e+00  1.00000000e+02  1.15000000e+00  1.00000000e+02  0.00000000e+00  1.00000000e+02  0.00000000e+00  1.00000000e+02  0.00000000e+00  1.00000000e+02 -4.83532503e-08  1.00000000e+02  2.21947798e-09  1.00000000e+02  4.60260271e-08  1.00000000e+02  1.07745191e-10 
 3.00000000e+01  1.20000000e+00  3.00000000e+01  1.20000000e+00  3.00000000e+01  0.00000000e+00  3.00000000e+01  0.00000000e+00  3.00000000e+01  0.00000000e+00  3.00000000e+01 -1.48774346e-08  3.00000000e+01  2.68429061e-09  3.00000000e+01  1.12622586e-08  3.00000000e+01  9.30885390e-10 
 1.00000000e+02  1.20000000e+00  1.00000000e+02  1.20000000e+00  1.00000000e+02  0.00000000e+00  1.00000000e+02  0.00000000e+00  1.00000000e+02  0.00000000e+00  1.00000000e+02 -5.44089265e-08  1.00000000e+02  2.68429061e-09  1.00000000e+02  5.07930473e-08  1.00000000e+02  9.31588626e-10 
