Title: *nmos off - w2
Date: Tue Feb 15 20:26:09  2022
Plotname: DC transfer characteristic
Flags: real
No. Variables: 10
No. Points: 2
Variables:
	0	temp-sweep	temp-sweep
	1	abs(v(alim))	voltage
	2	v(drain)	voltage
	3	v(gate)	voltage
	4	v(source)	voltage
	5	v(body)	voltage
	6	i(i(vd))	current
	7	i(i(vg))	current
	8	i(i(vs))	current
	9	i(i(vb))	current
Values:
 0	3.000000000000000e+01
	5.000000000000000e-02
	5.000000000000000e-02
	0.000000000000000e+00
	0.000000000000000e+00
	0.000000000000000e+00
	-1.160520495656283e-09
	7.188479416170569e-12
	1.153323490914793e-09
	8.525325319855785e-15

 1	1.000000000000000e+02
	5.000000000000000e-02
	5.000000000000000e-02
	0.000000000000000e+00
	0.000000000000000e+00
	0.000000000000000e+00
	-8.922631688812898e-09
	7.188479416170451e-12
	8.915435320370890e-09
	7.889025836435968e-15

Title: *nmos off - w2
Date: Tue Feb 15 20:26:09  2022
Plotname: DC transfer characteristic
Flags: real
No. Variables: 10
No. Points: 2
Variables:
	0	temp-sweep	temp-sweep
	1	abs(v(alim))	voltage
	2	v(drain)	voltage
	3	v(gate)	voltage
	4	v(source)	voltage
	5	v(body)	voltage
	6	i(i(vd))	current
	7	i(i(vg))	current
	8	i(i(vs))	current
	9	i(i(vb))	current
Values:
 0	3.000000000000000e+01
	1.000000000000000e-01
	1.000000000000000e-01
	0.000000000000000e+00
	0.000000000000000e+00
	0.000000000000000e+00
	-1.482986207103328e-09
	8.633638998178011e-12
	1.474342785023824e-09
	9.783081325173999e-15

 1	1.000000000000000e+02
	1.000000000000000e-01
	1.000000000000000e-01
	0.000000000000000e+00
	0.000000000000000e+00
	0.000000000000000e+00
	-1.151117668307993e-08
	8.633638998177870e-12
	1.150253348604214e-08
	9.558039619793607e-15

Title: *nmos off - w2
Date: Tue Feb 15 20:26:09  2022
Plotname: DC transfer characteristic
Flags: real
No. Variables: 10
No. Points: 2
Variables:
	0	temp-sweep	temp-sweep
	1	abs(v(alim))	voltage
	2	v(drain)	voltage
	3	v(gate)	voltage
	4	v(source)	voltage
	5	v(body)	voltage
	6	i(i(vd))	current
	7	i(i(vg))	current
	8	i(i(vs))	current
	9	i(i(vb))	current
Values:
 0	3.000000000000000e+01
	1.500000000000000e-01
	1.500000000000000e-01
	0.000000000000000e+00
	0.000000000000000e+00
	0.000000000000000e+00
	-1.725054175797855e-09
	5.778605670075537e-12
	1.719265600985510e-09
	9.969142269246662e-15

 1	1.000000000000000e+02
	1.500000000000000e-01
	1.500000000000000e-01
	0.000000000000000e+00
	0.000000000000000e+00
	0.000000000000000e+00
	-1.315016348717894e-08
	5.778605670075444e-12
	1.314437496710192e-08
	9.914406952044034e-15

Title: *nmos off - w2
Date: Tue Feb 15 20:26:09  2022
Plotname: DC transfer characteristic
Flags: real
No. Variables: 10
No. Points: 2
Variables:
	0	temp-sweep	temp-sweep
	1	abs(v(alim))	voltage
	2	v(drain)	voltage
	3	v(gate)	voltage
	4	v(source)	voltage
	5	v(body)	voltage
	6	i(i(vd))	current
	7	i(i(vg))	current
	8	i(i(vs))	current
	9	i(i(vb))	current
Values:
 0	3.000000000000000e+01
	2.000000000000000e-01
	2.000000000000000e-01
	0.000000000000000e+00
	0.000000000000000e+00
	0.000000000000000e+00
	-1.979471525373392e-09
	1.590702735729136e-12
	1.977870825336386e-09
	9.997301276643665e-15

 1	1.000000000000000e+02
	2.000000000000000e-01
	2.000000000000000e-01
	0.000000000000000e+00
	0.000000000000000e+00
	0.000000000000000e+00
	-1.476708950326524e-08
	1.590702735729111e-12
	1.476548880611606e-08
	9.994413450363634e-15

Title: *nmos off - w2
Date: Tue Feb 15 20:26:09  2022
Plotname: DC transfer characteristic
Flags: real
No. Variables: 10
No. Points: 2
Variables:
	0	temp-sweep	temp-sweep
	1	abs(v(alim))	voltage
	2	v(drain)	voltage
	3	v(gate)	voltage
	4	v(source)	voltage
	5	v(body)	voltage
	6	i(i(vd))	current
	7	i(i(vg))	current
	8	i(i(vs))	current
	9	i(i(vb))	current
Values:
 0	3.000000000000000e+01
	2.500000000000000e-01
	2.500000000000000e-01
	0.000000000000000e+00
	0.000000000000000e+00
	0.000000000000000e+00
	-2.276494277462326e-09
	1.112409523657051e-11
	2.265360179870420e-09
	1.000235533560214e-14

 1	1.000000000000000e+02
	2.500000000000000e-01
	2.500000000000000e-01
	0.000000000000000e+00
	0.000000000000000e+00
	0.000000000000000e+00
	-1.651165795122359e-08
	1.112409523657033e-11
	1.650052383894012e-08
	1.001704689350060e-14

Title: *nmos off - w2
Date: Tue Feb 15 20:26:09  2022
Plotname: DC transfer characteristic
Flags: real
No. Variables: 10
No. Points: 2
Variables:
	0	temp-sweep	temp-sweep
	1	abs(v(alim))	voltage
	2	v(drain)	voltage
	3	v(gate)	voltage
	4	v(source)	voltage
	5	v(body)	voltage
	6	i(i(vd))	current
	7	i(i(vg))	current
	8	i(i(vs))	current
	9	i(i(vb))	current
Values:
 0	3.000000000000000e+01
	3.000000000000000e-01
	3.000000000000000e-01
	0.000000000000000e+00
	0.000000000000000e+00
	0.000000000000000e+00
	-2.617189960353985e-09
	2.807413822830670e-11
	2.589105817906687e-09
	1.000421899097866e-14

 1	1.000000000000000e+02
	3.000000000000000e-01
	3.000000000000000e-01
	0.000000000000000e+00
	0.000000000000000e+00
	0.000000000000000e+00
	-1.842299972452719e-08
	2.807413822830625e-11
	1.839491555759898e-08
	1.002869989939637e-14

Title: *nmos off - w2
Date: Tue Feb 15 20:26:09  2022
Plotname: DC transfer characteristic
Flags: real
No. Variables: 10
No. Points: 2
Variables:
	0	temp-sweep	temp-sweep
	1	abs(v(alim))	voltage
	2	v(drain)	voltage
	3	v(gate)	voltage
	4	v(source)	voltage
	5	v(body)	voltage
	6	i(i(vd))	current
	7	i(i(vg))	current
	8	i(i(vs))	current
	9	i(i(vb))	current
Values:
 0	3.000000000000000e+01
	3.500000000000000e-01
	3.500000000000000e-01
	0.000000000000000e+00
	0.000000000000000e+00
	0.000000000000000e+00
	-3.008639291176985e-09
	5.334232002090149e-11
	2.955286965285742e-09
	1.000587034186304e-14

 1	1.000000000000000e+02
	3.500000000000000e-01
	3.500000000000000e-01
	0.000000000000000e+00
	0.000000000000000e+00
	0.000000000000000e+00
	-2.053076730311607e-08
	5.334232002090063e-11
	2.047741494375777e-08
	1.003933739255512e-14

Title: *nmos off - w2
Date: Tue Feb 15 20:26:09  2022
Plotname: DC transfer characteristic
Flags: real
No. Variables: 10
No. Points: 2
Variables:
	0	temp-sweep	temp-sweep
	1	abs(v(alim))	voltage
	2	v(drain)	voltage
	3	v(gate)	voltage
	4	v(source)	voltage
	5	v(body)	voltage
	6	i(i(vd))	current
	7	i(i(vg))	current
	8	i(i(vs))	current
	9	i(i(vb))	current
Values:
 0	3.000000000000000e+01
	4.000000000000000e-01
	4.000000000000000e-01
	0.000000000000000e+00
	0.000000000000000e+00
	0.000000000000000e+00
	-3.459094216144053e-09
	8.889674121419696e-11
	3.370187467132778e-09
	1.000779707784284e-14

 1	1.000000000000000e+02
	4.000000000000000e-01
	4.000000000000000e-01
	0.000000000000000e+00
	0.000000000000000e+00
	0.000000000000000e+00
	-2.286195242374877e-08
	8.889674121419550e-11
	2.277304563127847e-08
	1.005125610352605e-14

Title: *nmos off - w2
Date: Tue Feb 15 20:26:09  2022
Plotname: DC transfer characteristic
Flags: real
No. Variables: 10
No. Points: 2
Variables:
	0	temp-sweep	temp-sweep
	1	abs(v(alim))	voltage
	2	v(drain)	voltage
	3	v(gate)	voltage
	4	v(source)	voltage
	5	v(body)	voltage
	6	i(i(vd))	current
	7	i(i(vg))	current
	8	i(i(vs))	current
	9	i(i(vb))	current
Values:
 0	3.000000000000000e+01
	4.500000000000000e-01
	4.500000000000000e-01
	0.000000000000000e+00
	0.000000000000000e+00
	0.000000000000000e+00
	-3.977726650103586e-09
	1.371001181416551e-10
	3.840616521833917e-09
	1.001012801383911e-14

 1	1.000000000000000e+02
	4.500000000000000e-01
	4.500000000000000e-01
	0.000000000000000e+00
	0.000000000000000e+00
	0.000000000000000e+00
	-2.544378373645490e-08
	1.371001181416529e-10
	2.530667355315308e-08
	1.006516016768169e-14

Title: *nmos off - w2
Date: Tue Feb 15 20:26:09  2022
Plotname: DC transfer characteristic
Flags: real
No. Variables: 10
No. Points: 2
Variables:
	0	temp-sweep	temp-sweep
	1	abs(v(alim))	voltage
	2	v(drain)	voltage
	3	v(gate)	voltage
	4	v(source)	voltage
	5	v(body)	voltage
	6	i(i(vd))	current
	7	i(i(vg))	current
	8	i(i(vs))	current
	9	i(i(vb))	current
Values:
 0	3.000000000000000e+01
	4.999999999999999e-01
	4.999999999999999e-01
	0.000000000000000e+00
	0.000000000000000e+00
	0.000000000000000e+00
	-4.574880002134492e-09
	2.007498597462648e-10
	4.374120129439541e-09
	1.001294868680672e-14

 1	1.000000000000000e+02
	4.999999999999999e-01
	4.999999999999999e-01
	0.000000000000000e+00
	0.000000000000000e+00
	0.000000000000000e+00
	-2.830511623682578e-08
	2.007498597462617e-10
	2.810435629563275e-08
	1.008144677162240e-14

Title: *nmos off - w2
Date: Tue Feb 15 20:26:09  2022
Plotname: DC transfer characteristic
Flags: real
No. Variables: 10
No. Points: 2
Variables:
	0	temp-sweep	temp-sweep
	1	abs(v(alim))	voltage
	2	v(drain)	voltage
	3	v(gate)	voltage
	4	v(source)	voltage
	5	v(body)	voltage
	6	i(i(vd))	current
	7	i(i(vg))	current
	8	i(i(vs))	current
	9	i(i(vb))	current
Values:
 0	3.000000000000000e+01
	5.499999999999999e-01
	5.499999999999999e-01
	0.000000000000000e+00
	0.000000000000000e+00
	0.000000000000000e+00
	-5.262286986947976e-09
	2.831436733723084e-10
	4.979133297226317e-09
	1.001634934915155e-14

 1	1.000000000000000e+02
	5.499999999999999e-01
	5.499999999999999e-01
	0.000000000000000e+00
	0.000000000000000e+00
	0.000000000000000e+00
	-3.147716824196999e-08
	2.831436733723038e-10
	3.119401446811691e-08
	1.010048075644043e-14

Title: *nmos off - w2
Date: Tue Feb 15 20:26:09  2022
Plotname: DC transfer characteristic
Flags: real
No. Variables: 10
No. Points: 2
Variables:
	0	temp-sweep	temp-sweep
	1	abs(v(alim))	voltage
	2	v(drain)	voltage
	3	v(gate)	voltage
	4	v(source)	voltage
	5	v(body)	voltage
	6	i(i(vd))	current
	7	i(i(vg))	current
	8	i(i(vs))	current
	9	i(i(vb))	current
Values:
 0	3.000000000000000e+01
	6.000000000000000e-01
	6.000000000000000e-01
	0.000000000000000e+00
	0.000000000000000e+00
	0.000000000000000e+00
	-6.053284815910899e-09
	3.881575255380309e-10
	5.665117269939150e-09
	1.002043371774909e-14

 1	1.000000000000000e+02
	6.000000000000000e-01
	6.000000000000000e-01
	0.000000000000000e+00
	0.000000000000000e+00
	0.000000000000000e+00
	-3.499402797007006e-08
	3.881575255380243e-10
	3.460586032187587e-08
	1.012265615640789e-14

Title: *nmos off - w2
Date: Tue Feb 15 20:26:09  2022
Plotname: DC transfer characteristic
Flags: real
No. Variables: 10
No. Points: 2
Variables:
	0	temp-sweep	temp-sweep
	1	abs(v(alim))	voltage
	2	v(drain)	voltage
	3	v(gate)	voltage
	4	v(source)	voltage
	5	v(body)	voltage
	6	i(i(vd))	current
	7	i(i(vg))	current
	8	i(i(vs))	current
	9	i(i(vb))	current
Values:
 0	3.000000000000000e+01
	6.500000000000000e-01
	6.500000000000000e-01
	0.000000000000000e+00
	0.000000000000000e+00
	0.000000000000000e+00
	-6.963043575578730e-09
	5.203356230265113e-10
	6.442697927230041e-09
	1.002532217647061e-14

 1	1.000000000000000e+02
	6.500000000000000e-01
	6.500000000000000e-01
	0.000000000000000e+00
	0.000000000000000e+00
	0.000000000000000e+00
	-3.889307802135122e-08
	5.203356230265026e-10
	3.837273224991154e-08
	1.014841316755878e-14

Title: *nmos off - w2
Date: Tue Feb 15 20:26:09  2022
Plotname: DC transfer characteristic
Flags: real
No. Variables: 10
No. Points: 2
Variables:
	0	temp-sweep	temp-sweep
	1	abs(v(alim))	voltage
	2	v(drain)	voltage
	3	v(gate)	voltage
	4	v(source)	voltage
	5	v(body)	voltage
	6	i(i(vd))	current
	7	i(i(vg))	current
	8	i(i(vs))	current
	9	i(i(vb))	current
Values:
 0	3.000000000000000e+01
	7.000000000000001e-01
	7.000000000000001e-01
	0.000000000000000e+00
	0.000000000000000e+00
	0.000000000000000e+00
	-8.008816212497278e-09
	6.849936468950854e-10
	7.323812534447766e-09
	1.003115442773348e-14

 1	1.000000000000000e+02
	7.000000000000001e-01
	7.000000000000001e-01
	0.000000000000000e+00
	0.000000000000000e+00
	0.000000000000000e+00
	-4.321539768461813e-08
	6.849936468950741e-10
	4.253039385947691e-08
	1.017824613123636e-14

Title: *nmos off - w2
Date: Tue Feb 15 20:26:09  2022
Plotname: DC transfer characteristic
Flags: real
No. Variables: 10
No. Points: 2
Variables:
	0	temp-sweep	temp-sweep
	1	abs(v(alim))	voltage
	2	v(drain)	voltage
	3	v(gate)	voltage
	4	v(source)	voltage
	5	v(body)	voltage
	6	i(i(vd))	current
	7	i(i(vg))	current
	8	i(i(vs))	current
	9	i(i(vb))	current
Values:
 0	3.000000000000000e+01
	7.500000000000001e-01
	7.500000000000001e-01
	0.000000000000000e+00
	0.000000000000000e+00
	0.000000000000000e+00
	-9.210215808350511e-09
	8.883369443176774e-10
	8.321868825940475e-09
	1.003809236009255e-14

 1	1.000000000000000e+02
	7.500000000000001e-01
	7.500000000000001e-01
	0.000000000000000e+00
	0.000000000000000e+00
	0.000000000000000e+00
	-4.800617105023130e-08
	8.883369443176633e-10
	4.711782389320356e-08
	1.021271006402066e-14

Title: *nmos off - w2
Date: Tue Feb 15 20:26:09  2022
Plotname: DC transfer characteristic
Flags: real
No. Variables: 10
No. Points: 2
Variables:
	0	temp-sweep	temp-sweep
	1	abs(v(alim))	voltage
	2	v(drain)	voltage
	3	v(gate)	voltage
	4	v(source)	voltage
	5	v(body)	voltage
	6	i(i(vd))	current
	7	i(i(vg))	current
	8	i(i(vs))	current
	9	i(i(vb))	current
Values:
 0	3.000000000000000e+01
	8.000000000000002e-01
	8.000000000000002e-01
	0.000000000000000e+00
	0.000000000000000e+00
	0.000000000000000e+00
	-1.058952494715503e-08
	1.137595689357983e-09
	9.451919211473771e-09
	1.004632327910884e-14

 1	1.000000000000000e+02
	8.000000000000002e-01
	8.000000000000002e-01
	0.000000000000000e+00
	0.000000000000000e+00
	0.000000000000000e+00
	-5.331511642344823e-08
	1.137595689357964e-09
	5.217751048166292e-08
	1.025242734879879e-14

Title: *nmos off - w2
Date: Tue Feb 15 20:26:09  2022
Plotname: DC transfer characteristic
Flags: real
No. Variables: 10
No. Points: 2
Variables:
	0	temp-sweep	temp-sweep
	1	abs(v(alim))	voltage
	2	v(drain)	voltage
	3	v(gate)	voltage
	4	v(source)	voltage
	5	v(body)	voltage
	6	i(i(vd))	current
	7	i(i(vg))	current
	8	i(i(vs))	current
	9	i(i(vb))	current
Values:
 0	3.000000000000000e+01
	8.500000000000002e-01
	8.500000000000002e-01
	0.000000000000000e+00
	0.000000000000000e+00
	0.000000000000000e+00
	-1.217204189693946e-08
	1.441179315245903e-09
	1.073085252563000e-08
	1.005606356093810e-14

 1	1.000000000000000e+02
	8.500000000000002e-01
	8.500000000000002e-01
	0.000000000000000e+00
	0.000000000000000e+00
	0.000000000000000e+00
	-5.919694761673373e-08
	1.441179315245879e-09
	5.775575800339289e-08
	1.029809495667106e-14

Title: *nmos off - w2
Date: Tue Feb 15 20:26:09  2022
Plotname: DC transfer characteristic
Flags: real
No. Variables: 10
No. Points: 2
Variables:
	0	temp-sweep	temp-sweep
	1	abs(v(alim))	voltage
	2	v(drain)	voltage
	3	v(gate)	voltage
	4	v(source)	voltage
	5	v(body)	voltage
	6	i(i(vd))	current
	7	i(i(vg))	current
	8	i(i(vs))	current
	9	i(i(vb))	current
Values:
 0	3.000000000000000e+01
	9.000000000000002e-01
	9.000000000000002e-01
	0.000000000000000e+00
	0.000000000000000e+00
	0.000000000000000e+00
	-1.398646864978820e-08
	1.808852833836385e-09
	1.217760574838903e-08
	1.006756277870434e-14

 1	1.000000000000000e+02
	9.000000000000002e-01
	9.000000000000002e-01
	0.000000000000000e+00
	0.000000000000000e+00
	0.000000000000000e+00
	-6.571187603700504e-08
	1.808852833836356e-09
	6.390301285267637e-08
	1.035049230914075e-14

Title: *nmos off - w2
Date: Tue Feb 15 20:26:09  2022
Plotname: DC transfer characteristic
Flags: real
No. Variables: 10
No. Points: 2
Variables:
	0	temp-sweep	temp-sweep
	1	abs(v(alim))	voltage
	2	v(drain)	voltage
	3	v(gate)	voltage
	4	v(source)	voltage
	5	v(body)	voltage
	6	i(i(vd))	current
	7	i(i(vg))	current
	8	i(i(vs))	current
	9	i(i(vb))	current
Values:
 0	3.000000000000000e+01
	9.500000000000003e-01
	9.500000000000003e-01
	0.000000000000000e+00
	0.000000000000000e+00
	0.000000000000000e+00
	-1.606534654291409e-08
	2.251938005849465e-09
	1.381339833042828e-08
	1.020663634452093e-14

 1	1.000000000000000e+02
	9.500000000000003e-01
	9.500000000000003e-01
	0.000000000000000e+00
	0.000000000000000e+00
	0.000000000000000e+00
	-7.292616262709624e-08
	2.251938005849430e-09
	7.067421389057194e-08
	1.073067484398300e-14

Title: *nmos off - w2
Date: Tue Feb 15 20:26:09  2022
Plotname: DC transfer characteristic
Flags: real
No. Variables: 10
No. Points: 2
Variables:
	0	temp-sweep	temp-sweep
	1	abs(v(alim))	voltage
	2	v(drain)	voltage
	3	v(gate)	voltage
	4	v(source)	voltage
	5	v(body)	voltage
	6	i(i(vd))	current
	7	i(i(vg))	current
	8	i(i(vs))	current
	9	i(i(vb))	current
Values:
 0	3.000000000000000e+01
	1.000000000000000e+00
	1.000000000000000e+00
	0.000000000000000e+00
	0.000000000000000e+00
	0.000000000000000e+00
	-1.844554683038437e-08
	2.783542715943281e-09
	1.566199207406298e-08
	1.204037809338386e-14

 1	1.000000000000000e+02
	1.000000000000000e+00
	1.000000000000000e+00
	0.000000000000000e+00
	0.000000000000000e+00
	0.000000000000000e+00
	-8.091273181145032e-08
	2.783542715943236e-09
	7.812917347383893e-08
	1.562166811637859e-14

Title: *nmos off - w2
Date: Tue Feb 15 20:26:09  2022
Plotname: DC transfer characteristic
Flags: real
No. Variables: 10
No. Points: 2
Variables:
	0	temp-sweep	temp-sweep
	1	abs(v(alim))	voltage
	2	v(drain)	voltage
	3	v(gate)	voltage
	4	v(source)	voltage
	5	v(body)	voltage
	6	i(i(vd))	current
	7	i(i(vg))	current
	8	i(i(vs))	current
	9	i(i(vb))	current
Values:
 0	3.000000000000000e+01
	1.050000000000000e+00
	1.050000000000000e+00
	0.000000000000000e+00
	0.000000000000000e+00
	0.000000000000000e+00
	-2.116905560770747e-08
	3.418822346201484e-09
	1.774997990787432e-08
	2.533536316564242e-13

 1	1.000000000000000e+02
	1.050000000000000e+00
	1.050000000000000e+00
	0.000000000000000e+00
	0.000000000000000e+00
	0.000000000000000e+00
	-8.975209143350735e-08
	3.418822346201427e-09
	8.633299533271073e-08
	2.737545951916033e-13

Title: *nmos off - w2
Date: Tue Feb 15 20:26:09  2022
Plotname: DC transfer characteristic
Flags: real
No. Variables: 10
No. Points: 2
Variables:
	0	temp-sweep	temp-sweep
	1	abs(v(alim))	voltage
	2	v(drain)	voltage
	3	v(gate)	voltage
	4	v(source)	voltage
	5	v(body)	voltage
	6	i(i(vd))	current
	7	i(i(vg))	current
	8	i(i(vs))	current
	9	i(i(vb))	current
Values:
 0	3.000000000000000e+01
	1.100000000000000e+00
	1.100000000000000e+00
	0.000000000000000e+00
	0.000000000000000e+00
	0.000000000000000e+00
	-2.429481525087420e-08
	4.175277436853365e-09
	2.010710733224222e-08
	1.243048177861474e-11

 1	1.000000000000000e+02
	1.100000000000000e+00
	1.100000000000000e+00
	0.000000000000000e+00
	0.000000000000000e+00
	0.000000000000000e+00
	-9.954434336934192e-08
	4.175277436853298e-09
	9.535653602992166e-08
	1.252990256694231e-11

Title: *nmos off - w2
Date: Tue Feb 15 20:26:09  2022
Plotname: DC transfer characteristic
Flags: real
No. Variables: 10
No. Points: 2
Variables:
	0	temp-sweep	temp-sweep
	1	abs(v(alim))	voltage
	2	v(drain)	voltage
	3	v(gate)	voltage
	4	v(source)	voltage
	5	v(body)	voltage
	6	i(i(vd))	current
	7	i(i(vg))	current
	8	i(i(vs))	current
	9	i(i(vb))	current
Values:
 0	3.000000000000000e+01
	1.150000000000000e+00
	1.150000000000000e+00
	0.000000000000000e+00
	0.000000000000000e+00
	0.000000000000000e+00
	-2.805485242388162e-08
	5.073092481166006e-09
	2.276663082940318e-08
	2.151291133124456e-10

 1	1.000000000000000e+02
	1.150000000000000e+00
	1.150000000000000e+00
	0.000000000000000e+00
	0.000000000000000e+00
	0.000000000000000e+00
	-1.105655622918196e-07
	5.073092481165950e-09
	1.052769173158063e-07
	2.155524948473817e-10

Title: *nmos off - w2
Date: Tue Feb 15 20:26:09  2022
Plotname: DC transfer characteristic
Flags: real
No. Variables: 10
No. Points: 2
Variables:
	0	temp-sweep	temp-sweep
	1	abs(v(alim))	voltage
	2	v(drain)	voltage
	3	v(gate)	voltage
	4	v(source)	voltage
	5	v(body)	voltage
	6	i(i(vd))	current
	7	i(i(vg))	current
	8	i(i(vs))	current
	9	i(i(vb))	current
Values:
 0	3.000000000000000e+01
	1.200000000000000e+00
	1.200000000000000e+00
	0.000000000000000e+00
	0.000000000000000e+00
	0.000000000000000e+00
	-3.376307743415710e-08
	6.135521330404711e-09
	2.576571824556020e-08
	1.861837858192190e-09

 1	1.000000000000000e+02
	1.200000000000000e+00
	1.200000000000000e+00
	0.000000000000000e+00
	0.000000000000000e+00
	0.000000000000000e+00
	-1.241770602350354e-07
	6.135521330404813e-09
	1.161780977474002e-07
	1.863441157230461e-09

