  temp-sweep      abs(v(alim))    v(drain)        v(gate)         temp-sweep      v(source)       v(body)         i(vd)           temp-sweep      i(vg)           i(vs)           i(vb)
 3.00000000e+01  5.00000000e-02  3.00000000e+01  5.00000000e-02  3.00000000e+01  0.00000000e+00  3.00000000e+01  0.00000000e+00  3.00000000e+01  0.00000000e+00  3.00000000e+01 -1.16052050e-09  3.00000000e+01  7.18847942e-12  3.00000000e+01  1.15332349e-09  3.00000000e+01  8.52532532e-15 
 1.00000000e+02  5.00000000e-02  1.00000000e+02  5.00000000e-02  1.00000000e+02  0.00000000e+00  1.00000000e+02  0.00000000e+00  1.00000000e+02  0.00000000e+00  1.00000000e+02 -8.92263169e-09  1.00000000e+02  7.18847942e-12  1.00000000e+02  8.91543532e-09  1.00000000e+02  7.88902584e-15 
 3.00000000e+01  1.00000000e-01  3.00000000e+01  1.00000000e-01  3.00000000e+01  0.00000000e+00  3.00000000e+01  0.00000000e+00  3.00000000e+01  0.00000000e+00  3.00000000e+01 -1.48298621e-09  3.00000000e+01  8.63363900e-12  3.00000000e+01  1.47434279e-09  3.00000000e+01  9.78308133e-15 
 1.00000000e+02  1.00000000e-01  1.00000000e+02  1.00000000e-01  1.00000000e+02  0.00000000e+00  1.00000000e+02  0.00000000e+00  1.00000000e+02  0.00000000e+00  1.00000000e+02 -1.15111767e-08  1.00000000e+02  8.63363900e-12  1.00000000e+02  1.15025335e-08  1.00000000e+02  9.55803962e-15 
 3.00000000e+01  1.50000000e-01  3.00000000e+01  1.50000000e-01  3.00000000e+01  0.00000000e+00  3.00000000e+01  0.00000000e+00  3.00000000e+01  0.00000000e+00  3.00000000e+01 -1.72505418e-09  3.00000000e+01  5.77860567e-12  3.00000000e+01  1.71926560e-09  3.00000000e+01  9.96914227e-15 
 1.00000000e+02  1.50000000e-01  1.00000000e+02  1.50000000e-01  1.00000000e+02  0.00000000e+00  1.00000000e+02  0.00000000e+00  1.00000000e+02  0.00000000e+00  1.00000000e+02 -1.31501635e-08  1.00000000e+02  5.77860567e-12  1.00000000e+02  1.31443750e-08  1.00000000e+02  9.91440695e-15 
 3.00000000e+01  2.00000000e-01  3.00000000e+01  2.00000000e-01  3.00000000e+01  0.00000000e+00  3.00000000e+01  0.00000000e+00  3.00000000e+01  0.00000000e+00  3.00000000e+01 -1.97947153e-09  3.00000000e+01  1.59070274e-12  3.00000000e+01  1.97787083e-09  3.00000000e+01  9.99730128e-15 
 1.00000000e+02  2.00000000e-01  1.00000000e+02  2.00000000e-01  1.00000000e+02  0.00000000e+00  1.00000000e+02  0.00000000e+00  1.00000000e+02  0.00000000e+00  1.00000000e+02 -1.47670895e-08  1.00000000e+02  1.59070274e-12  1.00000000e+02  1.47654888e-08  1.00000000e+02  9.99441345e-15 
 3.00000000e+01  2.50000000e-01  3.00000000e+01  2.50000000e-01  3.00000000e+01  0.00000000e+00  3.00000000e+01  0.00000000e+00  3.00000000e+01  0.00000000e+00  3.00000000e+01 -2.27649428e-09  3.00000000e+01  1.11240952e-11  3.00000000e+01  2.26536018e-09  3.00000000e+01  1.00023553e-14 
 1.00000000e+02  2.50000000e-01  1.00000000e+02  2.50000000e-01  1.00000000e+02  0.00000000e+00  1.00000000e+02  0.00000000e+00  1.00000000e+02  0.00000000e+00  1.00000000e+02 -1.65116580e-08  1.00000000e+02  1.11240952e-11  1.00000000e+02  1.65005238e-08  1.00000000e+02  1.00170469e-14 
 3.00000000e+01  3.00000000e-01  3.00000000e+01  3.00000000e-01  3.00000000e+01  0.00000000e+00  3.00000000e+01  0.00000000e+00  3.00000000e+01  0.00000000e+00  3.00000000e+01 -2.61718996e-09  3.00000000e+01  2.80741382e-11  3.00000000e+01  2.58910582e-09  3.00000000e+01  1.00042190e-14 
 1.00000000e+02  3.00000000e-01  1.00000000e+02  3.00000000e-01  1.00000000e+02  0.00000000e+00  1.00000000e+02  0.00000000e+00  1.00000000e+02  0.00000000e+00  1.00000000e+02 -1.84229997e-08  1.00000000e+02  2.80741382e-11  1.00000000e+02  1.83949156e-08  1.00000000e+02  1.00286999e-14 
 3.00000000e+01  3.50000000e-01  3.00000000e+01  3.50000000e-01  3.00000000e+01  0.00000000e+00  3.00000000e+01  0.00000000e+00  3.00000000e+01  0.00000000e+00  3.00000000e+01 -3.00863929e-09  3.00000000e+01  5.33423200e-11  3.00000000e+01  2.95528697e-09  3.00000000e+01  1.00058703e-14 
 1.00000000e+02  3.50000000e-01  1.00000000e+02  3.50000000e-01  1.00000000e+02  0.00000000e+00  1.00000000e+02  0.00000000e+00  1.00000000e+02  0.00000000e+00  1.00000000e+02 -2.05307673e-08  1.00000000e+02  5.33423200e-11  1.00000000e+02  2.04774149e-08  1.00000000e+02  1.00393374e-14 
 3.00000000e+01  4.00000000e-01  3.00000000e+01  4.00000000e-01  3.00000000e+01  0.00000000e+00  3.00000000e+01  0.00000000e+00  3.00000000e+01  0.00000000e+00  3.00000000e+01 -3.45909422e-09  3.00000000e+01  8.88967412e-11  3.00000000e+01  3.37018747e-09  3.00000000e+01  1.00077971e-14 
 1.00000000e+02  4.00000000e-01  1.00000000e+02  4.00000000e-01  1.00000000e+02  0.00000000e+00  1.00000000e+02  0.00000000e+00  1.00000000e+02  0.00000000e+00  1.00000000e+02 -2.28619524e-08  1.00000000e+02  8.88967412e-11  1.00000000e+02  2.27730456e-08  1.00000000e+02  1.00512561e-14 
 3.00000000e+01  4.50000000e-01  3.00000000e+01  4.50000000e-01  3.00000000e+01  0.00000000e+00  3.00000000e+01  0.00000000e+00  3.00000000e+01  0.00000000e+00  3.00000000e+01 -3.97772665e-09  3.00000000e+01  1.37100118e-10  3.00000000e+01  3.84061652e-09  3.00000000e+01  1.00101280e-14 
 1.00000000e+02  4.50000000e-01  1.00000000e+02  4.50000000e-01  1.00000000e+02  0.00000000e+00  1.00000000e+02  0.00000000e+00  1.00000000e+02  0.00000000e+00  1.00000000e+02 -2.54437837e-08  1.00000000e+02  1.37100118e-10  1.00000000e+02  2.53066736e-08  1.00000000e+02  1.00651602e-14 
 3.00000000e+01  5.00000000e-01  3.00000000e+01  5.00000000e-01  3.00000000e+01  0.00000000e+00  3.00000000e+01  0.00000000e+00  3.00000000e+01  0.00000000e+00  3.00000000e+01 -4.57488000e-09  3.00000000e+01  2.00749860e-10  3.00000000e+01  4.37412013e-09  3.00000000e+01  1.00129487e-14 
 1.00000000e+02  5.00000000e-01  1.00000000e+02  5.00000000e-01  1.00000000e+02  0.00000000e+00  1.00000000e+02  0.00000000e+00  1.00000000e+02  0.00000000e+00  1.00000000e+02 -2.83051162e-08  1.00000000e+02  2.00749860e-10  1.00000000e+02  2.81043563e-08  1.00000000e+02  1.00814468e-14 
 3.00000000e+01  5.50000000e-01  3.00000000e+01  5.50000000e-01  3.00000000e+01  0.00000000e+00  3.00000000e+01  0.00000000e+00  3.00000000e+01  0.00000000e+00  3.00000000e+01 -5.26228699e-09  3.00000000e+01  2.83143673e-10  3.00000000e+01  4.97913330e-09  3.00000000e+01  1.00163493e-14 
 1.00000000e+02  5.50000000e-01  1.00000000e+02  5.50000000e-01  1.00000000e+02  0.00000000e+00  1.00000000e+02  0.00000000e+00  1.00000000e+02  0.00000000e+00  1.00000000e+02 -3.14771682e-08  1.00000000e+02  2.83143673e-10  1.00000000e+02  3.11940145e-08  1.00000000e+02  1.01004808e-14 
 3.00000000e+01  6.00000000e-01  3.00000000e+01  6.00000000e-01  3.00000000e+01  0.00000000e+00  3.00000000e+01  0.00000000e+00  3.00000000e+01  0.00000000e+00  3.00000000e+01 -6.05328482e-09  3.00000000e+01  3.88157526e-10  3.00000000e+01  5.66511727e-09  3.00000000e+01  1.00204337e-14 
 1.00000000e+02  6.00000000e-01  1.00000000e+02  6.00000000e-01  1.00000000e+02  0.00000000e+00  1.00000000e+02  0.00000000e+00  1.00000000e+02  0.00000000e+00  1.00000000e+02 -3.49940280e-08  1.00000000e+02  3.88157526e-10  1.00000000e+02  3.46058603e-08  1.00000000e+02  1.01226562e-14 
 3.00000000e+01  6.50000000e-01  3.00000000e+01  6.50000000e-01  3.00000000e+01  0.00000000e+00  3.00000000e+01  0.00000000e+00  3.00000000e+01  0.00000000e+00  3.00000000e+01 -6.96304358e-09  3.00000000e+01  5.20335623e-10  3.00000000e+01  6.44269793e-09  3.00000000e+01  1.00253222e-14 
 1.00000000e+02  6.50000000e-01  1.00000000e+02  6.50000000e-01  1.00000000e+02  0.00000000e+00  1.00000000e+02  0.00000000e+00  1.00000000e+02  0.00000000e+00  1.00000000e+02 -3.88930780e-08  1.00000000e+02  5.20335623e-10  1.00000000e+02  3.83727322e-08  1.00000000e+02  1.01484132e-14 
 3.00000000e+01  7.00000000e-01  3.00000000e+01  7.00000000e-01  3.00000000e+01  0.00000000e+00  3.00000000e+01  0.00000000e+00  3.00000000e+01  0.00000000e+00  3.00000000e+01 -8.00881621e-09  3.00000000e+01  6.84993647e-10  3.00000000e+01  7.32381253e-09  3.00000000e+01  1.00311544e-14 
 1.00000000e+02  7.00000000e-01  1.00000000e+02  7.00000000e-01  1.00000000e+02  0.00000000e+00  1.00000000e+02  0.00000000e+00  1.00000000e+02  0.00000000e+00  1.00000000e+02 -4.32153977e-08  1.00000000e+02  6.84993647e-10  1.00000000e+02  4.25303939e-08  1.00000000e+02  1.01782461e-14 
 3.00000000e+01  7.50000000e-01  3.00000000e+01  7.50000000e-01  3.00000000e+01  0.00000000e+00  3.00000000e+01  0.00000000e+00  3.00000000e+01  0.00000000e+00  3.00000000e+01 -9.21021581e-09  3.00000000e+01  8.88336944e-10  3.00000000e+01  8.32186883e-09  3.00000000e+01  1.00380924e-14 
 1.00000000e+02  7.50000000e-01  1.00000000e+02  7.50000000e-01  1.00000000e+02  0.00000000e+00  1.00000000e+02  0.00000000e+00  1.00000000e+02  0.00000000e+00  1.00000000e+02 -4.80061711e-08  1.00000000e+02  8.88336944e-10  1.00000000e+02  4.71178239e-08  1.00000000e+02  1.02127101e-14 
 3.00000000e+01  8.00000000e-01  3.00000000e+01  8.00000000e-01  3.00000000e+01  0.00000000e+00  3.00000000e+01  0.00000000e+00  3.00000000e+01  0.00000000e+00  3.00000000e+01 -1.05895249e-08  3.00000000e+01  1.13759569e-09  3.00000000e+01  9.45191921e-09  3.00000000e+01  1.00463233e-14 
 1.00000000e+02  8.00000000e-01  1.00000000e+02  8.00000000e-01  1.00000000e+02  0.00000000e+00  1.00000000e+02  0.00000000e+00  1.00000000e+02  0.00000000e+00  1.00000000e+02 -5.33151164e-08  1.00000000e+02  1.13759569e-09  1.00000000e+02  5.21775105e-08  1.00000000e+02  1.02524273e-14 
 3.00000000e+01  8.50000000e-01  3.00000000e+01  8.50000000e-01  3.00000000e+01  0.00000000e+00  3.00000000e+01  0.00000000e+00  3.00000000e+01  0.00000000e+00  3.00000000e+01 -1.21720419e-08  3.00000000e+01  1.44117932e-09  3.00000000e+01  1.07308525e-08  3.00000000e+01  1.00560636e-14 
 1.00000000e+02  8.50000000e-01  1.00000000e+02  8.50000000e-01  1.00000000e+02  0.00000000e+00  1.00000000e+02  0.00000000e+00  1.00000000e+02  0.00000000e+00  1.00000000e+02 -5.91969476e-08  1.00000000e+02  1.44117932e-09  1.00000000e+02  5.77557580e-08  1.00000000e+02  1.02980950e-14 
 3.00000000e+01  9.00000000e-01  3.00000000e+01  9.00000000e-01  3.00000000e+01  0.00000000e+00  3.00000000e+01  0.00000000e+00  3.00000000e+01  0.00000000e+00  3.00000000e+01 -1.39864686e-08  3.00000000e+01  1.80885283e-09  3.00000000e+01  1.21776057e-08  3.00000000e+01  1.00675628e-14 
 1.00000000e+02  9.00000000e-01  1.00000000e+02  9.00000000e-01  1.00000000e+02  0.00000000e+00  1.00000000e+02  0.00000000e+00  1.00000000e+02  0.00000000e+00  1.00000000e+02 -6.57118760e-08  1.00000000e+02  1.80885283e-09  1.00000000e+02  6.39030129e-08  1.00000000e+02  1.03504923e-14 
 3.00000000e+01  9.50000000e-01  3.00000000e+01  9.50000000e-01  3.00000000e+01  0.00000000e+00  3.00000000e+01  0.00000000e+00  3.00000000e+01  0.00000000e+00  3.00000000e+01 -1.60653465e-08  3.00000000e+01  2.25193801e-09  3.00000000e+01  1.38133983e-08  3.00000000e+01  1.02066363e-14 
 1.00000000e+02  9.50000000e-01  1.00000000e+02  9.50000000e-01  1.00000000e+02  0.00000000e+00  1.00000000e+02  0.00000000e+00  1.00000000e+02  0.00000000e+00  1.00000000e+02 -7.29261626e-08  1.00000000e+02  2.25193801e-09  1.00000000e+02  7.06742139e-08  1.00000000e+02  1.07306748e-14 
 3.00000000e+01  1.00000000e+00  3.00000000e+01  1.00000000e+00  3.00000000e+01  0.00000000e+00  3.00000000e+01  0.00000000e+00  3.00000000e+01  0.00000000e+00  3.00000000e+01 -1.84455468e-08  3.00000000e+01  2.78354272e-09  3.00000000e+01  1.56619921e-08  3.00000000e+01  1.20403781e-14 
 1.00000000e+02  1.00000000e+00  1.00000000e+02  1.00000000e+00  1.00000000e+02  0.00000000e+00  1.00000000e+02  0.00000000e+00  1.00000000e+02  0.00000000e+00  1.00000000e+02 -8.09127318e-08  1.00000000e+02  2.78354272e-09  1.00000000e+02  7.81291735e-08  1.00000000e+02  1.56216681e-14 
 3.00000000e+01  1.05000000e+00  3.00000000e+01  1.05000000e+00  3.00000000e+01  0.00000000e+00  3.00000000e+01  0.00000000e+00  3.00000000e+01  0.00000000e+00  3.00000000e+01 -2.11690556e-08  3.00000000e+01  3.41882235e-09  3.00000000e+01  1.77499799e-08  3.00000000e+01  2.53353632e-13 
 1.00000000e+02  1.05000000e+00  1.00000000e+02  1.05000000e+00  1.00000000e+02  0.00000000e+00  1.00000000e+02  0.00000000e+00  1.00000000e+02  0.00000000e+00  1.00000000e+02 -8.97520914e-08  1.00000000e+02  3.41882235e-09  1.00000000e+02  8.63329953e-08  1.00000000e+02  2.73754595e-13 
 3.00000000e+01  1.10000000e+00  3.00000000e+01  1.10000000e+00  3.00000000e+01  0.00000000e+00  3.00000000e+01  0.00000000e+00  3.00000000e+01  0.00000000e+00  3.00000000e+01 -2.42948153e-08  3.00000000e+01  4.17527744e-09  3.00000000e+01  2.01071073e-08  3.00000000e+01  1.24304818e-11 
 1.00000000e+02  1.10000000e+00  1.00000000e+02  1.10000000e+00  1.00000000e+02  0.00000000e+00  1.00000000e+02  0.00000000e+00  1.00000000e+02  0.00000000e+00  1.00000000e+02 -9.95443434e-08  1.00000000e+02  4.17527744e-09  1.00000000e+02  9.53565360e-08  1.00000000e+02  1.25299026e-11 
 3.00000000e+01  1.15000000e+00  3.00000000e+01  1.15000000e+00  3.00000000e+01  0.00000000e+00  3.00000000e+01  0.00000000e+00  3.00000000e+01  0.00000000e+00  3.00000000e+01 -2.80548524e-08  3.00000000e+01  5.07309248e-09  3.00000000e+01  2.27666308e-08  3.00000000e+01  2.15129113e-10 
 1.00000000e+02  1.15000000e+00  1.00000000e+02  1.15000000e+00  1.00000000e+02  0.00000000e+00  1.00000000e+02  0.00000000e+00  1.00000000e+02  0.00000000e+00  1.00000000e+02 -1.10565562e-07  1.00000000e+02  5.07309248e-09  1.00000000e+02  1.05276917e-07  1.00000000e+02  2.15552495e-10 
 3.00000000e+01  1.20000000e+00  3.00000000e+01  1.20000000e+00  3.00000000e+01  0.00000000e+00  3.00000000e+01  0.00000000e+00  3.00000000e+01  0.00000000e+00  3.00000000e+01 -3.37630774e-08  3.00000000e+01  6.13552133e-09  3.00000000e+01  2.57657182e-08  3.00000000e+01  1.86183786e-09 
 1.00000000e+02  1.20000000e+00  1.00000000e+02  1.20000000e+00  1.00000000e+02  0.00000000e+00  1.00000000e+02  0.00000000e+00  1.00000000e+02  0.00000000e+00  1.00000000e+02 -1.24177060e-07  1.00000000e+02  6.13552133e-09  1.00000000e+02  1.16178098e-07  1.00000000e+02  1.86344116e-09 
