Title: *nmos off - w3
Date: Tue Feb 15 20:26:13  2022
Plotname: DC transfer characteristic
Flags: real
No. Variables: 10
No. Points: 2
Variables:
	0	temp-sweep	temp-sweep
	1	abs(v(alim))	voltage
	2	v(drain)	voltage
	3	v(gate)	voltage
	4	v(source)	voltage
	5	v(body)	voltage
	6	i(i(vd))	current
	7	i(i(vg))	current
	8	i(i(vs))	current
	9	i(i(vb))	current
Values:
 0	3.000000000000000e+01
	5.000000000000000e-02
	5.000000000000000e-02
	0.000000000000000e+00
	0.000000000000000e+00
	0.000000000000000e+00
	-1.813936373522266e-09
	1.123199908564251e-11
	1.802695849025730e-09
	8.525410893800873e-15

 1	1.000000000000000e+02
	5.000000000000000e-02
	5.000000000000000e-02
	0.000000000000000e+00
	0.000000000000000e+00
	0.000000000000000e+00
	-1.394608977652857e-08
	1.123199908564208e-11
	1.393484988788210e-08
	7.889560833039330e-15

Title: *nmos off - w3
Date: Tue Feb 15 20:26:13  2022
Plotname: DC transfer characteristic
Flags: real
No. Variables: 10
No. Points: 2
Variables:
	0	temp-sweep	temp-sweep
	1	abs(v(alim))	voltage
	2	v(drain)	voltage
	3	v(gate)	voltage
	4	v(source)	voltage
	5	v(body)	voltage
	6	i(i(vd))	current
	7	i(i(vg))	current
	8	i(i(vs))	current
	9	i(i(vb))	current
Values:
 0	3.000000000000000e+01
	1.000000000000000e-01
	1.000000000000000e-01
	0.000000000000000e+00
	0.000000000000000e+00
	0.000000000000000e+00
	-2.317948006286374e-09
	1.349006093297028e-11
	2.304448161939056e-09
	9.783414348043077e-15

 1	1.000000000000000e+02
	1.000000000000000e-01
	1.000000000000000e-01
	0.000000000000000e+00
	0.000000000000000e+00
	0.000000000000000e+00
	-1.799228212343521e-08
	1.349006093296976e-11
	1.797878250217802e-08
	9.560324224000336e-15

Title: *nmos off - w3
Date: Tue Feb 15 20:26:13  2022
Plotname: DC transfer characteristic
Flags: real
No. Variables: 10
No. Points: 2
Variables:
	0	temp-sweep	temp-sweep
	1	abs(v(alim))	voltage
	2	v(drain)	voltage
	3	v(gate)	voltage
	4	v(source)	voltage
	5	v(body)	voltage
	6	i(i(vd))	current
	7	i(i(vg))	current
	8	i(i(vs))	current
	9	i(i(vb))	current
Values:
 0	3.000000000000000e+01
	1.500000000000000e-01
	1.500000000000000e-01
	0.000000000000000e+00
	0.000000000000000e+00
	0.000000000000000e+00
	-2.696261998638231e-09
	9.029071358787701e-12
	2.687222957450636e-09
	9.969828807670928e-15

 1	1.000000000000000e+02
	1.500000000000000e-01
	1.500000000000000e-01
	0.000000000000000e+00
	0.000000000000000e+00
	0.000000000000000e+00
	-2.055366544942251e-08
	9.029071358787357e-12
	2.054462645881693e-08
	9.919246790330803e-15

Title: *nmos off - w3
Date: Tue Feb 15 20:26:13  2022
Plotname: DC transfer characteristic
Flags: real
No. Variables: 10
No. Points: 2
Variables:
	0	temp-sweep	temp-sweep
	1	abs(v(alim))	voltage
	2	v(drain)	voltage
	3	v(gate)	voltage
	4	v(source)	voltage
	5	v(body)	voltage
	6	i(i(vd))	current
	7	i(i(vg))	current
	8	i(i(vs))	current
	9	i(i(vb))	current
Values:
 0	3.000000000000000e+01
	2.000000000000000e-01
	2.000000000000000e-01
	0.000000000000000e+00
	0.000000000000000e+00
	0.000000000000000e+00
	-3.093888887604883e-09
	2.485473024144671e-12
	3.091393416136745e-09
	9.998443993098831e-15

 1	1.000000000000000e+02
	2.000000000000000e-01
	2.000000000000000e-01
	0.000000000000000e+00
	0.000000000000000e+00
	0.000000000000000e+00
	-2.308062889792086e-08
	2.485473024144574e-12
	2.307813342243369e-08
	1.000246302926001e-14

Title: *nmos off - w3
Date: Tue Feb 15 20:26:13  2022
Plotname: DC transfer characteristic
Flags: real
No. Variables: 10
No. Points: 2
Variables:
	0	temp-sweep	temp-sweep
	1	abs(v(alim))	voltage
	2	v(drain)	voltage
	3	v(gate)	voltage
	4	v(source)	voltage
	5	v(body)	voltage
	6	i(i(vd))	current
	7	i(i(vg))	current
	8	i(i(vs))	current
	9	i(i(vb))	current
Values:
 0	3.000000000000000e+01
	2.500000000000000e-01
	2.500000000000000e-01
	0.000000000000000e+00
	0.000000000000000e+00
	0.000000000000000e+00
	-3.558106934157030e-09
	1.738139880177398e-11
	3.540715531282949e-09
	1.000407230771307e-14

 1	1.000000000000000e+02
	2.500000000000000e-01
	2.500000000000000e-01
	0.000000000000000e+00
	0.000000000000000e+00
	0.000000000000000e+00
	-2.580713911846646e-08
	1.738139880177332e-11
	2.578974769066169e-08
	1.002900300054981e-14

Title: *nmos off - w3
Date: Tue Feb 15 20:26:13  2022
Plotname: DC transfer characteristic
Flags: real
No. Variables: 10
No. Points: 2
Variables:
	0	temp-sweep	temp-sweep
	1	abs(v(alim))	voltage
	2	v(drain)	voltage
	3	v(gate)	voltage
	4	v(source)	voltage
	5	v(body)	voltage
	6	i(i(vd))	current
	7	i(i(vg))	current
	8	i(i(vs))	current
	9	i(i(vb))	current
Values:
 0	3.000000000000000e+01
	3.000000000000000e-01
	3.000000000000000e-01
	0.000000000000000e+00
	0.000000000000000e+00
	0.000000000000000e+00
	-4.090584660218636e-09
	4.386584096395247e-11
	4.046708812604797e-09
	1.000664988687851e-14

 1	1.000000000000000e+02
	3.000000000000000e-01
	3.000000000000000e-01
	0.000000000000000e+00
	0.000000000000000e+00
	0.000000000000000e+00
	-2.879433093009355e-08
	4.386584096395077e-11
	2.875045504378029e-08
	1.004534930130980e-14

Title: *nmos off - w3
Date: Tue Feb 15 20:26:13  2022
Plotname: DC transfer characteristic
Flags: real
No. Variables: 10
No. Points: 2
Variables:
	0	temp-sweep	temp-sweep
	1	abs(v(alim))	voltage
	2	v(drain)	voltage
	3	v(gate)	voltage
	4	v(source)	voltage
	5	v(body)	voltage
	6	i(i(vd))	current
	7	i(i(vg))	current
	8	i(i(vs))	current
	9	i(i(vb))	current
Values:
 0	3.000000000000000e+01
	3.500000000000000e-01
	3.500000000000000e-01
	0.000000000000000e+00
	0.000000000000000e+00
	0.000000000000000e+00
	-4.702387089651989e-09
	8.334737498895031e-11
	4.619029705481918e-09
	1.000918112063686e-14

 1	1.000000000000000e+02
	3.500000000000000e-01
	3.500000000000000e-01
	0.000000000000000e+00
	0.000000000000000e+00
	0.000000000000000e+00
	-3.208853246929069e-08
	8.334737498894711e-11
	3.200517503272182e-08
	1.006157993068656e-14

Title: *nmos off - w3
Date: Tue Feb 15 20:26:13  2022
Plotname: DC transfer characteristic
Flags: real
No. Variables: 10
No. Points: 2
Variables:
	0	temp-sweep	temp-sweep
	1	abs(v(alim))	voltage
	2	v(drain)	voltage
	3	v(gate)	voltage
	4	v(source)	voltage
	5	v(body)	voltage
	6	i(i(vd))	current
	7	i(i(vg))	current
	8	i(i(vs))	current
	9	i(i(vb))	current
Values:
 0	3.000000000000000e+01
	4.000000000000000e-01
	4.000000000000000e-01
	0.000000000000000e+00
	0.000000000000000e+00
	0.000000000000000e+00
	-5.406410047607521e-09
	1.389011580539152e-10
	5.267498877368742e-09
	1.001218486213537e-14

 1	1.000000000000000e+02
	4.000000000000000e-01
	4.000000000000000e-01
	0.000000000000000e+00
	0.000000000000000e+00
	0.000000000000000e+00
	-3.573191874043930e-08
	1.389011580539098e-10
	3.559300750226171e-08
	1.008012368005831e-14

Title: *nmos off - w3
Date: Tue Feb 15 20:26:13  2022
Plotname: DC transfer characteristic
Flags: real
No. Variables: 10
No. Points: 2
Variables:
	0	temp-sweep	temp-sweep
	1	abs(v(alim))	voltage
	2	v(drain)	voltage
	3	v(gate)	voltage
	4	v(source)	voltage
	5	v(body)	voltage
	6	i(i(vd))	current
	7	i(i(vg))	current
	8	i(i(vs))	current
	9	i(i(vb))	current
Values:
 0	3.000000000000000e+01
	4.500000000000000e-01
	4.500000000000000e-01
	0.000000000000000e+00
	0.000000000000000e+00
	0.000000000000000e+00
	-6.216987398318509e-09
	2.142189344138892e-10
	6.002758448078072e-09
	1.001582654724808e-14

 1	1.000000000000000e+02
	4.500000000000000e-01
	4.500000000000000e-01
	0.000000000000000e+00
	0.000000000000000e+00
	0.000000000000000e+00
	-3.976703743793977e-08
	2.142189344138810e-10
	3.955280840169002e-08
	1.010183587754429e-14

Title: *nmos off - w3
Date: Tue Feb 15 20:26:13  2022
Plotname: DC transfer characteristic
Flags: real
No. Variables: 10
No. Points: 2
Variables:
	0	temp-sweep	temp-sweep
	1	abs(v(alim))	voltage
	2	v(drain)	voltage
	3	v(gate)	voltage
	4	v(source)	voltage
	5	v(body)	voltage
	6	i(i(vd))	current
	7	i(i(vg))	current
	8	i(i(vs))	current
	9	i(i(vb))	current
Values:
 0	3.000000000000000e+01
	4.999999999999999e-01
	4.999999999999999e-01
	0.000000000000000e+00
	0.000000000000000e+00
	0.000000000000000e+00
	-7.150283981317816e-09
	3.136716555175773e-10
	6.836602305565667e-09
	1.002023457106166e-14

 1	1.000000000000000e+02
	4.999999999999999e-01
	4.999999999999999e-01
	0.000000000000000e+00
	0.000000000000000e+00
	0.000000000000000e+00
	-4.423897879429467e-08
	3.136716555175652e-10
	4.392529701149162e-08
	1.012728548443120e-14

Title: *nmos off - w3
Date: Tue Feb 15 20:26:13  2022
Plotname: DC transfer characteristic
Flags: real
No. Variables: 10
No. Points: 2
Variables:
	0	temp-sweep	temp-sweep
	1	abs(v(alim))	voltage
	2	v(drain)	voltage
	3	v(gate)	voltage
	4	v(source)	voltage
	5	v(body)	voltage
	6	i(i(vd))	current
	7	i(i(vg))	current
	8	i(i(vs))	current
	9	i(i(vb))	current
Values:
 0	3.000000000000000e+01
	5.499999999999999e-01
	5.499999999999999e-01
	0.000000000000000e+00
	0.000000000000000e+00
	0.000000000000000e+00
	-8.224635923532315e-09
	4.424119890529387e-10
	7.782213908930166e-09
	1.002554921157088e-14

 1	1.000000000000000e+02
	5.499999999999999e-01
	5.499999999999999e-01
	0.000000000000000e+00
	0.000000000000000e+00
	0.000000000000000e+00
	-4.919652641694810e-08
	4.424119890529219e-10
	4.875410427086343e-08
	1.015703173875620e-14

Title: *nmos off - w3
Date: Tue Feb 15 20:26:13  2022
Plotname: DC transfer characteristic
Flags: real
No. Variables: 10
No. Points: 2
Variables:
	0	temp-sweep	temp-sweep
	1	abs(v(alim))	voltage
	2	v(drain)	voltage
	3	v(gate)	voltage
	4	v(source)	voltage
	5	v(body)	voltage
	6	i(i(vd))	current
	7	i(i(vg))	current
	8	i(i(vs))	current
	9	i(i(vb))	current
Values:
 0	3.000000000000000e+01
	6.000000000000000e-01
	6.000000000000000e-01
	0.000000000000000e+00
	0.000000000000000e+00
	0.000000000000000e+00
	-9.460886884619834e-09
	6.064961326487627e-10
	8.854380720038614e-09
	1.003193245638648e-14

 1	1.000000000000000e+02
	6.000000000000000e-01
	6.000000000000000e-01
	0.000000000000000e+00
	0.000000000000000e+00
	0.000000000000000e+00
	-5.469294834661279e-08
	6.064961326487395e-10
	5.408644202227592e-08
	1.019168811772363e-14

Title: *nmos off - w3
Date: Tue Feb 15 20:26:13  2022
Plotname: DC transfer characteristic
Flags: real
No. Variables: 10
No. Points: 2
Variables:
	0	temp-sweep	temp-sweep
	1	abs(v(alim))	voltage
	2	v(drain)	voltage
	3	v(gate)	voltage
	4	v(source)	voltage
	5	v(body)	voltage
	6	i(i(vd))	current
	7	i(i(vg))	current
	8	i(i(vs))	current
	9	i(i(vb))	current
Values:
 0	3.000000000000000e+01
	6.500000000000000e-01
	6.500000000000000e-01
	0.000000000000000e+00
	0.000000000000000e+00
	0.000000000000000e+00
	-1.088274492171327e-08
	8.130244093211533e-10
	1.006971047281967e-08
	1.003957244053595e-14

 1	1.000000000000000e+02
	6.500000000000000e-01
	6.500000000000000e-01
	0.000000000000000e+00
	0.000000000000000e+00
	0.000000000000000e+00
	-6.078665992005110e-08
	8.130244093211223e-10
	5.997362527878793e-08
	1.023194205112894e-14

Title: *nmos off - w3
Date: Tue Feb 15 20:26:13  2022
Plotname: DC transfer characteristic
Flags: real
No. Variables: 10
No. Points: 2
Variables:
	0	temp-sweep	temp-sweep
	1	abs(v(alim))	voltage
	2	v(drain)	voltage
	3	v(gate)	voltage
	4	v(source)	voltage
	5	v(body)	voltage
	6	i(i(vd))	current
	7	i(i(vg))	current
	8	i(i(vs))	current
	9	i(i(vb))	current
Values:
 0	3.000000000000000e+01
	7.000000000000001e-01
	7.000000000000001e-01
	0.000000000000000e+00
	0.000000000000000e+00
	0.000000000000000e+00
	-1.251717312049025e-08
	1.070302570602119e-09
	1.144686050120063e-08
	1.004868750679916e-14

 1	1.000000000000000e+02
	7.000000000000001e-01
	7.000000000000001e-01
	0.000000000000000e+00
	0.000000000000000e+00
	0.000000000000000e+00
	-6.754185199638524e-08
	1.070302570602079e-09
	6.647153914721717e-08
	1.027856595769110e-14

Title: *nmos off - w3
Date: Tue Feb 15 20:26:13  2022
Plotname: DC transfer characteristic
Flags: real
No. Variables: 10
No. Points: 2
Variables:
	0	temp-sweep	temp-sweep
	1	abs(v(alim))	voltage
	2	v(drain)	voltage
	3	v(gate)	voltage
	4	v(source)	voltage
	5	v(body)	voltage
	6	i(i(vd))	current
	7	i(i(vg))	current
	8	i(i(vs))	current
	9	i(i(vb))	current
Values:
 0	3.000000000000000e+01
	7.500000000000001e-01
	7.500000000000001e-01
	0.000000000000000e+00
	0.000000000000000e+00
	0.000000000000000e+00
	-1.439482286921651e-08
	1.388026471277751e-09
	1.300678633840809e-08
	1.005953067495735e-14

 1	1.000000000000000e+02
	7.500000000000001e-01
	7.500000000000001e-01
	0.000000000000000e+00
	0.000000000000000e+00
	0.000000000000000e+00
	-7.502912822305013e-08
	1.388026471277698e-09
	7.364109141934529e-08
	1.033242714181073e-14

Title: *nmos off - w3
Date: Tue Feb 15 20:26:13  2022
Plotname: DC transfer characteristic
Flags: real
No. Variables: 10
No. Points: 2
Variables:
	0	temp-sweep	temp-sweep
	1	abs(v(alim))	voltage
	2	v(drain)	voltage
	3	v(gate)	voltage
	4	v(source)	voltage
	5	v(body)	voltage
	6	i(i(vd))	current
	7	i(i(vg))	current
	8	i(i(vs))	current
	9	i(i(vb))	current
Values:
 0	3.000000000000000e+01
	8.000000000000002e-01
	8.000000000000002e-01
	0.000000000000000e+00
	0.000000000000000e+00
	0.000000000000000e+00
	-1.655051727465636e-08
	1.777493258075104e-09
	1.477301394418657e-08
	1.007239468922172e-14

 1	1.000000000000000e+02
	8.000000000000002e-01
	8.000000000000002e-01
	0.000000000000000e+00
	0.000000000000000e+00
	0.000000000000000e+00
	-8.332617551927122e-08
	1.777493258075037e-09
	8.154867186669798e-08
	1.039449818020397e-14

Title: *nmos off - w3
Date: Tue Feb 15 20:26:13  2022
Plotname: DC transfer characteristic
Flags: real
No. Variables: 10
No. Points: 2
Variables:
	0	temp-sweep	temp-sweep
	1	abs(v(alim))	voltage
	2	v(drain)	voltage
	3	v(gate)	voltage
	4	v(source)	voltage
	5	v(body)	voltage
	6	i(i(vd))	current
	7	i(i(vg))	current
	8	i(i(vs))	current
	9	i(i(vb))	current
Values:
 0	3.000000000000000e+01
	8.500000000000002e-01
	8.500000000000002e-01
	0.000000000000000e+00
	0.000000000000000e+00
	0.000000000000000e+00
	-1.902379209497983e-08
	2.251842670065023e-09
	1.677193933729708e-08
	1.008761772773149e-14

 1	1.000000000000000e+02
	8.500000000000002e-01
	8.500000000000002e-01
	0.000000000000000e+00
	0.000000000000000e+00
	0.000000000000000e+00
	-9.251848427978141e-08
	2.251842670064935e-09
	9.026663114384825e-08
	1.046586818709246e-14

Title: *nmos off - w3
Date: Tue Feb 15 20:26:13  2022
Plotname: DC transfer characteristic
Flags: real
No. Variables: 10
No. Points: 2
Variables:
	0	temp-sweep	temp-sweep
	1	abs(v(alim))	voltage
	2	v(drain)	voltage
	3	v(gate)	voltage
	4	v(source)	voltage
	5	v(body)	voltage
	6	i(i(vd))	current
	7	i(i(vg))	current
	8	i(i(vs))	current
	9	i(i(vb))	current
Values:
 0	3.000000000000000e+01
	9.000000000000002e-01
	9.000000000000002e-01
	0.000000000000000e+00
	0.000000000000000e+00
	0.000000000000000e+00
	-2.185950206663350e-08
	2.826332537776761e-09
	1.903315942326689e-08
	1.010558985098882e-14

 1	1.000000000000000e+02
	9.000000000000002e-01
	9.000000000000002e-01
	0.000000000000000e+00
	0.000000000000000e+00
	0.000000000000000e+00
	-1.027001322047491e-07
	2.826332537776652e-09
	9.987378911921735e-08
	1.054775508876478e-14

Title: *nmos off - w3
Date: Tue Feb 15 20:26:13  2022
Plotname: DC transfer characteristic
Flags: real
No. Variables: 10
No. Points: 2
Variables:
	0	temp-sweep	temp-sweep
	1	abs(v(alim))	voltage
	2	v(drain)	voltage
	3	v(gate)	voltage
	4	v(source)	voltage
	5	v(body)	voltage
	6	i(i(vd))	current
	7	i(i(vg))	current
	8	i(i(vs))	current
	9	i(i(vb))	current
Values:
 0	3.000000000000000e+01
	9.500000000000003e-01
	9.500000000000003e-01
	0.000000000000000e+00
	0.000000000000000e+00
	0.000000000000000e+00
	-2.510850156170050e-08
	3.518653111644202e-09
	2.158983812742755e-08
	1.032262874738062e-14

 1	1.000000000000000e+02
	9.500000000000003e-01
	9.500000000000003e-01
	0.000000000000000e+00
	0.000000000000000e+00
	0.000000000000000e+00
	-1.139746458834139e-07
	3.518653111644065e-09
	1.104559816314034e-07
	1.114036641497278e-14

Title: *nmos off - w3
Date: Tue Feb 15 20:26:13  2022
Plotname: DC transfer characteristic
Flags: real
No. Variables: 10
No. Points: 2
Variables:
	0	temp-sweep	temp-sweep
	1	abs(v(alim))	voltage
	2	v(drain)	voltage
	3	v(gate)	voltage
	4	v(source)	voltage
	5	v(body)	voltage
	6	i(i(vd))	current
	7	i(i(vg))	current
	8	i(i(vs))	current
	9	i(i(vb))	current
Values:
 0	3.000000000000000e+01
	1.000000000000000e+00
	1.000000000000000e+00
	0.000000000000000e+00
	0.000000000000000e+00
	0.000000000000000e+00
	-2.882841104466448e-08
	4.349285460484205e-09
	2.447911243807470e-08
	1.314610556874194e-14

 1	1.000000000000000e+02
	1.000000000000000e+00
	1.000000000000000e+00
	0.000000000000000e+00
	0.000000000000000e+00
	0.000000000000000e+00
	-1.264559590485391e-07
	4.349285460484033e-09
	1.221066548527961e-07
	1.873525902111100e-14

Title: *nmos off - w3
Date: Tue Feb 15 20:26:13  2022
Plotname: DC transfer characteristic
Flags: real
No. Variables: 10
No. Points: 2
Variables:
	0	temp-sweep	temp-sweep
	1	abs(v(alim))	voltage
	2	v(drain)	voltage
	3	v(gate)	voltage
	4	v(source)	voltage
	5	v(body)	voltage
	6	i(i(vd))	current
	7	i(i(vg))	current
	8	i(i(vs))	current
	9	i(i(vb))	current
Values:
 0	3.000000000000000e+01
	1.050000000000000e+00
	1.050000000000000e+00
	0.000000000000000e+00
	0.000000000000000e+00
	0.000000000000000e+00
	-3.308482895039138e-08
	5.341909867472205e-09
	2.774254356807783e-08
	3.755148413382109e-13

 1	1.000000000000000e+02
	1.050000000000000e+00
	1.050000000000000e+00
	0.000000000000000e+00
	0.000000000000000e+00
	0.000000000000000e+00
	-1.402698342514604e-07
	5.341909867472001e-09
	1.349275170268771e-07
	4.073571113178944e-13

Title: *nmos off - w3
Date: Tue Feb 15 20:26:13  2022
Plotname: DC transfer characteristic
Flags: real
No. Variables: 10
No. Points: 2
Variables:
	0	temp-sweep	temp-sweep
	1	abs(v(alim))	voltage
	2	v(drain)	voltage
	3	v(gate)	voltage
	4	v(source)	voltage
	5	v(body)	voltage
	6	i(i(vd))	current
	7	i(i(vg))	current
	8	i(i(vs))	current
	9	i(i(vb))	current
Values:
 0	3.000000000000000e+01
	1.100000000000000e+00
	1.100000000000000e+00
	0.000000000000000e+00
	0.000000000000000e+00
	0.000000000000000e+00
	-3.796913313462939e-08
	6.523870924884747e-09
	3.142661912976962e-08
	1.864307997501666e-11

 1	1.000000000000000e+02
	1.100000000000000e+00
	1.100000000000000e+00
	0.000000000000000e+00
	0.000000000000000e+00
	0.000000000000000e+00
	-1.555719272666334e-07
	6.523870924884499e-09
	1.490292580695289e-07
	1.879827222007803e-11

Title: *nmos off - w3
Date: Tue Feb 15 20:26:13  2022
Plotname: DC transfer characteristic
Flags: real
No. Variables: 10
No. Points: 2
Variables:
	0	temp-sweep	temp-sweep
	1	abs(v(alim))	voltage
	2	v(drain)	voltage
	3	v(gate)	voltage
	4	v(source)	voltage
	5	v(body)	voltage
	6	i(i(vd))	current
	7	i(i(vg))	current
	8	i(i(vs))	current
	9	i(i(vb))	current
Values:
 0	3.000000000000000e+01
	1.150000000000000e+00
	1.150000000000000e+00
	0.000000000000000e+00
	0.000000000000000e+00
	0.000000000000000e+00
	-4.383271866971669e-08
	7.926706900940610e-09
	3.558331305269640e-08
	3.226987160797001e-10

 1	1.000000000000000e+02
	1.150000000000000e+00
	1.150000000000000e+00
	0.000000000000000e+00
	0.000000000000000e+00
	0.000000000000000e+00
	-1.727824150807104e-07
	7.926706900940357e-09
	1.645323485296867e-07
	3.233596500833454e-10

Title: *nmos off - w3
Date: Tue Feb 15 20:26:13  2022
Plotname: DC transfer characteristic
Flags: real
No. Variables: 10
No. Points: 2
Variables:
	0	temp-sweep	temp-sweep
	1	abs(v(alim))	voltage
	2	v(drain)	voltage
	3	v(gate)	voltage
	4	v(source)	voltage
	5	v(body)	voltage
	6	i(i(vd))	current
	7	i(i(vg))	current
	8	i(i(vs))	current
	9	i(i(vb))	current
Values:
 0	3.000000000000000e+01
	1.200000000000000e+00
	1.200000000000000e+00
	0.000000000000000e+00
	0.000000000000000e+00
	0.000000000000000e+00
	-5.265025310280703e-08
	9.586751934813844e-09
	4.027071123922051e-08
	2.792789928772639e-09

 1	1.000000000000000e+02
	1.200000000000000e+00
	1.200000000000000e+00
	0.000000000000000e+00
	0.000000000000000e+00
	0.000000000000000e+00
	-1.939499764350507e-07
	9.586751934813950e-09
	1.815679315249362e-07
	2.795292975300528e-09

