  temp-sweep      abs(v(alim))    v(drain)        v(gate)         temp-sweep      v(source)       v(body)         i(vd)           temp-sweep      i(vg)           i(vs)           i(vb)
 3.00000000e+01  5.00000000e-02  3.00000000e+01  5.00000000e-02  3.00000000e+01  0.00000000e+00  3.00000000e+01  0.00000000e+00  3.00000000e+01  0.00000000e+00  3.00000000e+01 -1.81393637e-09  3.00000000e+01  1.12319991e-11  3.00000000e+01  1.80269585e-09  3.00000000e+01  8.52541089e-15 
 1.00000000e+02  5.00000000e-02  1.00000000e+02  5.00000000e-02  1.00000000e+02  0.00000000e+00  1.00000000e+02  0.00000000e+00  1.00000000e+02  0.00000000e+00  1.00000000e+02 -1.39460898e-08  1.00000000e+02  1.12319991e-11  1.00000000e+02  1.39348499e-08  1.00000000e+02  7.88956083e-15 
 3.00000000e+01  1.00000000e-01  3.00000000e+01  1.00000000e-01  3.00000000e+01  0.00000000e+00  3.00000000e+01  0.00000000e+00  3.00000000e+01  0.00000000e+00  3.00000000e+01 -2.31794801e-09  3.00000000e+01  1.34900609e-11  3.00000000e+01  2.30444816e-09  3.00000000e+01  9.78341435e-15 
 1.00000000e+02  1.00000000e-01  1.00000000e+02  1.00000000e-01  1.00000000e+02  0.00000000e+00  1.00000000e+02  0.00000000e+00  1.00000000e+02  0.00000000e+00  1.00000000e+02 -1.79922821e-08  1.00000000e+02  1.34900609e-11  1.00000000e+02  1.79787825e-08  1.00000000e+02  9.56032422e-15 
 3.00000000e+01  1.50000000e-01  3.00000000e+01  1.50000000e-01  3.00000000e+01  0.00000000e+00  3.00000000e+01  0.00000000e+00  3.00000000e+01  0.00000000e+00  3.00000000e+01 -2.69626200e-09  3.00000000e+01  9.02907136e-12  3.00000000e+01  2.68722296e-09  3.00000000e+01  9.96982881e-15 
 1.00000000e+02  1.50000000e-01  1.00000000e+02  1.50000000e-01  1.00000000e+02  0.00000000e+00  1.00000000e+02  0.00000000e+00  1.00000000e+02  0.00000000e+00  1.00000000e+02 -2.05536654e-08  1.00000000e+02  9.02907136e-12  1.00000000e+02  2.05446265e-08  1.00000000e+02  9.91924679e-15 
 3.00000000e+01  2.00000000e-01  3.00000000e+01  2.00000000e-01  3.00000000e+01  0.00000000e+00  3.00000000e+01  0.00000000e+00  3.00000000e+01  0.00000000e+00  3.00000000e+01 -3.09388889e-09  3.00000000e+01  2.48547302e-12  3.00000000e+01  3.09139342e-09  3.00000000e+01  9.99844399e-15 
 1.00000000e+02  2.00000000e-01  1.00000000e+02  2.00000000e-01  1.00000000e+02  0.00000000e+00  1.00000000e+02  0.00000000e+00  1.00000000e+02  0.00000000e+00  1.00000000e+02 -2.30806289e-08  1.00000000e+02  2.48547302e-12  1.00000000e+02  2.30781334e-08  1.00000000e+02  1.00024630e-14 
 3.00000000e+01  2.50000000e-01  3.00000000e+01  2.50000000e-01  3.00000000e+01  0.00000000e+00  3.00000000e+01  0.00000000e+00  3.00000000e+01  0.00000000e+00  3.00000000e+01 -3.55810693e-09  3.00000000e+01  1.73813988e-11  3.00000000e+01  3.54071553e-09  3.00000000e+01  1.00040723e-14 
 1.00000000e+02  2.50000000e-01  1.00000000e+02  2.50000000e-01  1.00000000e+02  0.00000000e+00  1.00000000e+02  0.00000000e+00  1.00000000e+02  0.00000000e+00  1.00000000e+02 -2.58071391e-08  1.00000000e+02  1.73813988e-11  1.00000000e+02  2.57897477e-08  1.00000000e+02  1.00290030e-14 
 3.00000000e+01  3.00000000e-01  3.00000000e+01  3.00000000e-01  3.00000000e+01  0.00000000e+00  3.00000000e+01  0.00000000e+00  3.00000000e+01  0.00000000e+00  3.00000000e+01 -4.09058466e-09  3.00000000e+01  4.38658410e-11  3.00000000e+01  4.04670881e-09  3.00000000e+01  1.00066499e-14 
 1.00000000e+02  3.00000000e-01  1.00000000e+02  3.00000000e-01  1.00000000e+02  0.00000000e+00  1.00000000e+02  0.00000000e+00  1.00000000e+02  0.00000000e+00  1.00000000e+02 -2.87943309e-08  1.00000000e+02  4.38658410e-11  1.00000000e+02  2.87504550e-08  1.00000000e+02  1.00453493e-14 
 3.00000000e+01  3.50000000e-01  3.00000000e+01  3.50000000e-01  3.00000000e+01  0.00000000e+00  3.00000000e+01  0.00000000e+00  3.00000000e+01  0.00000000e+00  3.00000000e+01 -4.70238709e-09  3.00000000e+01  8.33473750e-11  3.00000000e+01  4.61902971e-09  3.00000000e+01  1.00091811e-14 
 1.00000000e+02  3.50000000e-01  1.00000000e+02  3.50000000e-01  1.00000000e+02  0.00000000e+00  1.00000000e+02  0.00000000e+00  1.00000000e+02  0.00000000e+00  1.00000000e+02 -3.20885325e-08  1.00000000e+02  8.33473750e-11  1.00000000e+02  3.20051750e-08  1.00000000e+02  1.00615799e-14 
 3.00000000e+01  4.00000000e-01  3.00000000e+01  4.00000000e-01  3.00000000e+01  0.00000000e+00  3.00000000e+01  0.00000000e+00  3.00000000e+01  0.00000000e+00  3.00000000e+01 -5.40641005e-09  3.00000000e+01  1.38901158e-10  3.00000000e+01  5.26749888e-09  3.00000000e+01  1.00121849e-14 
 1.00000000e+02  4.00000000e-01  1.00000000e+02  4.00000000e-01  1.00000000e+02  0.00000000e+00  1.00000000e+02  0.00000000e+00  1.00000000e+02  0.00000000e+00  1.00000000e+02 -3.57319187e-08  1.00000000e+02  1.38901158e-10  1.00000000e+02  3.55930075e-08  1.00000000e+02  1.00801237e-14 
 3.00000000e+01  4.50000000e-01  3.00000000e+01  4.50000000e-01  3.00000000e+01  0.00000000e+00  3.00000000e+01  0.00000000e+00  3.00000000e+01  0.00000000e+00  3.00000000e+01 -6.21698740e-09  3.00000000e+01  2.14218934e-10  3.00000000e+01  6.00275845e-09  3.00000000e+01  1.00158265e-14 
 1.00000000e+02  4.50000000e-01  1.00000000e+02  4.50000000e-01  1.00000000e+02  0.00000000e+00  1.00000000e+02  0.00000000e+00  1.00000000e+02  0.00000000e+00  1.00000000e+02 -3.97670374e-08  1.00000000e+02  2.14218934e-10  1.00000000e+02  3.95528084e-08  1.00000000e+02  1.01018359e-14 
 3.00000000e+01  5.00000000e-01  3.00000000e+01  5.00000000e-01  3.00000000e+01  0.00000000e+00  3.00000000e+01  0.00000000e+00  3.00000000e+01  0.00000000e+00  3.00000000e+01 -7.15028398e-09  3.00000000e+01  3.13671656e-10  3.00000000e+01  6.83660231e-09  3.00000000e+01  1.00202346e-14 
 1.00000000e+02  5.00000000e-01  1.00000000e+02  5.00000000e-01  1.00000000e+02  0.00000000e+00  1.00000000e+02  0.00000000e+00  1.00000000e+02  0.00000000e+00  1.00000000e+02 -4.42389788e-08  1.00000000e+02  3.13671656e-10  1.00000000e+02  4.39252970e-08  1.00000000e+02  1.01272855e-14 
 3.00000000e+01  5.50000000e-01  3.00000000e+01  5.50000000e-01  3.00000000e+01  0.00000000e+00  3.00000000e+01  0.00000000e+00  3.00000000e+01  0.00000000e+00  3.00000000e+01 -8.22463592e-09  3.00000000e+01  4.42411989e-10  3.00000000e+01  7.78221391e-09  3.00000000e+01  1.00255492e-14 
 1.00000000e+02  5.50000000e-01  1.00000000e+02  5.50000000e-01  1.00000000e+02  0.00000000e+00  1.00000000e+02  0.00000000e+00  1.00000000e+02  0.00000000e+00  1.00000000e+02 -4.91965264e-08  1.00000000e+02  4.42411989e-10  1.00000000e+02  4.87541043e-08  1.00000000e+02  1.01570317e-14 
 3.00000000e+01  6.00000000e-01  3.00000000e+01  6.00000000e-01  3.00000000e+01  0.00000000e+00  3.00000000e+01  0.00000000e+00  3.00000000e+01  0.00000000e+00  3.00000000e+01 -9.46088688e-09  3.00000000e+01  6.06496133e-10  3.00000000e+01  8.85438072e-09  3.00000000e+01  1.00319325e-14 
 1.00000000e+02  6.00000000e-01  1.00000000e+02  6.00000000e-01  1.00000000e+02  0.00000000e+00  1.00000000e+02  0.00000000e+00  1.00000000e+02  0.00000000e+00  1.00000000e+02 -5.46929483e-08  1.00000000e+02  6.06496133e-10  1.00000000e+02  5.40864420e-08  1.00000000e+02  1.01916881e-14 
 3.00000000e+01  6.50000000e-01  3.00000000e+01  6.50000000e-01  3.00000000e+01  0.00000000e+00  3.00000000e+01  0.00000000e+00  3.00000000e+01  0.00000000e+00  3.00000000e+01 -1.08827449e-08  3.00000000e+01  8.13024409e-10  3.00000000e+01  1.00697105e-08  3.00000000e+01  1.00395724e-14 
 1.00000000e+02  6.50000000e-01  1.00000000e+02  6.50000000e-01  1.00000000e+02  0.00000000e+00  1.00000000e+02  0.00000000e+00  1.00000000e+02  0.00000000e+00  1.00000000e+02 -6.07866599e-08  1.00000000e+02  8.13024409e-10  1.00000000e+02  5.99736253e-08  1.00000000e+02  1.02319421e-14 
 3.00000000e+01  7.00000000e-01  3.00000000e+01  7.00000000e-01  3.00000000e+01  0.00000000e+00  3.00000000e+01  0.00000000e+00  3.00000000e+01  0.00000000e+00  3.00000000e+01 -1.25171731e-08  3.00000000e+01  1.07030257e-09  3.00000000e+01  1.14468605e-08  3.00000000e+01  1.00486875e-14 
 1.00000000e+02  7.00000000e-01  1.00000000e+02  7.00000000e-01  1.00000000e+02  0.00000000e+00  1.00000000e+02  0.00000000e+00  1.00000000e+02  0.00000000e+00  1.00000000e+02 -6.75418520e-08  1.00000000e+02  1.07030257e-09  1.00000000e+02  6.64715391e-08  1.00000000e+02  1.02785660e-14 
 3.00000000e+01  7.50000000e-01  3.00000000e+01  7.50000000e-01  3.00000000e+01  0.00000000e+00  3.00000000e+01  0.00000000e+00  3.00000000e+01  0.00000000e+00  3.00000000e+01 -1.43948229e-08  3.00000000e+01  1.38802647e-09  3.00000000e+01  1.30067863e-08  3.00000000e+01  1.00595307e-14 
 1.00000000e+02  7.50000000e-01  1.00000000e+02  7.50000000e-01  1.00000000e+02  0.00000000e+00  1.00000000e+02  0.00000000e+00  1.00000000e+02  0.00000000e+00  1.00000000e+02 -7.50291282e-08  1.00000000e+02  1.38802647e-09  1.00000000e+02  7.36410914e-08  1.00000000e+02  1.03324271e-14 
 3.00000000e+01  8.00000000e-01  3.00000000e+01  8.00000000e-01  3.00000000e+01  0.00000000e+00  3.00000000e+01  0.00000000e+00  3.00000000e+01  0.00000000e+00  3.00000000e+01 -1.65505173e-08  3.00000000e+01  1.77749326e-09  3.00000000e+01  1.47730139e-08  3.00000000e+01  1.00723947e-14 
 1.00000000e+02  8.00000000e-01  1.00000000e+02  8.00000000e-01  1.00000000e+02  0.00000000e+00  1.00000000e+02  0.00000000e+00  1.00000000e+02  0.00000000e+00  1.00000000e+02 -8.33261755e-08  1.00000000e+02  1.77749326e-09  1.00000000e+02  8.15486719e-08  1.00000000e+02  1.03944982e-14 
 3.00000000e+01  8.50000000e-01  3.00000000e+01  8.50000000e-01  3.00000000e+01  0.00000000e+00  3.00000000e+01  0.00000000e+00  3.00000000e+01  0.00000000e+00  3.00000000e+01 -1.90237921e-08  3.00000000e+01  2.25184267e-09  3.00000000e+01  1.67719393e-08  3.00000000e+01  1.00876177e-14 
 1.00000000e+02  8.50000000e-01  1.00000000e+02  8.50000000e-01  1.00000000e+02  0.00000000e+00  1.00000000e+02  0.00000000e+00  1.00000000e+02  0.00000000e+00  1.00000000e+02 -9.25184843e-08  1.00000000e+02  2.25184267e-09  1.00000000e+02  9.02666311e-08  1.00000000e+02  1.04658682e-14 
 3.00000000e+01  9.00000000e-01  3.00000000e+01  9.00000000e-01  3.00000000e+01  0.00000000e+00  3.00000000e+01  0.00000000e+00  3.00000000e+01  0.00000000e+00  3.00000000e+01 -2.18595021e-08  3.00000000e+01  2.82633254e-09  3.00000000e+01  1.90331594e-08  3.00000000e+01  1.01055899e-14 
 1.00000000e+02  9.00000000e-01  1.00000000e+02  9.00000000e-01  1.00000000e+02  0.00000000e+00  1.00000000e+02  0.00000000e+00  1.00000000e+02  0.00000000e+00  1.00000000e+02 -1.02700132e-07  1.00000000e+02  2.82633254e-09  1.00000000e+02  9.98737891e-08  1.00000000e+02  1.05477551e-14 
 3.00000000e+01  9.50000000e-01  3.00000000e+01  9.50000000e-01  3.00000000e+01  0.00000000e+00  3.00000000e+01  0.00000000e+00  3.00000000e+01  0.00000000e+00  3.00000000e+01 -2.51085016e-08  3.00000000e+01  3.51865311e-09  3.00000000e+01  2.15898381e-08  3.00000000e+01  1.03226287e-14 
 1.00000000e+02  9.50000000e-01  1.00000000e+02  9.50000000e-01  1.00000000e+02  0.00000000e+00  1.00000000e+02  0.00000000e+00  1.00000000e+02  0.00000000e+00  1.00000000e+02 -1.13974646e-07  1.00000000e+02  3.51865311e-09  1.00000000e+02  1.10455982e-07  1.00000000e+02  1.11403664e-14 
 3.00000000e+01  1.00000000e+00  3.00000000e+01  1.00000000e+00  3.00000000e+01  0.00000000e+00  3.00000000e+01  0.00000000e+00  3.00000000e+01  0.00000000e+00  3.00000000e+01 -2.88284110e-08  3.00000000e+01  4.34928546e-09  3.00000000e+01  2.44791124e-08  3.00000000e+01  1.31461056e-14 
 1.00000000e+02  1.00000000e+00  1.00000000e+02  1.00000000e+00  1.00000000e+02  0.00000000e+00  1.00000000e+02  0.00000000e+00  1.00000000e+02  0.00000000e+00  1.00000000e+02 -1.26455959e-07  1.00000000e+02  4.34928546e-09  1.00000000e+02  1.22106655e-07  1.00000000e+02  1.87352590e-14 
 3.00000000e+01  1.05000000e+00  3.00000000e+01  1.05000000e+00  3.00000000e+01  0.00000000e+00  3.00000000e+01  0.00000000e+00  3.00000000e+01  0.00000000e+00  3.00000000e+01 -3.30848290e-08  3.00000000e+01  5.34190987e-09  3.00000000e+01  2.77425436e-08  3.00000000e+01  3.75514841e-13 
 1.00000000e+02  1.05000000e+00  1.00000000e+02  1.05000000e+00  1.00000000e+02  0.00000000e+00  1.00000000e+02  0.00000000e+00  1.00000000e+02  0.00000000e+00  1.00000000e+02 -1.40269834e-07  1.00000000e+02  5.34190987e-09  1.00000000e+02  1.34927517e-07  1.00000000e+02  4.07357111e-13 
 3.00000000e+01  1.10000000e+00  3.00000000e+01  1.10000000e+00  3.00000000e+01  0.00000000e+00  3.00000000e+01  0.00000000e+00  3.00000000e+01  0.00000000e+00  3.00000000e+01 -3.79691331e-08  3.00000000e+01  6.52387092e-09  3.00000000e+01  3.14266191e-08  3.00000000e+01  1.86430800e-11 
 1.00000000e+02  1.10000000e+00  1.00000000e+02  1.10000000e+00  1.00000000e+02  0.00000000e+00  1.00000000e+02  0.00000000e+00  1.00000000e+02  0.00000000e+00  1.00000000e+02 -1.55571927e-07  1.00000000e+02  6.52387092e-09  1.00000000e+02  1.49029258e-07  1.00000000e+02  1.87982722e-11 
 3.00000000e+01  1.15000000e+00  3.00000000e+01  1.15000000e+00  3.00000000e+01  0.00000000e+00  3.00000000e+01  0.00000000e+00  3.00000000e+01  0.00000000e+00  3.00000000e+01 -4.38327187e-08  3.00000000e+01  7.92670690e-09  3.00000000e+01  3.55833131e-08  3.00000000e+01  3.22698716e-10 
 1.00000000e+02  1.15000000e+00  1.00000000e+02  1.15000000e+00  1.00000000e+02  0.00000000e+00  1.00000000e+02  0.00000000e+00  1.00000000e+02  0.00000000e+00  1.00000000e+02 -1.72782415e-07  1.00000000e+02  7.92670690e-09  1.00000000e+02  1.64532349e-07  1.00000000e+02  3.23359650e-10 
 3.00000000e+01  1.20000000e+00  3.00000000e+01  1.20000000e+00  3.00000000e+01  0.00000000e+00  3.00000000e+01  0.00000000e+00  3.00000000e+01  0.00000000e+00  3.00000000e+01 -5.26502531e-08  3.00000000e+01  9.58675193e-09  3.00000000e+01  4.02707112e-08  3.00000000e+01  2.79278993e-09 
 1.00000000e+02  1.20000000e+00  1.00000000e+02  1.20000000e+00  1.00000000e+02  0.00000000e+00  1.00000000e+02  0.00000000e+00  1.00000000e+02  0.00000000e+00  1.00000000e+02 -1.93949976e-07  1.00000000e+02  9.58675193e-09  1.00000000e+02  1.81567932e-07  1.00000000e+02  2.79529298e-09 
