  temp-sweep      abs(v(alim))    v(drain)        v(gate)         temp-sweep      v(source)       v(body)         i(vd)           temp-sweep      i(vg)           i(vs)           i(vb)
 3.00000000e+01  5.00000000e-02  3.00000000e+01  5.00000000e-02  3.00000000e+01  0.00000000e+00  3.00000000e+01  0.00000000e+00  3.00000000e+01  0.00000000e+00  3.00000000e+01 -2.46737384e-09  3.00000000e+01  1.52755188e-11  3.00000000e+01  2.45208980e-09  3.00000000e+01  8.52549647e-15 
 1.00000000e+02  5.00000000e-02  1.00000000e+02  5.00000000e-02  1.00000000e+02  0.00000000e+00  1.00000000e+02  0.00000000e+00  1.00000000e+02  0.00000000e+00  1.00000000e+02 -1.89697023e-08  1.00000000e+02  1.52755188e-11  1.00000000e+02  1.89544189e-08  1.00000000e+02  7.89009582e-15 
 3.00000000e+01  1.00000000e-01  3.00000000e+01  1.00000000e-01  3.00000000e+01  0.00000000e+00  3.00000000e+01  0.00000000e+00  3.00000000e+01  0.00000000e+00  3.00000000e+01 -3.15293620e-09  3.00000000e+01  1.83464829e-11  3.00000000e+01  3.13457993e-09  3.00000000e+01  9.78374737e-15 
 1.00000000e+02  1.00000000e-01  1.00000000e+02  1.00000000e-01  1.00000000e+02  0.00000000e+00  1.00000000e+02  0.00000000e+00  1.00000000e+02  0.00000000e+00  1.00000000e+02 -2.44735915e-08  1.00000000e+02  1.83464829e-11  1.00000000e+02  2.44552355e-08  1.00000000e+02  9.56260881e-15 
 3.00000000e+01  1.50000000e-01  3.00000000e+01  1.50000000e-01  3.00000000e+01  0.00000000e+00  3.00000000e+01  0.00000000e+00  3.00000000e+01  0.00000000e+00  3.00000000e+01 -3.66749861e-09  3.00000000e+01  1.22795370e-11  3.00000000e+01  3.65520911e-09  3.00000000e+01  9.97051536e-15 
 1.00000000e+02  1.50000000e-01  1.00000000e+02  1.50000000e-01  1.00000000e+02  0.00000000e+00  1.00000000e+02  0.00000000e+00  1.00000000e+02  0.00000000e+00  1.00000000e+02 -2.79573836e-08  1.00000000e+02  1.22795370e-11  1.00000000e+02  2.79450942e-08  1.00000000e+02  9.92408665e-15 
 3.00000000e+01  2.00000000e-01  3.00000000e+01  2.00000000e-01  3.00000000e+01  0.00000000e+00  3.00000000e+01  0.00000000e+00  3.00000000e+01  0.00000000e+00  3.00000000e+01 -4.20833811e-09  3.00000000e+01  3.38024331e-12  3.00000000e+01  4.20494786e-09  3.00000000e+01  9.99958673e-15 
 1.00000000e+02  2.00000000e-01  1.00000000e+02  2.00000000e-01  1.00000000e+02  0.00000000e+00  1.00000000e+02  0.00000000e+00  1.00000000e+02  0.00000000e+00  1.00000000e+02 -3.13943994e-08  1.00000000e+02  3.38024331e-12  1.00000000e+02  3.13910091e-08  1.00000000e+02  1.00105127e-14 
 3.00000000e+01  2.50000000e-01  3.00000000e+01  2.50000000e-01  3.00000000e+01  0.00000000e+00  3.00000000e+01  0.00000000e+00  3.00000000e+01  0.00000000e+00  3.00000000e+01 -4.83975522e-09  3.00000000e+01  2.36387024e-11  3.00000000e+01  4.81610651e-09  3.00000000e+01  1.00057893e-14 
 1.00000000e+02  2.50000000e-01  1.00000000e+02  2.50000000e-01  1.00000000e+02  0.00000000e+00  1.00000000e+02  0.00000000e+00  1.00000000e+02  0.00000000e+00  1.00000000e+02 -3.51028701e-08  1.00000000e+02  2.36387024e-11  1.00000000e+02  3.50792214e-08  1.00000000e+02  1.00409593e-14 
 3.00000000e+01  3.00000000e-01  3.00000000e+01  3.00000000e-01  3.00000000e+01  0.00000000e+00  3.00000000e+01  0.00000000e+00  3.00000000e+01  0.00000000e+00  3.00000000e+01 -5.56401945e-09  3.00000000e+01  5.96575437e-11  3.00000000e+01  5.50435190e-09  3.00000000e+01  1.00090808e-14 
 1.00000000e+02  3.00000000e-01  1.00000000e+02  3.00000000e-01  1.00000000e+02  0.00000000e+00  1.00000000e+02  0.00000000e+00  1.00000000e+02  0.00000000e+00  1.00000000e+02 -3.91659340e-08  1.00000000e+02  5.96575437e-11  1.00000000e+02  3.91062664e-08  1.00000000e+02  1.00619990e-14 
 3.00000000e+01  3.50000000e-01  3.00000000e+01  3.50000000e-01  3.00000000e+01  0.00000000e+00  3.00000000e+01  0.00000000e+00  3.00000000e+01  0.00000000e+00  3.00000000e+01 -6.39618016e-09  3.00000000e+01  1.13352430e-10  3.00000000e+01  6.28281772e-09  3.00000000e+01  1.00124920e-14 
 1.00000000e+02  3.50000000e-01  1.00000000e+02  3.50000000e-01  1.00000000e+02  0.00000000e+00  1.00000000e+02  0.00000000e+00  1.00000000e+02  0.00000000e+00  1.00000000e+02 -4.36465945e-08  1.00000000e+02  1.13352430e-10  1.00000000e+02  4.35332320e-08  1.00000000e+02  1.00838228e-14 
 3.00000000e+01  4.00000000e-01  3.00000000e+01  4.00000000e-01  3.00000000e+01  0.00000000e+00  3.00000000e+01  0.00000000e+00  3.00000000e+01  0.00000000e+00  3.00000000e+01 -7.35377712e-09  3.00000000e+01  1.88905575e-10  3.00000000e+01  7.16486153e-09  3.00000000e+01  1.00165727e-14 
 1.00000000e+02  4.00000000e-01  1.00000000e+02  4.00000000e-01  1.00000000e+02  0.00000000e+00  1.00000000e+02  0.00000000e+00  1.00000000e+02  0.00000000e+00  1.00000000e+02 -4.86022100e-08  1.00000000e+02  1.88905575e-10  1.00000000e+02  4.84132943e-08  1.00000000e+02  1.01089917e-14 
 3.00000000e+01  4.50000000e-01  3.00000000e+01  4.50000000e-01  3.00000000e+01  0.00000000e+00  3.00000000e+01  0.00000000e+00  3.00000000e+01  0.00000000e+00  3.00000000e+01 -8.45630622e-09  3.00000000e+01  2.91337750e-10  3.00000000e+01  8.16495845e-09  3.00000000e+01  1.00215252e-14 
 1.00000000e+02  4.50000000e-01  1.00000000e+02  4.50000000e-01  1.00000000e+02  0.00000000e+00  1.00000000e+02  0.00000000e+00  1.00000000e+02  0.00000000e+00  1.00000000e+02 -5.40906470e-08  1.00000000e+02  2.91337750e-10  1.00000000e+02  5.37992991e-08  1.00000000e+02  1.01385122e-14 
 3.00000000e+01  5.00000000e-01  3.00000000e+01  5.00000000e-01  3.00000000e+01  0.00000000e+00  3.00000000e+01  0.00000000e+00  3.00000000e+01  0.00000000e+00  3.00000000e+01 -9.72575383e-09  3.00000000e+01  4.26593451e-10  3.00000000e+01  9.29915036e-09  3.00000000e+01  1.00275206e-14 
 1.00000000e+02  5.00000000e-01  1.00000000e+02  5.00000000e-01  1.00000000e+02  0.00000000e+00  1.00000000e+02  0.00000000e+00  1.00000000e+02  0.00000000e+00  1.00000000e+02 -6.01732312e-08  1.00000000e+02  4.26593451e-10  1.00000000e+02  5.97466276e-08  1.00000000e+02  1.01731250e-14 
 3.00000000e+01  5.50000000e-01  3.00000000e+01  5.50000000e-01  3.00000000e+01  0.00000000e+00  3.00000000e+01  0.00000000e+00  3.00000000e+01  0.00000000e+00  3.00000000e+01 -1.11870596e-08  3.00000000e+01  6.01680304e-10  3.00000000e+01  1.05853693e-08  3.00000000e+01  1.00347493e-14 
 1.00000000e+02  5.50000000e-01  1.00000000e+02  5.50000000e-01  1.00000000e+02  0.00000000e+00  1.00000000e+02  0.00000000e+00  1.00000000e+02  0.00000000e+00  1.00000000e+02 -6.69163115e-08  1.00000000e+02  6.01680304e-10  1.00000000e+02  6.63146210e-08  1.00000000e+02  1.02135838e-14 
 3.00000000e+01  6.00000000e-01  3.00000000e+01  6.00000000e-01  3.00000000e+01  0.00000000e+00  3.00000000e+01  0.00000000e+00  3.00000000e+01  0.00000000e+00  3.00000000e+01 -1.28685738e-08  3.00000000e+01  8.24834738e-10  3.00000000e+01  1.20437290e-08  3.00000000e+01  1.00434315e-14 
 1.00000000e+02  6.00000000e-01  1.00000000e+02  6.00000000e-01  1.00000000e+02  0.00000000e+00  1.00000000e+02  0.00000000e+00  1.00000000e+02  0.00000000e+00  1.00000000e+02 -7.43923360e-08  1.00000000e+02  8.24834738e-10  1.00000000e+02  7.35674910e-08  1.00000000e+02  1.02607213e-14 
 3.00000000e+01  6.50000000e-01  3.00000000e+01  6.50000000e-01  3.00000000e+01  0.00000000e+00  3.00000000e+01  0.00000000e+00  3.00000000e+01  0.00000000e+00  3.00000000e+01 -1.48025426e-08  3.00000000e+01  1.10571319e-09  3.00000000e+01  1.36968193e-08  3.00000000e+01  1.00538230e-14 
 1.00000000e+02  6.50000000e-01  1.00000000e+02  6.50000000e-01  1.00000000e+02  0.00000000e+00  1.00000000e+02  0.00000000e+00  1.00000000e+02  0.00000000e+00  1.00000000e+02 -8.26807526e-08  1.00000000e+02  1.10571319e-09  1.00000000e+02  8.15750291e-08  1.00000000e+02  1.03154725e-14 
 3.00000000e+01  7.00000000e-01  3.00000000e+01  7.00000000e-01  3.00000000e+01  0.00000000e+00  3.00000000e+01  0.00000000e+00  3.00000000e+01  0.00000000e+00  3.00000000e+01 -1.70256393e-08  3.00000000e+01  1.45561149e-09  3.00000000e+01  1.55700178e-08  3.00000000e+01  1.00662210e-14 
 1.00000000e+02  7.00000000e-01  1.00000000e+02  7.00000000e-01  1.00000000e+02  0.00000000e+00  1.00000000e+02  0.00000000e+00  1.00000000e+02  0.00000000e+00  1.00000000e+02 -9.18688639e-08  1.00000000e+02  1.45561149e-09  1.00000000e+02  9.04132420e-08  1.00000000e+02  1.03788876e-14 
 3.00000000e+01  7.50000000e-01  3.00000000e+01  7.50000000e-01  3.00000000e+01  0.00000000e+00  3.00000000e+01  0.00000000e+00  3.00000000e+01  0.00000000e+00  3.00000000e+01 -1.95795539e-08  3.00000000e+01  1.88771599e-09  3.00000000e+01  1.76918278e-08  3.00000000e+01  1.00809695e-14 
 1.00000000e+02  7.50000000e-01  1.00000000e+02  7.50000000e-01  1.00000000e+02  0.00000000e+00  1.00000000e+02  0.00000000e+00  1.00000000e+02  0.00000000e+00  1.00000000e+02 -1.02052693e-07  1.00000000e+02  1.88771599e-09  1.00000000e+02  1.00164967e-07  1.00000000e+02  1.04521464e-14 
 3.00000000e+01  8.00000000e-01  3.00000000e+01  8.00000000e-01  3.00000000e+01  0.00000000e+00  3.00000000e+01  0.00000000e+00  3.00000000e+01  0.00000000e+00  3.00000000e+01 -2.25116502e-08  3.00000000e+01  2.41739082e-09  3.00000000e+01  2.00942493e-08  3.00000000e+01  1.00984667e-14 
 1.00000000e+02  8.00000000e-01  1.00000000e+02  8.00000000e-01  1.00000000e+02  0.00000000e+00  1.00000000e+02  0.00000000e+00  1.00000000e+02  0.00000000e+00  1.00000000e+02 -1.13337896e-07  1.00000000e+02  2.41739082e-09  1.00000000e+02  1.10920494e-07  1.00000000e+02  1.05365716e-14 
 3.00000000e+01  8.50000000e-01  3.00000000e+01  8.50000000e-01  3.00000000e+01  0.00000000e+00  3.00000000e+01  0.00000000e+00  3.00000000e+01  0.00000000e+00  3.00000000e+01 -2.58757016e-08  3.00000000e+01  3.06250601e-09  3.00000000e+01  2.28131855e-08  3.00000000e+01  1.01191726e-14 
 1.00000000e+02  8.50000000e-01  1.00000000e+02  8.50000000e-01  1.00000000e+02  0.00000000e+00  1.00000000e+02  0.00000000e+00  1.00000000e+02  0.00000000e+00  1.00000000e+02 -1.25840738e-07  1.00000000e+02  3.06250601e-09  1.00000000e+02  1.22778222e-07  1.00000000e+02  1.06336444e-14 
 3.00000000e+01  9.00000000e-01  3.00000000e+01  9.00000000e-01  3.00000000e+01  0.00000000e+00  3.00000000e+01  0.00000000e+00  3.00000000e+01  0.00000000e+00  3.00000000e+01 -2.97327160e-08  3.00000000e+01  3.84381222e-09  3.00000000e+01  2.58888936e-08  3.00000000e+01  1.01436178e-14 
 1.00000000e+02  9.00000000e-01  1.00000000e+02  9.00000000e-01  1.00000000e+02  0.00000000e+00  1.00000000e+02  0.00000000e+00  1.00000000e+02  0.00000000e+00  1.00000000e+02 -1.39689165e-07  1.00000000e+02  3.84381222e-09  1.00000000e+02  1.35845342e-07  1.00000000e+02  1.07450214e-14 
 3.00000000e+01  9.50000000e-01  3.00000000e+01  9.50000000e-01  3.00000000e+01  0.00000000e+00  3.00000000e+01  0.00000000e+00  3.00000000e+01  0.00000000e+00  3.00000000e+01 -3.41518608e-08  3.00000000e+01  4.78536819e-09  3.00000000e+01  2.93664822e-08  3.00000000e+01  1.04386126e-14 
 1.00000000e+02  9.50000000e-01  1.00000000e+02  9.50000000e-01  1.00000000e+02  0.00000000e+00  1.00000000e+02  0.00000000e+00  1.00000000e+02  0.00000000e+00  1.00000000e+02 -1.55023967e-07  1.00000000e+02  4.78536819e-09  1.00000000e+02  1.50238587e-07  1.00000000e+02  1.15500110e-14 
 3.00000000e+01  1.00000000e+00  3.00000000e+01  1.00000000e+00  3.00000000e+01  0.00000000e+00  3.00000000e+01  0.00000000e+00  3.00000000e+01  0.00000000e+00  3.00000000e+01 -3.92115062e-08  3.00000000e+01  5.91502816e-09  3.00000000e+01  3.32964638e-08  3.00000000e+01  1.42517815e-14 
 1.00000000e+02  1.00000000e+00  1.00000000e+02  1.00000000e+00  1.00000000e+02  0.00000000e+00  1.00000000e+02  0.00000000e+00  1.00000000e+02  0.00000000e+00  1.00000000e+02 -1.72000087e-07  1.00000000e+02  5.91502816e-09  1.00000000e+02  1.66085037e-07  1.00000000e+02  2.18485599e-14 
 3.00000000e+01  1.05000000e+00  3.00000000e+01  1.05000000e+00  3.00000000e+01  0.00000000e+00  3.00000000e+01  0.00000000e+00  3.00000000e+01  0.00000000e+00  3.00000000e+01 -4.50008631e-08  3.00000000e+01  7.26499733e-09  3.00000000e+01  3.77353681e-08  3.00000000e+01  4.97675703e-13 
 1.00000000e+02  1.05000000e+00  1.00000000e+02  1.05000000e+00  1.00000000e+02  0.00000000e+00  1.00000000e+02  0.00000000e+00  1.00000000e+02  0.00000000e+00  1.00000000e+02 -1.90788541e-07  1.00000000e+02  7.26499733e-09  1.00000000e+02  1.83523003e-07  1.00000000e+02  5.40958038e-13 
 3.00000000e+01  1.10000000e+00  3.00000000e+01  1.10000000e+00  3.00000000e+01  0.00000000e+00  3.00000000e+01  0.00000000e+00  3.00000000e+01  0.00000000e+00  3.00000000e+01 -5.16437453e-08  3.00000000e+01  8.87246432e-09  3.00000000e+01  4.27464253e-08  3.00000000e+01  2.48556730e-11 
 1.00000000e+02  1.10000000e+00  1.00000000e+02  1.10000000e+00  1.00000000e+02  0.00000000e+00  1.00000000e+02  0.00000000e+00  1.00000000e+02  0.00000000e+00  1.00000000e+02 -2.11600539e-07  1.00000000e+02  8.87246432e-09  1.00000000e+02  2.02703008e-07  1.00000000e+02  2.50666311e-11 
 3.00000000e+01  1.15000000e+00  3.00000000e+01  1.15000000e+00  3.00000000e+01  0.00000000e+00  3.00000000e+01  0.00000000e+00  3.00000000e+01  0.00000000e+00  3.00000000e+01 -5.96109164e-08  3.00000000e+01  1.07803212e-08  3.00000000e+01  4.84003270e-08  3.00000000e+01  4.30268251e-10 
 1.00000000e+02  1.15000000e+00  1.00000000e+02  1.15000000e+00  1.00000000e+02  0.00000000e+00  1.00000000e+02  0.00000000e+00  1.00000000e+02  0.00000000e+00  1.00000000e+02 -2.35000357e-07  1.00000000e+02  1.07803212e-08  1.00000000e+02  2.23788869e-07  1.00000000e+02  4.31166716e-10 
 3.00000000e+01  1.20000000e+00  3.00000000e+01  1.20000000e+00  3.00000000e+01  0.00000000e+00  3.00000000e+01  0.00000000e+00  3.00000000e+01  0.00000000e+00  3.00000000e+01 -7.15378016e-08  3.00000000e+01  1.30379824e-08  3.00000000e+01  5.47760778e-08  3.00000000e+01  3.72374147e-09 
 1.00000000e+02  1.20000000e+00  1.00000000e+02  1.20000000e+00  1.00000000e+02  0.00000000e+00  1.00000000e+02  0.00000000e+00  1.00000000e+02  0.00000000e+00  1.00000000e+02 -2.63724040e-07  1.00000000e+02  1.30379824e-08  1.00000000e+02  2.46958913e-07  1.00000000e+02  3.72714419e-09 
