Title: *nmos off - w4
Date: Tue Feb 15 20:26:16  2022
Plotname: DC transfer characteristic
Flags: real
No. Variables: 10
No. Points: 2
Variables:
	0	temp-sweep	temp-sweep
	1	abs(v(alim))	voltage
	2	v(drain)	voltage
	3	v(gate)	voltage
	4	v(source)	voltage
	5	v(body)	voltage
	6	i(i(vd))	current
	7	i(i(vg))	current
	8	i(i(vs))	current
	9	i(i(vb))	current
Values:
 0	3.000000000000000e+01
	5.000000000000000e-02
	5.000000000000000e-02
	0.000000000000000e+00
	0.000000000000000e+00
	0.000000000000000e+00
	-2.467373844616377e-09
	1.527551875237591e-11
	2.452089800367534e-09
	8.525496466869073e-15

 1	1.000000000000000e+02
	5.000000000000000e-02
	5.000000000000000e-02
	0.000000000000000e+00
	0.000000000000000e+00
	0.000000000000000e+00
	-1.896970234178101e-08
	1.527551875237485e-11
	1.895441893293282e-08
	7.890095815526207e-15

Title: *nmos off - w4
Date: Tue Feb 15 20:26:16  2022
Plotname: DC transfer characteristic
Flags: real
No. Variables: 10
No. Points: 2
Variables:
	0	temp-sweep	temp-sweep
	1	abs(v(alim))	voltage
	2	v(drain)	voltage
	3	v(gate)	voltage
	4	v(source)	voltage
	5	v(body)	voltage
	6	i(i(vd))	current
	7	i(i(vg))	current
	8	i(i(vs))	current
	9	i(i(vb))	current
Values:
 0	3.000000000000000e+01
	1.000000000000000e-01
	1.000000000000000e-01
	0.000000000000000e+00
	0.000000000000000e+00
	0.000000000000000e+00
	-3.152936199411344e-09
	1.834648286559288e-11
	3.134579932798379e-09
	9.783747372950243e-15

 1	1.000000000000000e+02
	1.000000000000000e-01
	1.000000000000000e-01
	0.000000000000000e+00
	0.000000000000000e+00
	0.000000000000000e+00
	-2.447359154218743e-08
	1.834648286559161e-11
	2.445523549671302e-08
	9.562608813724753e-15

Title: *nmos off - w4
Date: Tue Feb 15 20:26:16  2022
Plotname: DC transfer characteristic
Flags: real
No. Variables: 10
No. Points: 2
Variables:
	0	temp-sweep	temp-sweep
	1	abs(v(alim))	voltage
	2	v(drain)	voltage
	3	v(gate)	voltage
	4	v(source)	voltage
	5	v(body)	voltage
	6	i(i(vd))	current
	7	i(i(vg))	current
	8	i(i(vs))	current
	9	i(i(vb))	current
Values:
 0	3.000000000000000e+01
	1.500000000000000e-01
	1.500000000000000e-01
	0.000000000000000e+00
	0.000000000000000e+00
	0.000000000000000e+00
	-3.667498612685674e-09
	1.227953704659045e-11
	3.655209105123729e-09
	9.970515355107501e-15

 1	1.000000000000000e+02
	1.500000000000000e-01
	1.500000000000000e-01
	0.000000000000000e+00
	0.000000000000000e+00
	0.000000000000000e+00
	-2.795738364776980e-08
	1.227953704658960e-11
	2.794509418663656e-08
	9.924086652601305e-15

Title: *nmos off - w4
Date: Tue Feb 15 20:26:16  2022
Plotname: DC transfer characteristic
Flags: real
No. Variables: 10
No. Points: 2
Variables:
	0	temp-sweep	temp-sweep
	1	abs(v(alim))	voltage
	2	v(drain)	voltage
	3	v(gate)	voltage
	4	v(source)	voltage
	5	v(body)	voltage
	6	i(i(vd))	current
	7	i(i(vg))	current
	8	i(i(vs))	current
	9	i(i(vb))	current
Values:
 0	3.000000000000000e+01
	2.000000000000000e-01
	2.000000000000000e-01
	0.000000000000000e+00
	0.000000000000000e+00
	0.000000000000000e+00
	-4.208338105615077e-09
	3.380243312003093e-12
	4.204947862716345e-09
	9.999586728290515e-15

 1	1.000000000000000e+02
	2.000000000000000e-01
	2.000000000000000e-01
	0.000000000000000e+00
	0.000000000000000e+00
	0.000000000000000e+00
	-3.139439939012521e-08
	3.380243312002863e-12
	3.139100913630052e-08
	1.001051269046285e-14

Title: *nmos off - w4
Date: Tue Feb 15 20:26:16  2022
Plotname: DC transfer characteristic
Flags: real
No. Variables: 10
No. Points: 2
Variables:
	0	temp-sweep	temp-sweep
	1	abs(v(alim))	voltage
	2	v(drain)	voltage
	3	v(gate)	voltage
	4	v(source)	voltage
	5	v(body)	voltage
	6	i(i(vd))	current
	7	i(i(vg))	current
	8	i(i(vs))	current
	9	i(i(vb))	current
Values:
 0	3.000000000000000e+01
	2.500000000000000e-01
	2.500000000000000e-01
	0.000000000000000e+00
	0.000000000000000e+00
	0.000000000000000e+00
	-4.839755217012765e-09
	2.363870236005733e-11
	4.816106508863397e-09
	1.000578931119631e-14

 1	1.000000000000000e+02
	2.500000000000000e-01
	2.500000000000000e-01
	0.000000000000000e+00
	0.000000000000000e+00
	0.000000000000000e+00
	-3.510287009440062e-08
	2.363870236005572e-11
	3.507922135108130e-08
	1.004095926479087e-14

Title: *nmos off - w4
Date: Tue Feb 15 20:26:16  2022
Plotname: DC transfer characteristic
Flags: real
No. Variables: 10
No. Points: 2
Variables:
	0	temp-sweep	temp-sweep
	1	abs(v(alim))	voltage
	2	v(drain)	voltage
	3	v(gate)	voltage
	4	v(source)	voltage
	5	v(body)	voltage
	6	i(i(vd))	current
	7	i(i(vg))	current
	8	i(i(vs))	current
	9	i(i(vb))	current
Values:
 0	3.000000000000000e+01
	3.000000000000000e-01
	3.000000000000000e-01
	0.000000000000000e+00
	0.000000000000000e+00
	0.000000000000000e+00
	-5.564019448392267e-09
	5.965754367667850e-11
	5.504351895634758e-09
	1.000908083013382e-14

 1	1.000000000000000e+02
	3.000000000000000e-01
	3.000000000000000e-01
	0.000000000000000e+00
	0.000000000000000e+00
	0.000000000000000e+00
	-3.916593397000301e-08
	5.965754367667436e-11
	3.910626636432738e-08
	1.006199895203825e-14

Title: *nmos off - w4
Date: Tue Feb 15 20:26:16  2022
Plotname: DC transfer characteristic
Flags: real
No. Variables: 10
No. Points: 2
Variables:
	0	temp-sweep	temp-sweep
	1	abs(v(alim))	voltage
	2	v(drain)	voltage
	3	v(gate)	voltage
	4	v(source)	voltage
	5	v(body)	voltage
	6	i(i(vd))	current
	7	i(i(vg))	current
	8	i(i(vs))	current
	9	i(i(vb))	current
Values:
 0	3.000000000000000e+01
	3.500000000000000e-01
	3.500000000000000e-01
	0.000000000000000e+00
	0.000000000000000e+00
	0.000000000000000e+00
	-6.396180160898551e-09
	1.133524299006461e-10
	6.282817718505939e-09
	1.001249196671526e-14

 1	1.000000000000000e+02
	3.500000000000000e-01
	3.500000000000000e-01
	0.000000000000000e+00
	0.000000000000000e+00
	0.000000000000000e+00
	-4.364659452818095e-08
	1.133524299006382e-10
	4.353323201445749e-08
	1.008382282761615e-14

Title: *nmos off - w4
Date: Tue Feb 15 20:26:16  2022
Plotname: DC transfer characteristic
Flags: real
No. Variables: 10
No. Points: 2
Variables:
	0	temp-sweep	temp-sweep
	1	abs(v(alim))	voltage
	2	v(drain)	voltage
	3	v(gate)	voltage
	4	v(source)	voltage
	5	v(body)	voltage
	6	i(i(vd))	current
	7	i(i(vg))	current
	8	i(i(vs))	current
	9	i(i(vb))	current
Values:
 0	3.000000000000000e+01
	4.000000000000000e-01
	4.000000000000000e-01
	0.000000000000000e+00
	0.000000000000000e+00
	0.000000000000000e+00
	-7.353777119606696e-09
	1.889055747733824e-10
	7.164861528260576e-09
	1.001657273840231e-14

 1	1.000000000000000e+02
	4.000000000000000e-01
	4.000000000000000e-01
	0.000000000000000e+00
	0.000000000000000e+00
	0.000000000000000e+00
	-4.860220995374812e-08
	1.889055747733693e-10
	4.841329426998301e-08
	1.010899174587366e-14

Title: *nmos off - w4
Date: Tue Feb 15 20:26:16  2022
Plotname: DC transfer characteristic
Flags: real
No. Variables: 10
No. Points: 2
Variables:
	0	temp-sweep	temp-sweep
	1	abs(v(alim))	voltage
	2	v(drain)	voltage
	3	v(gate)	voltage
	4	v(source)	voltage
	5	v(body)	voltage
	6	i(i(vd))	current
	7	i(i(vg))	current
	8	i(i(vs))	current
	9	i(i(vb))	current
Values:
 0	3.000000000000000e+01
	4.500000000000000e-01
	4.500000000000000e-01
	0.000000000000000e+00
	0.000000000000000e+00
	0.000000000000000e+00
	-8.456306220517839e-09
	2.913377504508951e-10
	8.164958448541737e-09
	1.002152520291588e-14

 1	1.000000000000000e+02
	4.500000000000000e-01
	4.500000000000000e-01
	0.000000000000000e+00
	0.000000000000000e+00
	0.000000000000000e+00
	-5.409064700016780e-08
	2.913377504508750e-10
	5.379929911120470e-08
	1.013851223011414e-14

Title: *nmos off - w4
Date: Tue Feb 15 20:26:16  2022
Plotname: DC transfer characteristic
Flags: real
No. Variables: 10
No. Points: 2
Variables:
	0	temp-sweep	temp-sweep
	1	abs(v(alim))	voltage
	2	v(drain)	voltage
	3	v(gate)	voltage
	4	v(source)	voltage
	5	v(body)	voltage
	6	i(i(vd))	current
	7	i(i(vg))	current
	8	i(i(vs))	current
	9	i(i(vb))	current
Values:
 0	3.000000000000000e+01
	4.999999999999999e-01
	4.999999999999999e-01
	0.000000000000000e+00
	0.000000000000000e+00
	0.000000000000000e+00
	-9.725753833515702e-09
	4.265934508557367e-10
	9.299150355139351e-09
	1.002752061452251e-14

 1	1.000000000000000e+02
	4.999999999999999e-01
	4.999999999999999e-01
	0.000000000000000e+00
	0.000000000000000e+00
	0.000000000000000e+00
	-6.017323120099614e-08
	4.265934508557069e-10
	5.974662757701538e-08
	1.017312501896002e-14

Title: *nmos off - w4
Date: Tue Feb 15 20:26:16  2022
Plotname: DC transfer characteristic
Flags: real
No. Variables: 10
No. Points: 2
Variables:
	0	temp-sweep	temp-sweep
	1	abs(v(alim))	voltage
	2	v(drain)	voltage
	3	v(gate)	voltage
	4	v(source)	voltage
	5	v(body)	voltage
	6	i(i(vd))	current
	7	i(i(vg))	current
	8	i(i(vs))	current
	9	i(i(vb))	current
Values:
 0	3.000000000000000e+01
	5.499999999999999e-01
	5.499999999999999e-01
	0.000000000000000e+00
	0.000000000000000e+00
	0.000000000000000e+00
	-1.118705961380460e-08
	6.016803039712132e-10
	1.058536927508411e-08
	1.003474927802796e-14

 1	1.000000000000000e+02
	5.499999999999999e-01
	5.499999999999999e-01
	0.000000000000000e+00
	0.000000000000000e+00
	0.000000000000000e+00
	-6.691631153730322e-08
	6.016803039711714e-10
	6.631462101974831e-08
	1.021358375019725e-14

Title: *nmos off - w4
Date: Tue Feb 15 20:26:16  2022
Plotname: DC transfer characteristic
Flags: real
No. Variables: 10
No. Points: 2
Variables:
	0	temp-sweep	temp-sweep
	1	abs(v(alim))	voltage
	2	v(drain)	voltage
	3	v(gate)	voltage
	4	v(source)	voltage
	5	v(body)	voltage
	6	i(i(vd))	current
	7	i(i(vg))	current
	8	i(i(vs))	current
	9	i(i(vb))	current
Values:
 0	3.000000000000000e+01
	6.000000000000000e-01
	6.000000000000000e-01
	0.000000000000000e+00
	0.000000000000000e+00
	0.000000000000000e+00
	-1.286857380142030e-08
	8.248347384645037e-10
	1.204372901952435e-08
	1.004343145319703e-14

 1	1.000000000000000e+02
	6.000000000000000e-01
	6.000000000000000e-01
	0.000000000000000e+00
	0.000000000000000e+00
	0.000000000000000e+00
	-7.439233595446380e-08
	8.248347384644463e-10
	7.356749095527800e-08
	1.026072134686043e-14

Title: *nmos off - w4
Date: Tue Feb 15 20:26:16  2022
Plotname: DC transfer characteristic
Flags: real
No. Variables: 10
No. Points: 2
Variables:
	0	temp-sweep	temp-sweep
	1	abs(v(alim))	voltage
	2	v(drain)	voltage
	3	v(gate)	voltage
	4	v(source)	voltage
	5	v(body)	voltage
	6	i(i(vd))	current
	7	i(i(vg))	current
	8	i(i(vs))	current
	9	i(i(vb))	current
Values:
 0	3.000000000000000e+01
	6.500000000000000e-01
	6.500000000000000e-01
	0.000000000000000e+00
	0.000000000000000e+00
	0.000000000000000e+00
	-1.480254257264117e-08
	1.105713193478433e-09
	1.369681932533971e-08
	1.005382302785452e-14

 1	1.000000000000000e+02
	6.500000000000000e-01
	6.500000000000000e-01
	0.000000000000000e+00
	0.000000000000000e+00
	0.000000000000000e+00
	-8.268075259036092e-08
	1.105713193478356e-09
	8.157502908141008e-08
	1.031547247542266e-14

Title: *nmos off - w4
Date: Tue Feb 15 20:26:16  2022
Plotname: DC transfer characteristic
Flags: real
No. Variables: 10
No. Points: 2
Variables:
	0	temp-sweep	temp-sweep
	1	abs(v(alim))	voltage
	2	v(drain)	voltage
	3	v(gate)	voltage
	4	v(source)	voltage
	5	v(body)	voltage
	6	i(i(vd))	current
	7	i(i(vg))	current
	8	i(i(vs))	current
	9	i(i(vb))	current
Values:
 0	3.000000000000000e+01
	7.000000000000001e-01
	7.000000000000001e-01
	0.000000000000000e+00
	0.000000000000000e+00
	0.000000000000000e+00
	-1.702563931805875e-08
	1.455611490864838e-09
	1.557001776097293e-08
	1.006622098703365e-14

 1	1.000000000000000e+02
	7.000000000000001e-01
	7.000000000000001e-01
	0.000000000000000e+00
	0.000000000000000e+00
	0.000000000000000e+00
	-9.186886390586889e-08
	1.455611490864736e-09
	9.041324203611651e-08
	1.037888763481279e-14

Title: *nmos off - w4
Date: Tue Feb 15 20:26:16  2022
Plotname: DC transfer characteristic
Flags: real
No. Variables: 10
No. Points: 2
Variables:
	0	temp-sweep	temp-sweep
	1	abs(v(alim))	voltage
	2	v(drain)	voltage
	3	v(gate)	voltage
	4	v(source)	voltage
	5	v(body)	voltage
	6	i(i(vd))	current
	7	i(i(vg))	current
	8	i(i(vs))	current
	9	i(i(vb))	current
Values:
 0	3.000000000000000e+01
	7.500000000000001e-01
	7.500000000000001e-01
	0.000000000000000e+00
	0.000000000000000e+00
	0.000000000000000e+00
	-1.957955391634379e-08
	1.887715992798749e-09
	1.769182784257556e-08
	1.008096948391207e-14

 1	1.000000000000000e+02
	7.500000000000001e-01
	7.500000000000001e-01
	0.000000000000000e+00
	0.000000000000000e+00
	0.000000000000000e+00
	-1.020526930871589e-07
	1.887715992798617e-09
	1.001649666422138e-07
	1.045214641987091e-14

Title: *nmos off - w4
Date: Tue Feb 15 20:26:16  2022
Plotname: DC transfer characteristic
Flags: real
No. Variables: 10
No. Points: 2
Variables:
	0	temp-sweep	temp-sweep
	1	abs(v(alim))	voltage
	2	v(drain)	voltage
	3	v(gate)	voltage
	4	v(source)	voltage
	5	v(body)	voltage
	6	i(i(vd))	current
	7	i(i(vg))	current
	8	i(i(vs))	current
	9	i(i(vb))	current
Values:
 0	3.000000000000000e+01
	8.000000000000002e-01
	8.000000000000002e-01
	0.000000000000000e+00
	0.000000000000000e+00
	0.000000000000000e+00
	-2.251165019965876e-08
	2.417390818351513e-09
	2.009424928284054e-08
	1.009846670383108e-14

 1	1.000000000000000e+02
	8.000000000000002e-01
	8.000000000000002e-01
	0.000000000000000e+00
	0.000000000000000e+00
	0.000000000000000e+00
	-1.133378955804503e-07
	2.417390818351345e-09
	1.109204942255274e-07
	1.053657160337112e-14

Title: *nmos off - w4
Date: Tue Feb 15 20:26:16  2022
Plotname: DC transfer characteristic
Flags: real
No. Variables: 10
No. Points: 2
Variables:
	0	temp-sweep	temp-sweep
	1	abs(v(alim))	voltage
	2	v(drain)	voltage
	3	v(gate)	voltage
	4	v(source)	voltage
	5	v(body)	voltage
	6	i(i(vd))	current
	7	i(i(vg))	current
	8	i(i(vs))	current
	9	i(i(vb))	current
Values:
 0	3.000000000000000e+01
	8.500000000000002e-01
	8.500000000000002e-01
	0.000000000000000e+00
	0.000000000000000e+00
	0.000000000000000e+00
	-2.587570163842066e-08
	3.062506011982473e-09
	2.281318550726556e-08
	1.011917262973455e-14

 1	1.000000000000000e+02
	8.500000000000002e-01
	8.500000000000002e-01
	0.000000000000000e+00
	0.000000000000000e+00
	0.000000000000000e+00
	-1.258407381850507e-07
	3.062506011982260e-09
	1.227782215394240e-07
	1.063364444426820e-14

Title: *nmos off - w4
Date: Tue Feb 15 20:26:16  2022
Plotname: DC transfer characteristic
Flags: real
No. Variables: 10
No. Points: 2
Variables:
	0	temp-sweep	temp-sweep
	1	abs(v(alim))	voltage
	2	v(drain)	voltage
	3	v(gate)	voltage
	4	v(source)	voltage
	5	v(body)	voltage
	6	i(i(vd))	current
	7	i(i(vg))	current
	8	i(i(vs))	current
	9	i(i(vb))	current
Values:
 0	3.000000000000000e+01
	9.000000000000002e-01
	9.000000000000002e-01
	0.000000000000000e+00
	0.000000000000000e+00
	0.000000000000000e+00
	-2.973271595534014e-08
	3.843812222258248e-09
	2.588889358946408e-08
	1.014361781269588e-14

 1	1.000000000000000e+02
	9.000000000000002e-01
	9.000000000000002e-01
	0.000000000000000e+00
	0.000000000000000e+00
	0.000000000000000e+00
	-1.396891645997784e-07
	3.843812222257984e-09
	1.358453416324990e-07
	1.074502137433952e-14

Title: *nmos off - w4
Date: Tue Feb 15 20:26:16  2022
Plotname: DC transfer characteristic
Flags: real
No. Variables: 10
No. Points: 2
Variables:
	0	temp-sweep	temp-sweep
	1	abs(v(alim))	voltage
	2	v(drain)	voltage
	3	v(gate)	voltage
	4	v(source)	voltage
	5	v(body)	voltage
	6	i(i(vd))	current
	7	i(i(vg))	current
	8	i(i(vs))	current
	9	i(i(vb))	current
Values:
 0	3.000000000000000e+01
	9.500000000000003e-01
	9.500000000000003e-01
	0.000000000000000e+00
	0.000000000000000e+00
	0.000000000000000e+00
	-3.415186081897537e-08
	4.785368188435308e-09
	2.936648219192746e-08
	1.043861258033695e-14

 1	1.000000000000000e+02
	9.500000000000003e-01
	9.500000000000003e-01
	0.000000000000000e+00
	0.000000000000000e+00
	0.000000000000000e+00
	-1.550239666175286e-07
	4.785368188434977e-09
	1.502385868790827e-07
	1.155001096879167e-14

Title: *nmos off - w4
Date: Tue Feb 15 20:26:16  2022
Plotname: DC transfer characteristic
Flags: real
No. Variables: 10
No. Points: 2
Variables:
	0	temp-sweep	temp-sweep
	1	abs(v(alim))	voltage
	2	v(drain)	voltage
	3	v(gate)	voltage
	4	v(source)	voltage
	5	v(body)	voltage
	6	i(i(vd))	current
	7	i(i(vg))	current
	8	i(i(vs))	current
	9	i(i(vb))	current
Values:
 0	3.000000000000000e+01
	1.000000000000000e+00
	1.000000000000000e+00
	0.000000000000000e+00
	0.000000000000000e+00
	0.000000000000000e+00
	-3.921150618485259e-08
	5.915028162249752e-09
	3.329646377082133e-08
	1.425178148701486e-14

 1	1.000000000000000e+02
	1.000000000000000e+00
	1.000000000000000e+00
	0.000000000000000e+00
	0.000000000000000e+00
	0.000000000000000e+00
	-1.720000866513092e-07
	5.915028162249339e-09
	1.660850366405000e-07
	2.184855985791365e-14

Title: *nmos off - w4
Date: Tue Feb 15 20:26:16  2022
Plotname: DC transfer characteristic
Flags: real
No. Variables: 10
No. Points: 2
Variables:
	0	temp-sweep	temp-sweep
	1	abs(v(alim))	voltage
	2	v(drain)	voltage
	3	v(gate)	voltage
	4	v(source)	voltage
	5	v(body)	voltage
	6	i(i(vd))	current
	7	i(i(vg))	current
	8	i(i(vs))	current
	9	i(i(vb))	current
Values:
 0	3.000000000000000e+01
	1.050000000000000e+00
	1.050000000000000e+00
	0.000000000000000e+00
	0.000000000000000e+00
	0.000000000000000e+00
	-4.500086312520902e-08
	7.264997326253552e-09
	3.773536812325288e-08
	4.976757025968439e-13

 1	1.000000000000000e+02
	1.050000000000000e+00
	1.050000000000000e+00
	0.000000000000000e+00
	0.000000000000000e+00
	0.000000000000000e+00
	-1.907885411022903e-07
	7.264997326253048e-09
	1.835230028179991e-07
	5.409580381665052e-13

Title: *nmos off - w4
Date: Tue Feb 15 20:26:16  2022
Plotname: DC transfer characteristic
Flags: real
No. Variables: 10
No. Points: 2
Variables:
	0	temp-sweep	temp-sweep
	1	abs(v(alim))	voltage
	2	v(drain)	voltage
	3	v(gate)	voltage
	4	v(source)	voltage
	5	v(body)	voltage
	6	i(i(vd))	current
	7	i(i(vg))	current
	8	i(i(vs))	current
	9	i(i(vb))	current
Values:
 0	3.000000000000000e+01
	1.100000000000000e+00
	1.100000000000000e+00
	0.000000000000000e+00
	0.000000000000000e+00
	0.000000000000000e+00
	-5.164374528622310e-08
	8.872464322408851e-09
	4.274642529082840e-08
	2.485567298581850e-11

 1	1.000000000000000e+02
	1.100000000000000e+00
	1.100000000000000e+00
	0.000000000000000e+00
	0.000000000000000e+00
	0.000000000000000e+00
	-2.116005385035715e-07
	8.872464322408239e-09
	2.027030075500369e-07
	2.506663112632985e-11

Title: *nmos off - w4
Date: Tue Feb 15 20:26:16  2022
Plotname: DC transfer characteristic
Flags: real
No. Variables: 10
No. Points: 2
Variables:
	0	temp-sweep	temp-sweep
	1	abs(v(alim))	voltage
	2	v(drain)	voltage
	3	v(gate)	voltage
	4	v(source)	voltage
	5	v(body)	voltage
	6	i(i(vd))	current
	7	i(i(vg))	current
	8	i(i(vs))	current
	9	i(i(vb))	current
Values:
 0	3.000000000000000e+01
	1.150000000000000e+00
	1.150000000000000e+00
	0.000000000000000e+00
	0.000000000000000e+00
	0.000000000000000e+00
	-5.961091644978071e-08
	1.078032119064874e-08
	4.840032700808276e-08
	4.302682510492183e-10

 1	1.000000000000000e+02
	1.150000000000000e+00
	1.150000000000000e+00
	0.000000000000000e+00
	0.000000000000000e+00
	0.000000000000000e+00
	-2.350003567127167e-07
	1.078032119064808e-08
	2.237888688064803e-07
	4.311667155880337e-10

Title: *nmos off - w4
Date: Tue Feb 15 20:26:16  2022
Plotname: DC transfer characteristic
Flags: real
No. Variables: 10
No. Points: 2
Variables:
	0	temp-sweep	temp-sweep
	1	abs(v(alim))	voltage
	2	v(drain)	voltage
	3	v(gate)	voltage
	4	v(source)	voltage
	5	v(body)	voltage
	6	i(i(vd))	current
	7	i(i(vg))	current
	8	i(i(vs))	current
	9	i(i(vb))	current
Values:
 0	3.000000000000000e+01
	1.200000000000000e+00
	1.200000000000000e+00
	0.000000000000000e+00
	0.000000000000000e+00
	0.000000000000000e+00
	-7.153780163617085e-08
	1.303798235363624e-08
	5.477607781126187e-08
	3.723741471272733e-09

 1	1.000000000000000e+02
	1.200000000000000e+00
	1.200000000000000e+00
	0.000000000000000e+00
	0.000000000000000e+00
	0.000000000000000e+00
	-2.637240397077383e-07
	1.303798235363620e-08
	2.469589131662721e-07
	3.727144187830021e-09

