  temp-sweep      abs(v(alim))    v(drain)        v(gate)         temp-sweep      v(source)       v(body)         i(vd)           temp-sweep      i(vg)           i(vs)           i(vb)
 3.00000000e+01  5.00000000e-02  3.00000000e+01  5.00000000e-02  3.00000000e+01  0.00000000e+00  3.00000000e+01  0.00000000e+00  3.00000000e+01  0.00000000e+00  3.00000000e+01 -3.77427016e-09  3.00000000e+01  2.33625581e-11  3.00000000e+01  3.75089907e-09  3.00000000e+01  8.52566761e-15 
 1.00000000e+02  5.00000000e-02  1.00000000e+02  5.00000000e-02  1.00000000e+02  0.00000000e+00  1.00000000e+02  0.00000000e+00  1.00000000e+02  0.00000000e+00  1.00000000e+02 -2.90170803e-08  1.00000000e+02  2.33625581e-11  1.00000000e+02  2.89937099e-08  1.00000000e+02  7.89116577e-15 
 3.00000000e+01  1.00000000e-01  3.00000000e+01  1.00000000e-01  3.00000000e+01  0.00000000e+00  3.00000000e+01  0.00000000e+00  3.00000000e+01  0.00000000e+00  3.00000000e+01 -4.82293867e-09  3.00000000e+01  2.80593267e-11  3.00000000e+01  4.79486956e-09  3.00000000e+01  9.78441342e-15 
 1.00000000e+02  1.00000000e-01  1.00000000e+02  1.00000000e-01  1.00000000e+02  0.00000000e+00  1.00000000e+02  0.00000000e+00  1.00000000e+02  0.00000000e+00  1.00000000e+02 -3.74364119e-08  1.00000000e+02  2.80593267e-11  1.00000000e+02  3.74083430e-08  1.00000000e+02  9.56717798e-15 
 3.00000000e+01  1.50000000e-01  3.00000000e+01  1.50000000e-01  3.00000000e+01  0.00000000e+00  3.00000000e+01  0.00000000e+00  3.00000000e+01  0.00000000e+00  3.00000000e+01 -5.61000027e-09  3.00000000e+01  1.87804684e-11  3.00000000e+01  5.59120983e-09  3.00000000e+01  9.97188846e-15 
 1.00000000e+02  1.50000000e-01  1.00000000e+02  1.50000000e-01  1.00000000e+02  0.00000000e+00  1.00000000e+02  0.00000000e+00  1.00000000e+02  0.00000000e+00  1.00000000e+02 -4.27650335e-08  1.00000000e+02  1.87804684e-11  1.00000000e+02  4.27462431e-08  1.00000000e+02  9.93376640e-15 
 3.00000000e+01  2.00000000e-01  3.00000000e+01  2.00000000e-01  3.00000000e+01  0.00000000e+00  3.00000000e+01  0.00000000e+00  3.00000000e+01  0.00000000e+00  3.00000000e+01 -6.43726798e-09  3.00000000e+01  5.16978389e-12  3.00000000e+01  6.43208819e-09  3.00000000e+01  1.00018722e-14 
 1.00000000e+02  2.00000000e-01  1.00000000e+02  2.00000000e-01  1.00000000e+02  0.00000000e+00  1.00000000e+02  0.00000000e+00  1.00000000e+02  0.00000000e+00  1.00000000e+02 -4.80221683e-08  1.00000000e+02  5.16978389e-12  1.00000000e+02  4.80169885e-08  1.00000000e+02  1.00266121e-14 
 3.00000000e+01  2.50000000e-01  3.00000000e+01  2.50000000e-01  3.00000000e+01  0.00000000e+00  3.00000000e+01  0.00000000e+00  3.00000000e+01  0.00000000e+00  3.00000000e+01 -7.40308693e-09  3.00000000e+01  3.61533094e-11  3.00000000e+01  7.36692361e-09  3.00000000e+01  1.00092233e-14 
 1.00000000e+02  2.50000000e-01  1.00000000e+02  2.50000000e-01  1.00000000e+02  0.00000000e+00  1.00000000e+02  0.00000000e+00  1.00000000e+02  0.00000000e+00  1.00000000e+02 -5.36945784e-08  1.00000000e+02  3.61533094e-11  1.00000000e+02  5.36584150e-08  1.00000000e+02  1.00648719e-14 
 3.00000000e+01  3.00000000e-01  3.00000000e+01  3.00000000e-01  3.00000000e+01  0.00000000e+00  3.00000000e+01  0.00000000e+00  3.00000000e+01  0.00000000e+00  3.00000000e+01 -8.51092857e-09  3.00000000e+01  9.12409490e-11  3.00000000e+01  8.41967761e-09  3.00000000e+01  1.00139428e-14 
 1.00000000e+02  3.00000000e-01  1.00000000e+02  3.00000000e-01  1.00000000e+02  0.00000000e+00  1.00000000e+02  0.00000000e+00  1.00000000e+02  0.00000000e+00  1.00000000e+02 -5.99094080e-08  1.00000000e+02  9.12409490e-11  1.00000000e+02  5.98181570e-08  1.00000000e+02  1.00952985e-14 
 3.00000000e+01  3.50000000e-01  3.00000000e+01  3.50000000e-01  3.00000000e+01  0.00000000e+00  3.00000000e+01  0.00000000e+00  3.00000000e+01  0.00000000e+00  3.00000000e+01 -9.78381097e-09  3.00000000e+01  1.73362539e-10  3.00000000e+01  9.61043841e-09  3.00000000e+01  1.00191137e-14 
 1.00000000e+02  3.50000000e-01  1.00000000e+02  3.50000000e-01  1.00000000e+02  0.00000000e+00  1.00000000e+02  0.00000000e+00  1.00000000e+02  0.00000000e+00  1.00000000e+02 -6.67630113e-08  1.00000000e+02  1.73362539e-10  1.00000000e+02  6.65896386e-08  1.00000000e+02  1.01283090e-14 
 3.00000000e+01  4.00000000e-01  3.00000000e+01  4.00000000e-01  3.00000000e+01  0.00000000e+00  3.00000000e+01  0.00000000e+00  3.00000000e+01  0.00000000e+00  3.00000000e+01 -1.12485618e-08  3.00000000e+01  2.88914408e-10  3.00000000e+01  1.09596374e-08  3.00000000e+01  1.00253486e-14 
 1.00000000e+02  4.00000000e-01  1.00000000e+02  4.00000000e-01  1.00000000e+02  0.00000000e+00  1.00000000e+02  0.00000000e+00  1.00000000e+02  0.00000000e+00  1.00000000e+02 -7.43431126e-08  1.00000000e+02  2.88914408e-10  1.00000000e+02  7.40541880e-08  1.00000000e+02  1.01667284e-14 
 3.00000000e+01  4.50000000e-01  3.00000000e+01  4.50000000e-01  3.00000000e+01  0.00000000e+00  3.00000000e+01  0.00000000e+00  3.00000000e+01  0.00000000e+00  3.00000000e+01 -1.29350012e-08  3.00000000e+01  4.45575381e-10  3.00000000e+01  1.24894158e-08  3.00000000e+01  1.00329226e-14 
 1.00000000e+02  4.50000000e-01  1.00000000e+02  4.50000000e-01  1.00000000e+02  0.00000000e+00  1.00000000e+02  0.00000000e+00  1.00000000e+02  0.00000000e+00  1.00000000e+02 -8.27382169e-08  1.00000000e+02  4.45575381e-10  1.00000000e+02  8.22926313e-08  1.00000000e+02  1.02118656e-14 
 3.00000000e+01  5.00000000e-01  3.00000000e+01  5.00000000e-01  3.00000000e+01  0.00000000e+00  3.00000000e+01  0.00000000e+00  3.00000000e+01  0.00000000e+00  3.00000000e+01 -1.48767586e-08  3.00000000e+01  6.52437040e-10  3.00000000e+01  1.42243115e-08  3.00000000e+01  1.00420929e-14 
 1.00000000e+02  5.00000000e-01  1.00000000e+02  5.00000000e-01  1.00000000e+02  0.00000000e+00  1.00000000e+02  0.00000000e+00  1.00000000e+02  0.00000000e+00  1.00000000e+02 -9.20421203e-08  1.00000000e+02  6.52437040e-10  1.00000000e+02  9.13896730e-08  1.00000000e+02  1.02648049e-14 
 3.00000000e+01  5.50000000e-01  3.00000000e+01  5.50000000e-01  3.00000000e+01  0.00000000e+00  3.00000000e+01  0.00000000e+00  3.00000000e+01  0.00000000e+00  3.00000000e+01 -1.71119808e-08  3.00000000e+01  9.20216930e-10  3.00000000e+01  1.61917539e-08  3.00000000e+01  1.00531496e-14 
 1.00000000e+02  5.50000000e-01  1.00000000e+02  5.50000000e-01  1.00000000e+02  0.00000000e+00  1.00000000e+02  0.00000000e+00  1.00000000e+02  0.00000000e+00  1.00000000e+02 -1.02356303e-07  1.00000000e+02  9.20216930e-10  1.00000000e+02  1.01436076e-07  1.00000000e+02  1.03266888e-14 
 3.00000000e+01  6.00000000e-01  3.00000000e+01  6.00000000e-01  3.00000000e+01  0.00000000e+00  3.00000000e+01  0.00000000e+00  3.00000000e+01  0.00000000e+00  3.00000000e+01 -1.96840315e-08  3.00000000e+01  1.26151194e-09  3.00000000e+01  1.84225095e-08  3.00000000e+01  1.00664297e-14 
 1.00000000e+02  6.00000000e-01  1.00000000e+02  6.00000000e-01  1.00000000e+02  0.00000000e+00  1.00000000e+02  0.00000000e+00  1.00000000e+02  0.00000000e+00  1.00000000e+02 -1.13791572e-07  1.00000000e+02  1.26151194e-09  1.00000000e+02  1.12530050e-07  1.00000000e+02  1.03987891e-14 
 3.00000000e+01  6.50000000e-01  3.00000000e+01  6.50000000e-01  3.00000000e+01  0.00000000e+00  3.00000000e+01  0.00000000e+00  3.00000000e+01  0.00000000e+00  3.00000000e+01 -2.26422332e-08  3.00000000e+01  1.69109075e-09  3.00000000e+01  2.09511323e-08  3.00000000e+01  1.00823245e-14 
 1.00000000e+02  6.50000000e-01  1.00000000e+02  6.50000000e-01  1.00000000e+02  0.00000000e+00  1.00000000e+02  0.00000000e+00  1.00000000e+02  0.00000000e+00  1.00000000e+02 -1.26469442e-07  1.00000000e+02  1.69109075e-09  1.00000000e+02  1.24778341e-07  1.00000000e+02  1.04825349e-14 
 3.00000000e+01  7.00000000e-01  3.00000000e+01  7.00000000e-01  3.00000000e+01  0.00000000e+00  3.00000000e+01  0.00000000e+00  3.00000000e+01  0.00000000e+00  3.00000000e+01 -2.60426800e-08  3.00000000e+01  2.22622932e-09  3.00000000e+01  2.38164406e-08  3.00000000e+01  1.01012884e-14 
 1.00000000e+02  7.00000000e-01  1.00000000e+02  7.00000000e-01  1.00000000e+02  0.00000000e+00  1.00000000e+02  0.00000000e+00  1.00000000e+02  0.00000000e+00  1.00000000e+02 -1.40523439e-07  1.00000000e+02  2.22622932e-09  1.00000000e+02  1.38297199e-07  1.00000000e+02  1.05795329e-14 
 3.00000000e+01  7.50000000e-01  3.00000000e+01  7.50000000e-01  3.00000000e+01  0.00000000e+00  3.00000000e+01  0.00000000e+00  3.00000000e+01  0.00000000e+00  3.00000000e+01 -2.99491390e-08  3.00000000e+01  2.88709501e-09  3.00000000e+01  2.70620339e-08  3.00000000e+01  1.01238476e-14 
 1.00000000e+02  7.50000000e-01  1.00000000e+02  7.50000000e-01  1.00000000e+02  0.00000000e+00  1.00000000e+02  0.00000000e+00  1.00000000e+02  0.00000000e+00  1.00000000e+02 -1.56100424e-07  1.00000000e+02  2.88709501e-09  1.00000000e+02  1.53213318e-07  1.00000000e+02  1.06915873e-14 
 3.00000000e+01  8.00000000e-01  3.00000000e+01  8.00000000e-01  3.00000000e+01  0.00000000e+00  3.00000000e+01  0.00000000e+00  3.00000000e+01  0.00000000e+00  3.00000000e+01 -3.44340558e-08  3.00000000e+01  3.69718590e-09  3.00000000e+01  3.07368597e-08  3.00000000e+01  1.01506113e-14 
 1.00000000e+02  8.00000000e-01  1.00000000e+02  8.00000000e-01  1.00000000e+02  0.00000000e+00  1.00000000e+02  0.00000000e+00  1.00000000e+02  0.00000000e+00  1.00000000e+02 -1.73361991e-07  1.00000000e+02  3.69718590e-09  1.00000000e+02  1.69664794e-07  1.00000000e+02  1.08207212e-14 
 3.00000000e+01  8.50000000e-01  3.00000000e+01  8.50000000e-01  3.00000000e+01  0.00000000e+00  3.00000000e+01  0.00000000e+00  3.00000000e+01  0.00000000e+00  3.00000000e+01 -3.95796794e-08  3.00000000e+01  4.68383264e-09  3.00000000e+01  3.48958366e-08  3.00000000e+01  1.01822832e-14 
 1.00000000e+02  8.50000000e-01  1.00000000e+02  8.50000000e-01  1.00000000e+02  0.00000000e+00  1.00000000e+02  0.00000000e+00  1.00000000e+02  0.00000000e+00  1.00000000e+02 -1.92485958e-07  1.00000000e+02  4.68383264e-09  1.00000000e+02  1.87802114e-07  1.00000000e+02  1.09692002e-14 
 3.00000000e+01  9.00000000e-01  3.00000000e+01  9.00000000e-01  3.00000000e+01  0.00000000e+00  3.00000000e+01  0.00000000e+00  3.00000000e+01  0.00000000e+00  3.00000000e+01 -4.54793240e-08  3.00000000e+01  5.87877151e-09  3.00000000e+01  3.96005422e-08  3.00000000e+01  1.02196746e-14 
 1.00000000e+02  9.00000000e-01  1.00000000e+02  9.00000000e-01  1.00000000e+02  0.00000000e+00  1.00000000e+02  0.00000000e+00  1.00000000e+02  0.00000000e+00  1.00000000e+02 -2.13668002e-07  1.00000000e+02  5.87877151e-09  1.00000000e+02  2.07789219e-07  1.00000000e+02  1.11395577e-14 
 3.00000000e+01  9.50000000e-01  3.00000000e+01  9.50000000e-01  3.00000000e+01  0.00000000e+00  3.00000000e+01  0.00000000e+00  3.00000000e+01  0.00000000e+00  3.00000000e+01 -5.22387840e-08  3.00000000e+01  7.31879821e-09  3.00000000e+01  4.49199751e-08  3.00000000e+01  1.06705718e-14 
 1.00000000e+02  9.50000000e-01  1.00000000e+02  9.50000000e-01  1.00000000e+02  0.00000000e+00  1.00000000e+02  0.00000000e+00  1.00000000e+02  0.00000000e+00  1.00000000e+02 -2.37123444e-07  1.00000000e+02  7.31879821e-09  1.00000000e+02  2.29804634e-07  1.00000000e+02  1.23692539e-14 
 3.00000000e+01  1.00000000e+00  3.00000000e+01  1.00000000e+00  3.00000000e+01  0.00000000e+00  3.00000000e+01  0.00000000e+00  3.00000000e+01  0.00000000e+00  3.00000000e+01 -5.99779287e-08  3.00000000e+01  9.04651338e-09  3.00000000e+01  5.09313989e-08  3.00000000e+01  1.64630815e-14 
 1.00000000e+02  1.00000000e+00  1.00000000e+02  1.00000000e+00  1.00000000e+02  0.00000000e+00  1.00000000e+02  0.00000000e+00  1.00000000e+02  0.00000000e+00  1.00000000e+02 -2.63089244e-07  1.00000000e+02  9.04651338e-09  1.00000000e+02  2.54042703e-07  1.00000000e+02  2.80748742e-14 
 3.00000000e+01  1.05000000e+00  3.00000000e+01  1.05000000e+00  3.00000000e+01  0.00000000e+00  3.00000000e+01  0.00000000e+00  3.00000000e+01  0.00000000e+00  3.00000000e+01 -6.88331951e-08  3.00000000e+01  1.11111720e-08  3.00000000e+01  5.77212811e-08  3.00000000e+01  7.41996777e-13 
 1.00000000e+02  1.05000000e+00  1.00000000e+02  1.05000000e+00  1.00000000e+02  0.00000000e+00  1.00000000e+02  0.00000000e+00  1.00000000e+02  0.00000000e+00  1.00000000e+02 -2.91826926e-07  1.00000000e+02  1.11111720e-08  1.00000000e+02  2.80714946e-07  1.00000000e+02  8.08158018e-13 
 3.00000000e+01  1.10000000e+00  3.00000000e+01  1.10000000e+00  3.00000000e+01  0.00000000e+00  3.00000000e+01  0.00000000e+00  3.00000000e+01  0.00000000e+00  3.00000000e+01 -7.89932686e-08  3.00000000e+01  1.35696507e-08  3.00000000e+01  6.53863370e-08  3.00000000e+01  3.72808402e-11 
 1.00000000e+02  1.10000000e+00  1.00000000e+02  1.10000000e+00  1.00000000e+02  0.00000000e+00  1.00000000e+02  0.00000000e+00  1.00000000e+02  0.00000000e+00  1.00000000e+02 -3.23658802e-07  1.00000000e+02  1.35696507e-08  1.00000000e+02  3.10051548e-07  1.00000000e+02  3.76033246e-11 
 3.00000000e+01  1.15000000e+00  3.00000000e+01  1.15000000e+00  3.00000000e+01  0.00000000e+00  3.00000000e+01  0.00000000e+00  3.00000000e+01  0.00000000e+00  3.00000000e+01 -9.11676510e-08  3.00000000e+01  1.64875492e-08  3.00000000e+01  7.40346948e-08  3.00000000e+01  6.45407039e-10 
 1.00000000e+02  1.15000000e+00  1.00000000e+02  1.15000000e+00  1.00000000e+02  0.00000000e+00  1.00000000e+02  0.00000000e+00  1.00000000e+02  0.00000000e+00  1.00000000e+02 -3.59437353e-07  1.00000000e+02  1.64875492e-08  1.00000000e+02  3.42303023e-07  1.00000000e+02  6.46780543e-10 
 3.00000000e+01  1.20000000e+00  3.00000000e+01  1.20000000e+00  3.00000000e+01  0.00000000e+00  3.00000000e+01  0.00000000e+00  3.00000000e+01  0.00000000e+00  3.00000000e+01 -1.09313282e-07  3.00000000e+01  1.99404424e-08  3.00000000e+01  8.37871974e-08  3.00000000e+01  5.58564230e-09 
 1.00000000e+02  1.20000000e+00  1.00000000e+02  1.20000000e+00  1.00000000e+02  0.00000000e+00  1.00000000e+02  0.00000000e+00  1.00000000e+02  0.00000000e+00  1.00000000e+02 -4.03273351e-07  1.00000000e+02  1.99404424e-08  1.00000000e+02  3.77742064e-07  1.00000000e+02  5.59084428e-09 
