Title: *nmos off - w6
Date: Tue Feb 15 20:26:20  2022
Plotname: DC transfer characteristic
Flags: real
No. Variables: 10
No. Points: 2
Variables:
	0	temp-sweep	temp-sweep
	1	abs(v(alim))	voltage
	2	v(drain)	voltage
	3	v(gate)	voltage
	4	v(source)	voltage
	5	v(body)	voltage
	6	i(i(vd))	current
	7	i(i(vg))	current
	8	i(i(vs))	current
	9	i(i(vb))	current
Values:
 0	3.000000000000000e+01
	5.000000000000000e-02
	5.000000000000000e-02
	0.000000000000000e+00
	0.000000000000000e+00
	0.000000000000000e+00
	-3.774270156884884e-09
	2.336255807378621e-11
	3.750899073143485e-09
	8.525667612205385e-15

 1	1.000000000000000e+02
	5.000000000000000e-02
	5.000000000000000e-02
	0.000000000000000e+00
	0.000000000000000e+00
	0.000000000000000e+00
	-2.901708034641272e-08
	2.336255807378249e-11
	2.899370989717317e-08
	7.891165767441994e-15

Title: *nmos off - w6
Date: Tue Feb 15 20:26:20  2022
Plotname: DC transfer characteristic
Flags: real
No. Variables: 10
No. Points: 2
Variables:
	0	temp-sweep	temp-sweep
	1	abs(v(alim))	voltage
	2	v(drain)	voltage
	3	v(gate)	voltage
	4	v(source)	voltage
	5	v(body)	voltage
	6	i(i(vd))	current
	7	i(i(vg))	current
	8	i(i(vs))	current
	9	i(i(vb))	current
Values:
 0	3.000000000000000e+01
	1.000000000000000e-01
	1.000000000000000e-01
	0.000000000000000e+00
	0.000000000000000e+00
	0.000000000000000e+00
	-4.822938667342774e-09
	2.805932672128564e-11
	4.794869556208065e-09
	9.784413424830889e-15

 1	1.000000000000000e+02
	1.000000000000000e-01
	1.000000000000000e-01
	0.000000000000000e+00
	0.000000000000000e+00
	0.000000000000000e+00
	-3.743641193198628e-08
	2.805932672128117e-11
	3.740834303808702e-08
	9.567177979643450e-15

Title: *nmos off - w6
Date: Tue Feb 15 20:26:20  2022
Plotname: DC transfer characteristic
Flags: real
No. Variables: 10
No. Points: 2
Variables:
	0	temp-sweep	temp-sweep
	1	abs(v(alim))	voltage
	2	v(drain)	voltage
	3	v(gate)	voltage
	4	v(source)	voltage
	5	v(body)	voltage
	6	i(i(vd))	current
	7	i(i(vg))	current
	8	i(i(vs))	current
	9	i(i(vb))	current
Values:
 0	3.000000000000000e+01
	1.500000000000000e-01
	1.500000000000000e-01
	0.000000000000000e+00
	0.000000000000000e+00
	0.000000000000000e+00
	-5.610000267630053e-09
	1.878046841819219e-11
	5.591209827323402e-09
	9.971888458875602e-15

 1	1.000000000000000e+02
	1.500000000000000e-01
	1.500000000000000e-01
	0.000000000000000e+00
	0.000000000000000e+00
	0.000000000000000e+00
	-4.276503349275900e-08
	1.878046841818921e-11
	4.274624309057442e-08
	9.933766400930725e-15

Title: *nmos off - w6
Date: Tue Feb 15 20:26:20  2022
Plotname: DC transfer characteristic
Flags: real
No. Variables: 10
No. Points: 2
Variables:
	0	temp-sweep	temp-sweep
	1	abs(v(alim))	voltage
	2	v(drain)	voltage
	3	v(gate)	voltage
	4	v(source)	voltage
	5	v(body)	voltage
	6	i(i(vd))	current
	7	i(i(vg))	current
	8	i(i(vs))	current
	9	i(i(vb))	current
Values:
 0	3.000000000000000e+01
	2.000000000000000e-01
	2.000000000000000e-01
	0.000000000000000e+00
	0.000000000000000e+00
	0.000000000000000e+00
	-6.437267978481088e-09
	5.169783885267188e-12
	6.432088192723603e-09
	1.000187221709282e-14

 1	1.000000000000000e+02
	2.000000000000000e-01
	2.000000000000000e-01
	0.000000000000000e+00
	0.000000000000000e+00
	0.000000000000000e+00
	-4.802216834364992e-08
	5.169783885266371e-12
	4.801698853315257e-08
	1.002661209336950e-14

Title: *nmos off - w6
Date: Tue Feb 15 20:26:20  2022
Plotname: DC transfer characteristic
Flags: real
No. Variables: 10
No. Points: 2
Variables:
	0	temp-sweep	temp-sweep
	1	abs(v(alim))	voltage
	2	v(drain)	voltage
	3	v(gate)	voltage
	4	v(source)	voltage
	5	v(body)	voltage
	6	i(i(vd))	current
	7	i(i(vg))	current
	8	i(i(vs))	current
	9	i(i(vb))	current
Values:
 0	3.000000000000000e+01
	2.500000000000000e-01
	2.500000000000000e-01
	0.000000000000000e+00
	0.000000000000000e+00
	0.000000000000000e+00
	-7.403086931996374e-09
	3.615330944615698e-11
	7.366923613326869e-09
	1.000922334913155e-14

 1	1.000000000000000e+02
	2.500000000000000e-01
	2.500000000000000e-01
	0.000000000000000e+00
	0.000000000000000e+00
	0.000000000000000e+00
	-5.369457837766338e-08
	3.615330944615126e-11
	5.365841500334528e-08
	1.006487194871442e-14

Title: *nmos off - w6
Date: Tue Feb 15 20:26:20  2022
Plotname: DC transfer characteristic
Flags: real
No. Variables: 10
No. Points: 2
Variables:
	0	temp-sweep	temp-sweep
	1	abs(v(alim))	voltage
	2	v(drain)	voltage
	3	v(gate)	voltage
	4	v(source)	voltage
	5	v(body)	voltage
	6	i(i(vd))	current
	7	i(i(vg))	current
	8	i(i(vs))	current
	9	i(i(vb))	current
Values:
 0	3.000000000000000e+01
	3.000000000000000e-01
	3.000000000000000e-01
	0.000000000000000e+00
	0.000000000000000e+00
	0.000000000000000e+00
	-8.510928572627266e-09
	9.124094900122414e-11
	8.419677609683277e-09
	1.001394276354869e-14

 1	1.000000000000000e+02
	3.000000000000000e-01
	3.000000000000000e-01
	0.000000000000000e+00
	0.000000000000000e+00
	0.000000000000000e+00
	-5.990940803389105e-08
	9.124094900120962e-11
	5.981815698959133e-08
	1.009529850139041e-14

Title: *nmos off - w6
Date: Tue Feb 15 20:26:20  2022
Plotname: DC transfer characteristic
Flags: real
No. Variables: 10
No. Points: 2
Variables:
	0	temp-sweep	temp-sweep
	1	abs(v(alim))	voltage
	2	v(drain)	voltage
	3	v(gate)	voltage
	4	v(source)	voltage
	5	v(body)	voltage
	6	i(i(vd))	current
	7	i(i(vg))	current
	8	i(i(vs))	current
	9	i(i(vb))	current
Values:
 0	3.000000000000000e+01
	3.500000000000000e-01
	3.500000000000000e-01
	0.000000000000000e+00
	0.000000000000000e+00
	0.000000000000000e+00
	-9.783810966617956e-09
	1.733625394759382e-10
	9.610438408028291e-09
	1.001911372572182e-14

 1	1.000000000000000e+02
	3.500000000000000e-01
	3.500000000000000e-01
	0.000000000000000e+00
	0.000000000000000e+00
	0.000000000000000e+00
	-6.676301129144318e-08
	1.733625394759107e-10
	6.658963862365828e-08
	1.012830898107168e-14

Title: *nmos off - w6
Date: Tue Feb 15 20:26:20  2022
Plotname: DC transfer characteristic
Flags: real
No. Variables: 10
No. Points: 2
Variables:
	0	temp-sweep	temp-sweep
	1	abs(v(alim))	voltage
	2	v(drain)	voltage
	3	v(gate)	voltage
	4	v(source)	voltage
	5	v(body)	voltage
	6	i(i(vd))	current
	7	i(i(vg))	current
	8	i(i(vs))	current
	9	i(i(vb))	current
Values:
 0	3.000000000000000e+01
	4.000000000000000e-01
	4.000000000000000e-01
	0.000000000000000e+00
	0.000000000000000e+00
	0.000000000000000e+00
	-1.124856182066708e-08
	2.889144076829048e-10
	1.095963738763559e-08
	1.002534858251560e-14

 1	1.000000000000000e+02
	4.000000000000000e-01
	4.000000000000000e-01
	0.000000000000000e+00
	0.000000000000000e+00
	0.000000000000000e+00
	-7.434311261366591e-08
	2.889144076828586e-10
	7.405418803925469e-08
	1.016672837045922e-14

Title: *nmos off - w6
Date: Tue Feb 15 20:26:20  2022
Plotname: DC transfer characteristic
Flags: real
No. Variables: 10
No. Points: 2
Variables:
	0	temp-sweep	temp-sweep
	1	abs(v(alim))	voltage
	2	v(drain)	voltage
	3	v(gate)	voltage
	4	v(source)	voltage
	5	v(body)	voltage
	6	i(i(vd))	current
	7	i(i(vg))	current
	8	i(i(vs))	current
	9	i(i(vb))	current
Values:
 0	3.000000000000000e+01
	4.500000000000000e-01
	4.500000000000000e-01
	0.000000000000000e+00
	0.000000000000000e+00
	0.000000000000000e+00
	-1.293500117827610e-08
	4.455753814892861e-10
	1.248941576386418e-08
	1.003292263626550e-14

 1	1.000000000000000e+02
	4.500000000000000e-01
	4.500000000000000e-01
	0.000000000000000e+00
	0.000000000000000e+00
	0.000000000000000e+00
	-8.273821689545051e-08
	4.455753814892152e-10
	8.229263130209571e-08
	1.021186558600055e-14

Title: *nmos off - w6
Date: Tue Feb 15 20:26:20  2022
Plotname: DC transfer characteristic
Flags: real
No. Variables: 10
No. Points: 2
Variables:
	0	temp-sweep	temp-sweep
	1	abs(v(alim))	voltage
	2	v(drain)	voltage
	3	v(gate)	voltage
	4	v(source)	voltage
	5	v(body)	voltage
	6	i(i(vd))	current
	7	i(i(vg))	current
	8	i(i(vs))	current
	9	i(i(vb))	current
Values:
 0	3.000000000000000e+01
	4.999999999999999e-01
	4.999999999999999e-01
	0.000000000000000e+00
	0.000000000000000e+00
	0.000000000000000e+00
	-1.487675857261438e-08
	6.524370396250499e-10
	1.422431149089647e-08
	1.004209286068346e-14

 1	1.000000000000000e+02
	4.999999999999999e-01
	4.999999999999999e-01
	0.000000000000000e+00
	0.000000000000000e+00
	0.000000000000000e+00
	-9.204212034997117e-08
	6.524370396249464e-10
	9.138967304554130e-08
	1.026480492406396e-14

Title: *nmos off - w6
Date: Tue Feb 15 20:26:20  2022
Plotname: DC transfer characteristic
Flags: real
No. Variables: 10
No. Points: 2
Variables:
	0	temp-sweep	temp-sweep
	1	abs(v(alim))	voltage
	2	v(drain)	voltage
	3	v(gate)	voltage
	4	v(source)	voltage
	5	v(body)	voltage
	6	i(i(vd))	current
	7	i(i(vg))	current
	8	i(i(vs))	current
	9	i(i(vb))	current
Values:
 0	3.000000000000000e+01
	5.499999999999999e-01
	5.499999999999999e-01
	0.000000000000000e+00
	0.000000000000000e+00
	0.000000000000000e+00
	-1.711198083573738e-08
	9.202169304514193e-10
	1.619175385213634e-08
	1.005314961547124e-14

 1	1.000000000000000e+02
	5.499999999999999e-01
	5.499999999999999e-01
	0.000000000000000e+00
	0.000000000000000e+00
	0.000000000000000e+00
	-1.023563028085373e-07
	9.202169304512730e-10
	1.014360755513972e-07
	1.032668882527033e-14

Title: *nmos off - w6
Date: Tue Feb 15 20:26:20  2022
Plotname: DC transfer characteristic
Flags: real
No. Variables: 10
No. Points: 2
Variables:
	0	temp-sweep	temp-sweep
	1	abs(v(alim))	voltage
	2	v(drain)	voltage
	3	v(gate)	voltage
	4	v(source)	voltage
	5	v(body)	voltage
	6	i(i(vd))	current
	7	i(i(vg))	current
	8	i(i(vs))	current
	9	i(i(vb))	current
Values:
 0	3.000000000000000e+01
	6.000000000000000e-01
	6.000000000000000e-01
	0.000000000000000e+00
	0.000000000000000e+00
	0.000000000000000e+00
	-1.968403150691993e-08
	1.261511944394669e-09
	1.842250949609556e-08
	1.006642970619316e-14

 1	1.000000000000000e+02
	6.000000000000000e-01
	6.000000000000000e-01
	0.000000000000000e+00
	0.000000000000000e+00
	0.000000000000000e+00
	-1.137915721361221e-07
	1.261511944394468e-09
	1.125300497929385e-07
	1.039878910788420e-14

Title: *nmos off - w6
Date: Tue Feb 15 20:26:20  2022
Plotname: DC transfer characteristic
Flags: real
No. Variables: 10
No. Points: 2
Variables:
	0	temp-sweep	temp-sweep
	1	abs(v(alim))	voltage
	2	v(drain)	voltage
	3	v(gate)	voltage
	4	v(source)	voltage
	5	v(body)	voltage
	6	i(i(vd))	current
	7	i(i(vg))	current
	8	i(i(vs))	current
	9	i(i(vb))	current
Values:
 0	3.000000000000000e+01
	6.500000000000000e-01
	6.500000000000000e-01
	0.000000000000000e+00
	0.000000000000000e+00
	0.000000000000000e+00
	-2.264223315867542e-08
	1.691090752383036e-09
	2.095113232396786e-08
	1.008232452801061e-14

 1	1.000000000000000e+02
	6.500000000000000e-01
	6.500000000000000e-01
	0.000000000000000e+00
	0.000000000000000e+00
	0.000000000000000e+00
	-1.264694421767935e-07
	1.691090752382766e-09
	1.247783409418759e-07
	1.048253491549731e-14

Title: *nmos off - w6
Date: Tue Feb 15 20:26:20  2022
Plotname: DC transfer characteristic
Flags: real
No. Variables: 10
No. Points: 2
Variables:
	0	temp-sweep	temp-sweep
	1	abs(v(alim))	voltage
	2	v(drain)	voltage
	3	v(gate)	voltage
	4	v(source)	voltage
	5	v(body)	voltage
	6	i(i(vd))	current
	7	i(i(vg))	current
	8	i(i(vs))	current
	9	i(i(vb))	current
Values:
 0	3.000000000000000e+01
	7.000000000000001e-01
	7.000000000000001e-01
	0.000000000000000e+00
	0.000000000000000e+00
	0.000000000000000e+00
	-2.604267997066206e-08
	2.226229316226371e-09
	2.381644055314733e-08
	1.010128835249468e-14

 1	1.000000000000000e+02
	7.000000000000001e-01
	7.000000000000001e-01
	0.000000000000000e+00
	0.000000000000000e+00
	0.000000000000000e+00
	-1.405234386805204e-07
	2.226229316226014e-09
	1.382971987847615e-07
	1.057953291136358e-14

Title: *nmos off - w6
Date: Tue Feb 15 20:26:20  2022
Plotname: DC transfer characteristic
Flags: real
No. Variables: 10
No. Points: 2
Variables:
	0	temp-sweep	temp-sweep
	1	abs(v(alim))	voltage
	2	v(drain)	voltage
	3	v(gate)	voltage
	4	v(source)	voltage
	5	v(body)	voltage
	6	i(i(vd))	current
	7	i(i(vg))	current
	8	i(i(vs))	current
	9	i(i(vb))	current
Values:
 0	3.000000000000000e+01
	7.500000000000001e-01
	7.500000000000001e-01
	0.000000000000000e+00
	0.000000000000000e+00
	0.000000000000000e+00
	-2.994913900518539e-08
	2.887095011894683e-09
	2.706203386944310e-08
	1.012384760198108e-14

 1	1.000000000000000e+02
	7.500000000000001e-01
	7.500000000000001e-01
	0.000000000000000e+00
	0.000000000000000e+00
	0.000000000000000e+00
	-1.561004239661671e-07
	2.887095011894222e-09
	1.532133182626856e-07
	1.069158727517883e-14

Title: *nmos off - w6
Date: Tue Feb 15 20:26:20  2022
Plotname: DC transfer characteristic
Flags: real
No. Variables: 10
No. Points: 2
Variables:
	0	temp-sweep	temp-sweep
	1	abs(v(alim))	voltage
	2	v(drain)	voltage
	3	v(gate)	voltage
	4	v(source)	voltage
	5	v(body)	voltage
	6	i(i(vd))	current
	7	i(i(vg))	current
	8	i(i(vs))	current
	9	i(i(vb))	current
Values:
 0	3.000000000000000e+01
	8.000000000000002e-01
	8.000000000000002e-01
	0.000000000000000e+00
	0.000000000000000e+00
	0.000000000000000e+00
	-3.443405577433849e-08
	3.697185901743212e-09
	3.073685972198392e-08
	1.015061134682207e-14

 1	1.000000000000000e+02
	8.000000000000002e-01
	8.000000000000002e-01
	0.000000000000000e+00
	0.000000000000000e+00
	0.000000000000000e+00
	-1.733619905458353e-07
	3.697185901742621e-09
	1.696647938233715e-07
	1.082072117578702e-14

Title: *nmos off - w6
Date: Tue Feb 15 20:26:20  2022
Plotname: DC transfer characteristic
Flags: real
No. Variables: 10
No. Points: 2
Variables:
	0	temp-sweep	temp-sweep
	1	abs(v(alim))	voltage
	2	v(drain)	voltage
	3	v(gate)	voltage
	4	v(source)	voltage
	5	v(body)	voltage
	6	i(i(vd))	current
	7	i(i(vg))	current
	8	i(i(vs))	current
	9	i(i(vb))	current
Values:
 0	3.000000000000000e+01
	8.500000000000002e-01
	8.500000000000002e-01
	0.000000000000000e+00
	0.000000000000000e+00
	0.000000000000000e+00
	-3.957967943165887e-08
	4.683832639016532e-09
	3.489583661035915e-08
	1.018228318276673e-14

 1	1.000000000000000e+02
	8.500000000000002e-01
	8.500000000000002e-01
	0.000000000000000e+00
	0.000000000000000e+00
	0.000000000000000e+00
	-1.924859579820072e-07
	4.683832639015785e-09
	1.878021143737912e-07
	1.096920016541688e-14

Title: *nmos off - w6
Date: Tue Feb 15 20:26:20  2022
Plotname: DC transfer characteristic
Flags: real
No. Variables: 10
No. Points: 2
Variables:
	0	temp-sweep	temp-sweep
	1	abs(v(alim))	voltage
	2	v(drain)	voltage
	3	v(gate)	voltage
	4	v(source)	voltage
	5	v(body)	voltage
	6	i(i(vd))	current
	7	i(i(vg))	current
	8	i(i(vs))	current
	9	i(i(vb))	current
Values:
 0	3.000000000000000e+01
	9.000000000000002e-01
	9.000000000000002e-01
	0.000000000000000e+00
	0.000000000000000e+00
	0.000000000000000e+00
	-4.547932396420847e-08
	5.878771505551477e-09
	3.960054223898234e-08
	1.021967464574164e-14

 1	1.000000000000000e+02
	9.000000000000002e-01
	9.000000000000002e-01
	0.000000000000000e+00
	0.000000000000000e+00
	0.000000000000000e+00
	-2.136680018503800e-07
	5.878771505550539e-09
	2.077892192052717e-07
	1.113955769032642e-14

Title: *nmos off - w6
Date: Tue Feb 15 20:26:20  2022
Plotname: DC transfer characteristic
Flags: real
No. Variables: 10
No. Points: 2
Variables:
	0	temp-sweep	temp-sweep
	1	abs(v(alim))	voltage
	2	v(drain)	voltage
	3	v(gate)	voltage
	4	v(source)	voltage
	5	v(body)	voltage
	6	i(i(vd))	current
	7	i(i(vg))	current
	8	i(i(vs))	current
	9	i(i(vb))	current
Values:
 0	3.000000000000000e+01
	9.500000000000003e-01
	9.500000000000003e-01
	0.000000000000000e+00
	0.000000000000000e+00
	0.000000000000000e+00
	-5.223878396281151e-08
	7.318798214326330e-09
	4.491997507791335e-08
	1.067057181271000e-14

 1	1.000000000000000e+02
	9.500000000000003e-01
	9.500000000000003e-01
	0.000000000000000e+00
	0.000000000000000e+00
	0.000000000000000e+00
	-2.371234441372249e-07
	7.318798214325163e-09
	2.298046335536459e-07
	1.236925389217373e-14

Title: *nmos off - w6
Date: Tue Feb 15 20:26:20  2022
Plotname: DC transfer characteristic
Flags: real
No. Variables: 10
No. Points: 2
Variables:
	0	temp-sweep	temp-sweep
	1	abs(v(alim))	voltage
	2	v(drain)	voltage
	3	v(gate)	voltage
	4	v(source)	voltage
	5	v(body)	voltage
	6	i(i(vd))	current
	7	i(i(vg))	current
	8	i(i(vs))	current
	9	i(i(vb))	current
Values:
 0	3.000000000000000e+01
	1.000000000000000e+00
	1.000000000000000e+00
	0.000000000000000e+00
	0.000000000000000e+00
	0.000000000000000e+00
	-5.997792873696106e-08
	9.046513377457982e-09
	5.093139889642157e-08
	1.646308151192889e-14

 1	1.000000000000000e+02
	1.000000000000000e+00
	1.000000000000000e+00
	0.000000000000000e+00
	0.000000000000000e+00
	0.000000000000000e+00
	-2.630892442868988e-07
	9.046513377456536e-09
	2.540427028345680e-07
	2.807487423152193e-14

Title: *nmos off - w6
Date: Tue Feb 15 20:26:20  2022
Plotname: DC transfer characteristic
Flags: real
No. Variables: 10
No. Points: 2
Variables:
	0	temp-sweep	temp-sweep
	1	abs(v(alim))	voltage
	2	v(drain)	voltage
	3	v(gate)	voltage
	4	v(source)	voltage
	5	v(body)	voltage
	6	i(i(vd))	current
	7	i(i(vg))	current
	8	i(i(vs))	current
	9	i(i(vb))	current
Values:
 0	3.000000000000000e+01
	1.050000000000000e+00
	1.050000000000000e+00
	0.000000000000000e+00
	0.000000000000000e+00
	0.000000000000000e+00
	-6.883319505368209e-08
	1.111117196870064e-08
	5.772128108820435e-08
	7.419967771009553e-13

 1	1.000000000000000e+02
	1.050000000000000e+00
	1.050000000000000e+00
	0.000000000000000e+00
	0.000000000000000e+00
	0.000000000000000e+00
	-2.918269259306657e-07
	1.111117196869887e-08
	2.807149458039485e-07
	8.081580183522319e-13

Title: *nmos off - w6
Date: Tue Feb 15 20:26:20  2022
Plotname: DC transfer characteristic
Flags: real
No. Variables: 10
No. Points: 2
Variables:
	0	temp-sweep	temp-sweep
	1	abs(v(alim))	voltage
	2	v(drain)	voltage
	3	v(gate)	voltage
	4	v(source)	voltage
	5	v(body)	voltage
	6	i(i(vd))	current
	7	i(i(vg))	current
	8	i(i(vs))	current
	9	i(i(vb))	current
Values:
 0	3.000000000000000e+01
	1.100000000000000e+00
	1.100000000000000e+00
	0.000000000000000e+00
	0.000000000000000e+00
	0.000000000000000e+00
	-7.899326860435311e-08
	1.356965071899002e-08
	6.538633704519973e-08
	3.728084016330932e-11

 1	1.000000000000000e+02
	1.100000000000000e+00
	1.100000000000000e+00
	0.000000000000000e+00
	0.000000000000000e+00
	0.000000000000000e+00
	-3.236588024812225e-07
	1.356965071898785e-08
	3.100515484376274e-07
	3.760332460727813e-11

Title: *nmos off - w6
Date: Tue Feb 15 20:26:20  2022
Plotname: DC transfer characteristic
Flags: real
No. Variables: 10
No. Points: 2
Variables:
	0	temp-sweep	temp-sweep
	1	abs(v(alim))	voltage
	2	v(drain)	voltage
	3	v(gate)	voltage
	4	v(source)	voltage
	5	v(body)	voltage
	6	i(i(vd))	current
	7	i(i(vg))	current
	8	i(i(vs))	current
	9	i(i(vb))	current
Values:
 0	3.000000000000000e+01
	1.150000000000000e+00
	1.150000000000000e+00
	0.000000000000000e+00
	0.000000000000000e+00
	0.000000000000000e+00
	-9.116765099390015e-08
	1.648754919743468e-08
	7.403469475698009e-08
	6.454070394853181e-10

 1	1.000000000000000e+02
	1.150000000000000e+00
	1.150000000000000e+00
	0.000000000000000e+00
	0.000000000000000e+00
	0.000000000000000e+00
	-3.594373527722916e-07
	1.648754919743230e-08
	3.423030230313746e-07
	6.467805434848524e-10

Title: *nmos off - w6
Date: Tue Feb 15 20:26:20  2022
Plotname: DC transfer characteristic
Flags: real
No. Variables: 10
No. Points: 2
Variables:
	0	temp-sweep	temp-sweep
	1	abs(v(alim))	voltage
	2	v(drain)	voltage
	3	v(gate)	voltage
	4	v(source)	voltage
	5	v(body)	voltage
	6	i(i(vd))	current
	7	i(i(vg))	current
	8	i(i(vs))	current
	9	i(i(vb))	current
Values:
 0	3.000000000000000e+01
	1.200000000000000e+00
	1.200000000000000e+00
	0.000000000000000e+00
	0.000000000000000e+00
	0.000000000000000e+00
	-1.093132820671598e-07
	1.994044237421757e-08
	8.378719739279873e-08
	5.585642300143557e-09

 1	1.000000000000000e+02
	1.200000000000000e+00
	1.200000000000000e+00
	0.000000000000000e+00
	0.000000000000000e+00
	0.000000000000000e+00
	-4.032733510787845e-07
	1.994044237421637e-08
	3.777420644239513e-07
	5.590844280616707e-09

