Title: *nmos off - w8
Date: Tue Feb 15 20:26:24  2022
Plotname: DC transfer characteristic
Flags: real
No. Variables: 10
No. Points: 2
Variables:
	0	temp-sweep	temp-sweep
	1	abs(v(alim))	voltage
	2	v(drain)	voltage
	3	v(gate)	voltage
	4	v(source)	voltage
	5	v(body)	voltage
	6	i(i(vd))	current
	7	i(i(vg))	current
	8	i(i(vs))	current
	9	i(i(vb))	current
Values:
 0	3.000000000000000e+01
	5.000000000000000e-02
	5.000000000000000e-02
	0.000000000000000e+00
	0.000000000000000e+00
	0.000000000000000e+00
	-5.081177087000257e-09
	3.144959737271936e-11
	5.049718963788781e-09
	8.525838757282679e-15

 1	1.000000000000000e+02
	5.000000000000000e-02
	5.000000000000000e-02
	0.000000000000000e+00
	0.000000000000000e+00
	0.000000000000000e+00
	-3.906453430327188e-08
	3.144959737271038e-11
	3.903307681366346e-08
	7.892235714609481e-15

Title: *nmos off - w8
Date: Tue Feb 15 20:26:24  2022
Plotname: DC transfer characteristic
Flags: real
No. Variables: 10
No. Points: 2
Variables:
	0	temp-sweep	temp-sweep
	1	abs(v(alim))	voltage
	2	v(drain)	voltage
	3	v(gate)	voltage
	4	v(source)	voltage
	5	v(body)	voltage
	6	i(i(vd))	current
	7	i(i(vg))	current
	8	i(i(vs))	current
	9	i(i(vb))	current
Values:
 0	3.000000000000000e+01
	1.000000000000000e-01
	1.000000000000000e-01
	0.000000000000000e+00
	0.000000000000000e+00
	0.000000000000000e+00
	-6.492954082506666e-09
	3.777217055916983e-11
	6.455172126868018e-09
	9.785079477895200e-15

 1	1.000000000000000e+02
	1.000000000000000e-01
	1.000000000000000e-01
	0.000000000000000e+00
	0.000000000000000e+00
	0.000000000000000e+00
	-5.039933236644572e-08
	3.777217055915906e-11
	5.036155062413942e-08
	9.571747140842827e-15

Title: *nmos off - w8
Date: Tue Feb 15 20:26:24  2022
Plotname: DC transfer characteristic
Flags: real
No. Variables: 10
No. Points: 2
Variables:
	0	temp-sweep	temp-sweep
	1	abs(v(alim))	voltage
	2	v(drain)	voltage
	3	v(gate)	voltage
	4	v(source)	voltage
	5	v(body)	voltage
	6	i(i(vd))	current
	7	i(i(vg))	current
	8	i(i(vs))	current
	9	i(i(vb))	current
Values:
 0	3.000000000000000e+01
	1.500000000000000e-01
	1.500000000000000e-01
	0.000000000000000e+00
	0.000000000000000e+00
	0.000000000000000e+00
	-7.552516026002321e-09
	2.528139978232965e-11
	7.527224652958426e-09
	9.973261567150919e-15

 1	1.000000000000000e+02
	1.500000000000000e-01
	1.500000000000000e-01
	0.000000000000000e+00
	0.000000000000000e+00
	0.000000000000000e+00
	-5.757278921679753e-08
	2.528139978232245e-11
	5.754749787356906e-08
	9.943446162273312e-15

Title: *nmos off - w8
Date: Tue Feb 15 20:26:24  2022
Plotname: DC transfer characteristic
Flags: real
No. Variables: 10
No. Points: 2
Variables:
	0	temp-sweep	temp-sweep
	1	abs(v(alim))	voltage
	2	v(drain)	voltage
	3	v(gate)	voltage
	4	v(source)	voltage
	5	v(body)	voltage
	6	i(i(vd))	current
	7	i(i(vg))	current
	8	i(i(vs))	current
	9	i(i(vb))	current
Values:
 0	3.000000000000000e+01
	2.000000000000000e-01
	2.000000000000000e-01
	0.000000000000000e+00
	0.000000000000000e+00
	0.000000000000000e+00
	-8.666213441888098e-09
	6.959324453958599e-12
	8.659244113276428e-09
	1.000415771503409e-14

 1	1.000000000000000e+02
	2.000000000000000e-01
	2.000000000000000e-01
	0.000000000000000e+00
	0.000000000000000e+00
	0.000000000000000e+00
	-6.465005032514147e-08
	6.959324453956615e-12
	6.464308095797596e-08
	1.004271153630099e-14

Title: *nmos off - w8
Date: Tue Feb 15 20:26:24  2022
Plotname: DC transfer characteristic
Flags: real
No. Variables: 10
No. Points: 2
Variables:
	0	temp-sweep	temp-sweep
	1	abs(v(alim))	voltage
	2	v(drain)	voltage
	3	v(gate)	voltage
	4	v(source)	voltage
	5	v(body)	voltage
	6	i(i(vd))	current
	7	i(i(vg))	current
	8	i(i(vs))	current
	9	i(i(vb))	current
Values:
 0	3.000000000000000e+01
	2.500000000000000e-01
	2.500000000000000e-01
	0.000000000000000e+00
	0.000000000000000e+00
	0.000000000000000e+00
	-9.966436079849872e-09
	4.866791647545698e-11
	9.917758150717013e-09
	1.001265740261527e-14

 1	1.000000000000000e+02
	2.500000000000000e-01
	2.500000000000000e-01
	0.000000000000000e+00
	0.000000000000000e+00
	0.000000000000000e+00
	-7.228640878568264e-08
	4.866791647544310e-11
	7.223773078042250e-08
	1.008878471211109e-14

Title: *nmos off - w8
Date: Tue Feb 15 20:26:24  2022
Plotname: DC transfer characteristic
Flags: real
No. Variables: 10
No. Points: 2
Variables:
	0	temp-sweep	temp-sweep
	1	abs(v(alim))	voltage
	2	v(drain)	voltage
	3	v(gate)	voltage
	4	v(source)	voltage
	5	v(body)	voltage
	6	i(i(vd))	current
	7	i(i(vg))	current
	8	i(i(vs))	current
	9	i(i(vb))	current
Values:
 0	3.000000000000000e+01
	3.000000000000000e-01
	3.000000000000000e-01
	0.000000000000000e+00
	0.000000000000000e+00
	0.000000000000000e+00
	-1.145785731785083e-08
	1.228243541376497e-10
	1.133502294490846e-08
	1.001880472075708e-14

 1	1.000000000000000e+02
	3.000000000000000e-01
	3.000000000000000e-01
	0.000000000000000e+00
	0.000000000000000e+00
	0.000000000000000e+00
	-8.065301498113473e-08
	1.228243541376146e-10
	8.053018049839892e-08
	1.012859818021478e-14

Title: *nmos off - w8
Date: Tue Feb 15 20:26:24  2022
Plotname: DC transfer characteristic
Flags: real
No. Variables: 10
No. Points: 2
Variables:
	0	temp-sweep	temp-sweep
	1	abs(v(alim))	voltage
	2	v(drain)	voltage
	3	v(gate)	voltage
	4	v(source)	voltage
	5	v(body)	voltage
	6	i(i(vd))	current
	7	i(i(vg))	current
	8	i(i(vs))	current
	9	i(i(vb))	current
Values:
 0	3.000000000000000e+01
	3.500000000000000e-01
	3.500000000000000e-01
	0.000000000000000e+00
	0.000000000000000e+00
	0.000000000000000e+00
	-1.317146394455234e-08
	2.333726485886960e-10
	1.293808127022813e-08
	1.002573551893959e-14

 1	1.000000000000000e+02
	3.500000000000000e-01
	3.500000000000000e-01
	0.000000000000000e+00
	0.000000000000000e+00
	0.000000000000000e+00
	-8.987957322734714e-08
	2.333726485886291e-10
	8.964619040596319e-08
	1.017279532567638e-14

Title: *nmos off - w8
Date: Tue Feb 15 20:26:24  2022
Plotname: DC transfer characteristic
Flags: real
No. Variables: 10
No. Points: 2
Variables:
	0	temp-sweep	temp-sweep
	1	abs(v(alim))	voltage
	2	v(drain)	voltage
	3	v(gate)	voltage
	4	v(source)	voltage
	5	v(body)	voltage
	6	i(i(vd))	current
	7	i(i(vg))	current
	8	i(i(vs))	current
	9	i(i(vb))	current
Values:
 0	3.000000000000000e+01
	4.000000000000000e-01
	4.000000000000000e-01
	0.000000000000000e+00
	0.000000000000000e+00
	0.000000000000000e+00
	-1.514337164273269e-08
	3.889232396054389e-10
	1.475443836900278e-08
	1.003412447386967e-14

 1	1.000000000000000e+02
	4.000000000000000e-01
	4.000000000000000e-01
	0.000000000000000e+00
	0.000000000000000e+00
	0.000000000000000e+00
	-1.000841742420702e-07
	3.889232396053278e-10
	9.969524077799962e-08
	1.022446526130430e-14

Title: *nmos off - w8
Date: Tue Feb 15 20:26:24  2022
Plotname: DC transfer characteristic
Flags: real
No. Variables: 10
No. Points: 2
Variables:
	0	temp-sweep	temp-sweep
	1	abs(v(alim))	voltage
	2	v(drain)	voltage
	3	v(gate)	voltage
	4	v(source)	voltage
	5	v(body)	voltage
	6	i(i(vd))	current
	7	i(i(vg))	current
	8	i(i(vs))	current
	9	i(i(vb))	current
Values:
 0	3.000000000000000e+01
	4.500000000000000e-01
	4.500000000000000e-01
	0.000000000000000e+00
	0.000000000000000e+00
	0.000000000000000e+00
	-1.741372465060688e-08
	5.998130105969664e-10
	1.681390159568978e-08
	1.004432013302715e-14

 1	1.000000000000000e+02
	4.500000000000000e-01
	4.500000000000000e-01
	0.000000000000000e+00
	0.000000000000000e+00
	0.000000000000000e+00
	-1.113859610973367e-07
	5.998130105967957e-10
	1.107861378015206e-07
	1.028521929876656e-14

Title: *nmos off - w8
Date: Tue Feb 15 20:26:24  2022
Plotname: DC transfer characteristic
Flags: real
No. Variables: 10
No. Points: 2
Variables:
	0	temp-sweep	temp-sweep
	1	abs(v(alim))	voltage
	2	v(drain)	voltage
	3	v(gate)	voltage
	4	v(source)	voltage
	5	v(body)	voltage
	6	i(i(vd))	current
	7	i(i(vg))	current
	8	i(i(vs))	current
	9	i(i(vb))	current
Values:
 0	3.000000000000000e+01
	4.999999999999999e-01
	4.999999999999999e-01
	0.000000000000000e+00
	0.000000000000000e+00
	0.000000000000000e+00
	-2.002779572342866e-08
	8.782806248391210e-10
	1.914950504192435e-08
	1.005666519020382e-14

 1	1.000000000000000e+02
	4.999999999999999e-01
	4.999999999999999e-01
	0.000000000000000e+00
	0.000000000000000e+00
	0.000000000000000e+00
	-1.239112007579701e-07
	8.782806248388702e-10
	1.230329097766460e-07
	1.035648529456869e-14

Title: *nmos off - w8
Date: Tue Feb 15 20:26:24  2022
Plotname: DC transfer characteristic
Flags: real
No. Variables: 10
No. Points: 2
Variables:
	0	temp-sweep	temp-sweep
	1	abs(v(alim))	voltage
	2	v(drain)	voltage
	3	v(gate)	voltage
	4	v(source)	voltage
	5	v(body)	voltage
	6	i(i(vd))	current
	7	i(i(vg))	current
	8	i(i(vs))	current
	9	i(i(vb))	current
Values:
 0	3.000000000000000e+01
	5.499999999999999e-01
	5.499999999999999e-01
	0.000000000000000e+00
	0.000000000000000e+00
	0.000000000000000e+00
	-2.303693894087902e-08
	1.238753550674369e-09
	2.179817531865459e-08
	1.007155006075676e-14

 1	1.000000000000000e+02
	5.499999999999999e-01
	5.499999999999999e-01
	0.000000000000000e+00
	0.000000000000000e+00
	0.000000000000000e+00
	-1.377965040024609e-07
	1.238753550674015e-09
	1.365577400119924e-07
	1.043979449489670e-14

Title: *nmos off - w8
Date: Tue Feb 15 20:26:24  2022
Plotname: DC transfer characteristic
Flags: real
No. Variables: 10
No. Points: 2
Variables:
	0	temp-sweep	temp-sweep
	1	abs(v(alim))	voltage
	2	v(drain)	voltage
	3	v(gate)	voltage
	4	v(source)	voltage
	5	v(body)	voltage
	6	i(i(vd))	current
	7	i(i(vg))	current
	8	i(i(vs))	current
	9	i(i(vb))	current
Values:
 0	3.000000000000000e+01
	6.000000000000000e-01
	6.000000000000000e-01
	0.000000000000000e+00
	0.000000000000000e+00
	0.000000000000000e+00
	-2.649953122559131e-08
	1.698189139695826e-09
	2.480133199646739e-08
	1.008942809695916e-14

 1	1.000000000000000e+02
	6.000000000000000e-01
	6.000000000000000e-01
	0.000000000000000e+00
	0.000000000000000e+00
	0.000000000000000e+00
	-1.531910387320132e-07
	1.698189139695340e-09
	1.514928390554603e-07
	1.053685761635199e-14

Title: *nmos off - w8
Date: Tue Feb 15 20:26:24  2022
Plotname: DC transfer characteristic
Flags: real
No. Variables: 10
No. Points: 2
Variables:
	0	temp-sweep	temp-sweep
	1	abs(v(alim))	voltage
	2	v(drain)	voltage
	3	v(gate)	voltage
	4	v(source)	voltage
	5	v(body)	voltage
	6	i(i(vd))	current
	7	i(i(vg))	current
	8	i(i(vs))	current
	9	i(i(vb))	current
Values:
 0	3.000000000000000e+01
	6.500000000000000e-01
	6.500000000000000e-01
	0.000000000000000e+00
	0.000000000000000e+00
	0.000000000000000e+00
	-3.048197164592739e-08
	2.276468293744593e-09
	2.820549324135660e-08
	1.011082620240017e-14

 1	1.000000000000000e+02
	6.500000000000000e-01
	6.500000000000000e-01
	0.000000000000000e+00
	0.000000000000000e+00
	0.000000000000000e+00
	-1.702583846313878e-07
	2.276468293743943e-09
	1.679819056880455e-07
	1.064959828317812e-14

Title: *nmos off - w8
Date: Tue Feb 15 20:26:24  2022
Plotname: DC transfer characteristic
Flags: real
No. Variables: 10
No. Points: 2
Variables:
	0	temp-sweep	temp-sweep
	1	abs(v(alim))	voltage
	2	v(drain)	voltage
	3	v(gate)	voltage
	4	v(source)	voltage
	5	v(body)	voltage
	6	i(i(vd))	current
	7	i(i(vg))	current
	8	i(i(vs))	current
	9	i(i(vb))	current
Values:
 0	3.000000000000000e+01
	7.000000000000001e-01
	7.000000000000001e-01
	0.000000000000000e+00
	0.000000000000000e+00
	0.000000000000000e+00
	-3.505977528864459e-08
	2.996847113317711e-09
	3.206291803897094e-08
	1.013635593650186e-14

 1	1.000000000000000e+02
	7.000000000000001e-01
	7.000000000000001e-01
	0.000000000000000e+00
	0.000000000000000e+00
	0.000000000000000e+00
	-1.891782908924537e-07
	2.996847113316853e-09
	1.861814329989576e-07
	1.078017932697553e-14

Title: *nmos off - w8
Date: Tue Feb 15 20:26:24  2022
Plotname: DC transfer characteristic
Flags: real
No. Variables: 10
No. Points: 2
Variables:
	0	temp-sweep	temp-sweep
	1	abs(v(alim))	voltage
	2	v(drain)	voltage
	3	v(gate)	voltage
	4	v(source)	voltage
	5	v(body)	voltage
	6	i(i(vd))	current
	7	i(i(vg))	current
	8	i(i(vs))	current
	9	i(i(vb))	current
Values:
 0	3.000000000000000e+01
	7.500000000000001e-01
	7.500000000000001e-01
	0.000000000000000e+00
	0.000000000000000e+00
	0.000000000000000e+00
	-4.031878653993626e-08
	3.886473986347796e-09
	3.643230238686247e-08
	1.016672599234333e-14

 1	1.000000000000000e+02
	7.500000000000001e-01
	7.500000000000001e-01
	0.000000000000000e+00
	0.000000000000000e+00
	0.000000000000000e+00
	-2.101484591401200e-07
	3.886473986346686e-09
	2.062619742227437e-07
	1.093102951688306e-14

Title: *nmos off - w8
Date: Tue Feb 15 20:26:24  2022
Plotname: DC transfer characteristic
Flags: real
No. Variables: 10
No. Points: 2
Variables:
	0	temp-sweep	temp-sweep
	1	abs(v(alim))	voltage
	2	v(drain)	voltage
	3	v(gate)	voltage
	4	v(source)	voltage
	5	v(body)	voltage
	6	i(i(vd))	current
	7	i(i(vg))	current
	8	i(i(vs))	current
	9	i(i(vb))	current
Values:
 0	3.000000000000000e+01
	8.000000000000002e-01
	8.000000000000002e-01
	0.000000000000000e+00
	0.000000000000000e+00
	0.000000000000000e+00
	-4.635653275916770e-08
	4.976980915855241e-09
	4.137954164055612e-08
	1.020275632720943e-14

 1	1.000000000000000e+02
	8.000000000000002e-01
	8.000000000000002e-01
	0.000000000000000e+00
	0.000000000000000e+00
	0.000000000000000e+00
	-2.333864191503235e-07
	4.976980915853816e-09
	2.284094271295973e-07
	1.110487242306545e-14

Title: *nmos off - w8
Date: Tue Feb 15 20:26:24  2022
Plotname: DC transfer characteristic
Flags: real
No. Variables: 10
No. Points: 2
Variables:
	0	temp-sweep	temp-sweep
	1	abs(v(alim))	voltage
	2	v(drain)	voltage
	3	v(gate)	voltage
	4	v(source)	voltage
	5	v(body)	voltage
	6	i(i(vd))	current
	7	i(i(vg))	current
	8	i(i(vs))	current
	9	i(i(vb))	current
Values:
 0	3.000000000000000e+01
	8.500000000000002e-01
	8.500000000000002e-01
	0.000000000000000e+00
	0.000000000000000e+00
	0.000000000000000e+00
	-5.328373898362261e-08
	6.305159160156397e-09
	4.697856957807204e-08
	1.024539415199406e-14

 1	1.000000000000000e+02
	8.500000000000002e-01
	8.500000000000002e-01
	0.000000000000000e+00
	0.000000000000000e+00
	0.000000000000000e+00
	-2.591315434774593e-07
	6.305159160154589e-09
	2.528263730125468e-07
	1.130475789706341e-14

Title: *nmos off - w8
Date: Tue Feb 15 20:26:24  2022
Plotname: DC transfer characteristic
Flags: real
No. Variables: 10
No. Points: 2
Variables:
	0	temp-sweep	temp-sweep
	1	abs(v(alim))	voltage
	2	v(drain)	voltage
	3	v(gate)	voltage
	4	v(source)	voltage
	5	v(body)	voltage
	6	i(i(vd))	current
	7	i(i(vg))	current
	8	i(i(vs))	current
	9	i(i(vb))	current
Values:
 0	3.000000000000000e+01
	9.000000000000002e-01
	9.000000000000002e-01
	0.000000000000000e+00
	0.000000000000000e+00
	0.000000000000000e+00
	-6.122602570650300e-08
	7.913730629130104e-09
	5.331228478164087e-08
	1.029573199033956e-14

 1	1.000000000000000e+02
	9.000000000000002e-01
	9.000000000000002e-01
	0.000000000000000e+00
	0.000000000000000e+00
	0.000000000000000e+00
	-2.876472398423919e-07
	7.913730629127839e-09
	2.797334976791679e-07
	1.153409640660585e-14

Title: *nmos off - w8
Date: Tue Feb 15 20:26:24  2022
Plotname: DC transfer characteristic
Flags: real
No. Variables: 10
No. Points: 2
Variables:
	0	temp-sweep	temp-sweep
	1	abs(v(alim))	voltage
	2	v(drain)	voltage
	3	v(gate)	voltage
	4	v(source)	voltage
	5	v(body)	voltage
	6	i(i(vd))	current
	7	i(i(vg))	current
	8	i(i(vs))	current
	9	i(i(vb))	current
Values:
 0	3.000000000000000e+01
	9.500000000000003e-01
	9.500000000000003e-01
	0.000000000000000e+00
	0.000000000000000e+00
	0.000000000000000e+00
	-7.032581473390258e-08
	9.852228002161735e-09
	6.047357582921386e-08
	1.090252698632098e-14

 1	1.000000000000000e+02
	9.500000000000003e-01
	9.500000000000003e-01
	0.000000000000000e+00
	0.000000000000000e+00
	0.000000000000000e+00
	-3.192233607447939e-07
	9.852228002158909e-09
	3.093711195541605e-07
	1.318847465756277e-14

Title: *nmos off - w8
Date: Tue Feb 15 20:26:24  2022
Plotname: DC transfer characteristic
Flags: real
No. Variables: 10
No. Points: 2
Variables:
	0	temp-sweep	temp-sweep
	1	abs(v(alim))	voltage
	2	v(drain)	voltage
	3	v(gate)	voltage
	4	v(source)	voltage
	5	v(body)	voltage
	6	i(i(vd))	current
	7	i(i(vg))	current
	8	i(i(vs))	current
	9	i(i(vb))	current
Values:
 0	3.000000000000000e+01
	1.000000000000000e+00
	1.000000000000000e+00
	0.000000000000000e+00
	0.000000000000000e+00
	0.000000000000000e+00
	-8.074447508627040e-08
	1.217799824157479e-08
	6.856645817034087e-08
	1.867435472235045e-14

 1	1.000000000000000e+02
	1.000000000000000e+00
	1.000000000000000e+00
	0.000000000000000e+00
	0.000000000000000e+00
	0.000000000000000e+00
	-3.541788830485961e-07
	1.217799824157129e-08
	3.420008505059780e-07
	3.430104668024155e-14

Title: *nmos off - w8
Date: Tue Feb 15 20:26:24  2022
Plotname: DC transfer characteristic
Flags: real
No. Variables: 10
No. Points: 2
Variables:
	0	temp-sweep	temp-sweep
	1	abs(v(alim))	voltage
	2	v(drain)	voltage
	3	v(gate)	voltage
	4	v(source)	voltage
	5	v(body)	voltage
	6	i(i(vd))	current
	7	i(i(vg))	current
	8	i(i(vs))	current
	9	i(i(vb))	current
Values:
 0	3.000000000000000e+01
	1.050000000000000e+00
	1.050000000000000e+00
	0.000000000000000e+00
	0.000000000000000e+00
	0.000000000000000e+00
	-9.266566966210130e-08
	1.495734609824796e-08
	7.770733724685448e-08
	9.863169988917033e-13

 1	1.000000000000000e+02
	1.050000000000000e+00
	1.050000000000000e+00
	0.000000000000000e+00
	0.000000000000000e+00
	0.000000000000000e+00
	-3.928658380933596e-07
	1.495734609824367e-08
	3.779074166385694e-07
	1.075356546693314e-12

Title: *nmos off - w8
Date: Tue Feb 15 20:26:24  2022
Plotname: DC transfer characteristic
Flags: real
No. Variables: 10
No. Points: 2
Variables:
	0	temp-sweep	temp-sweep
	1	abs(v(alim))	voltage
	2	v(drain)	voltage
	3	v(gate)	voltage
	4	v(source)	voltage
	5	v(body)	voltage
	6	i(i(vd))	current
	7	i(i(vg))	current
	8	i(i(vs))	current
	9	i(i(vb))	current
Values:
 0	3.000000000000000e+01
	1.100000000000000e+00
	1.100000000000000e+00
	0.000000000000000e+00
	0.000000000000000e+00
	0.000000000000000e+00
	-1.063429567124741e-07
	1.826683637270655e-08
	8.802641436586256e-08
	4.970597390495969e-11

 1	1.000000000000000e+02
	1.100000000000000e+00
	1.100000000000000e+00
	0.000000000000000e+00
	0.000000000000000e+00
	0.000000000000000e+00
	-4.357176447623464e-07
	1.826683637270133e-08
	4.174006684076642e-07
	5.013998198113640e-11

Title: *nmos off - w8
Date: Tue Feb 15 20:26:24  2022
Plotname: DC transfer characteristic
Flags: real
No. Variables: 10
No. Points: 2
Variables:
	0	temp-sweep	temp-sweep
	1	abs(v(alim))	voltage
	2	v(drain)	voltage
	3	v(gate)	voltage
	4	v(source)	voltage
	5	v(body)	voltage
	6	i(i(vd))	current
	7	i(i(vg))	current
	8	i(i(vs))	current
	9	i(i(vb))	current
Values:
 0	3.000000000000000e+01
	1.150000000000000e+00
	1.150000000000000e+00
	0.000000000000000e+00
	0.000000000000000e+00
	0.000000000000000e+00
	-1.227245760334188e-07
	2.219477613666248e-08
	9.966925458520735e-08
	8.605453115489907e-10

 1	1.000000000000000e+02
	1.150000000000000e+00
	1.150000000000000e+00
	0.000000000000000e+00
	0.000000000000000e+00
	0.000000000000000e+00
	-4.838749836069015e-07
	2.219477613665649e-08
	4.608178136256869e-07
	8.623938445581648e-10

Title: *nmos off - w8
Date: Tue Feb 15 20:26:24  2022
Plotname: DC transfer characteristic
Flags: real
No. Variables: 10
No. Points: 2
Variables:
	0	temp-sweep	temp-sweep
	1	abs(v(alim))	voltage
	2	v(drain)	voltage
	3	v(gate)	voltage
	4	v(source)	voltage
	5	v(body)	voltage
	6	i(i(vd))	current
	7	i(i(vg))	current
	8	i(i(vs))	current
	9	i(i(vb))	current
Values:
 0	3.000000000000000e+01
	1.200000000000000e+00
	1.200000000000000e+00
	0.000000000000000e+00
	0.000000000000000e+00
	0.000000000000000e+00
	-1.470889813807037e-07
	2.684290087154232e-08
	1.127985415453851e-07
	7.447538963776352e-09

 1	1.000000000000000e+02
	1.200000000000000e+00
	1.200000000000000e+00
	0.000000000000000e+00
	0.000000000000000e+00
	0.000000000000000e+00
	-5.428233606194089e-07
	2.684290087153818e-08
	5.085259195761951e-07
	7.454540171675735e-09

