  temp-sweep      abs(v(alim))    v(drain)        v(gate)         temp-sweep      v(source)       v(body)         i(vd)           temp-sweep      i(vg)           i(vs)           i(vb)
 3.00000000e+01  5.00000000e-02  3.00000000e+01  5.00000000e-02  3.00000000e+01  0.00000000e+00  3.00000000e+01  0.00000000e+00  3.00000000e+01  0.00000000e+00  3.00000000e+01 -5.08117709e-09  3.00000000e+01  3.14495974e-11  3.00000000e+01  5.04971896e-09  3.00000000e+01  8.52583876e-15 
 1.00000000e+02  5.00000000e-02  1.00000000e+02  5.00000000e-02  1.00000000e+02  0.00000000e+00  1.00000000e+02  0.00000000e+00  1.00000000e+02  0.00000000e+00  1.00000000e+02 -3.90645343e-08  1.00000000e+02  3.14495974e-11  1.00000000e+02  3.90330768e-08  1.00000000e+02  7.89223571e-15 
 3.00000000e+01  1.00000000e-01  3.00000000e+01  1.00000000e-01  3.00000000e+01  0.00000000e+00  3.00000000e+01  0.00000000e+00  3.00000000e+01  0.00000000e+00  3.00000000e+01 -6.49295408e-09  3.00000000e+01  3.77721706e-11  3.00000000e+01  6.45517213e-09  3.00000000e+01  9.78507948e-15 
 1.00000000e+02  1.00000000e-01  1.00000000e+02  1.00000000e-01  1.00000000e+02  0.00000000e+00  1.00000000e+02  0.00000000e+00  1.00000000e+02  0.00000000e+00  1.00000000e+02 -5.03993324e-08  1.00000000e+02  3.77721706e-11  1.00000000e+02  5.03615506e-08  1.00000000e+02  9.57174714e-15 
 3.00000000e+01  1.50000000e-01  3.00000000e+01  1.50000000e-01  3.00000000e+01  0.00000000e+00  3.00000000e+01  0.00000000e+00  3.00000000e+01  0.00000000e+00  3.00000000e+01 -7.55251603e-09  3.00000000e+01  2.52813998e-11  3.00000000e+01  7.52722465e-09  3.00000000e+01  9.97326157e-15 
 1.00000000e+02  1.50000000e-01  1.00000000e+02  1.50000000e-01  1.00000000e+02  0.00000000e+00  1.00000000e+02  0.00000000e+00  1.00000000e+02  0.00000000e+00  1.00000000e+02 -5.75727892e-08  1.00000000e+02  2.52813998e-11  1.00000000e+02  5.75474979e-08  1.00000000e+02  9.94344616e-15 
 3.00000000e+01  2.00000000e-01  3.00000000e+01  2.00000000e-01  3.00000000e+01  0.00000000e+00  3.00000000e+01  0.00000000e+00  3.00000000e+01  0.00000000e+00  3.00000000e+01 -8.66621344e-09  3.00000000e+01  6.95932445e-12  3.00000000e+01  8.65924411e-09  3.00000000e+01  1.00041577e-14 
 1.00000000e+02  2.00000000e-01  1.00000000e+02  2.00000000e-01  1.00000000e+02  0.00000000e+00  1.00000000e+02  0.00000000e+00  1.00000000e+02  0.00000000e+00  1.00000000e+02 -6.46500503e-08  1.00000000e+02  6.95932445e-12  1.00000000e+02  6.46430810e-08  1.00000000e+02  1.00427115e-14 
 3.00000000e+01  2.50000000e-01  3.00000000e+01  2.50000000e-01  3.00000000e+01  0.00000000e+00  3.00000000e+01  0.00000000e+00  3.00000000e+01  0.00000000e+00  3.00000000e+01 -9.96643608e-09  3.00000000e+01  4.86679165e-11  3.00000000e+01  9.91775815e-09  3.00000000e+01  1.00126574e-14 
 1.00000000e+02  2.50000000e-01  1.00000000e+02  2.50000000e-01  1.00000000e+02  0.00000000e+00  1.00000000e+02  0.00000000e+00  1.00000000e+02  0.00000000e+00  1.00000000e+02 -7.22864088e-08  1.00000000e+02  4.86679165e-11  1.00000000e+02  7.22377308e-08  1.00000000e+02  1.00887847e-14 
 3.00000000e+01  3.00000000e-01  3.00000000e+01  3.00000000e-01  3.00000000e+01  0.00000000e+00  3.00000000e+01  0.00000000e+00  3.00000000e+01  0.00000000e+00  3.00000000e+01 -1.14578573e-08  3.00000000e+01  1.22824354e-10  3.00000000e+01  1.13350229e-08  3.00000000e+01  1.00188047e-14 
 1.00000000e+02  3.00000000e-01  1.00000000e+02  3.00000000e-01  1.00000000e+02  0.00000000e+00  1.00000000e+02  0.00000000e+00  1.00000000e+02  0.00000000e+00  1.00000000e+02 -8.06530150e-08  1.00000000e+02  1.22824354e-10  1.00000000e+02  8.05301805e-08  1.00000000e+02  1.01285982e-14 
 3.00000000e+01  3.50000000e-01  3.00000000e+01  3.50000000e-01  3.00000000e+01  0.00000000e+00  3.00000000e+01  0.00000000e+00  3.00000000e+01  0.00000000e+00  3.00000000e+01 -1.31714639e-08  3.00000000e+01  2.33372649e-10  3.00000000e+01  1.29380813e-08  3.00000000e+01  1.00257355e-14 
 1.00000000e+02  3.50000000e-01  1.00000000e+02  3.50000000e-01  1.00000000e+02  0.00000000e+00  1.00000000e+02  0.00000000e+00  1.00000000e+02  0.00000000e+00  1.00000000e+02 -8.98795732e-08  1.00000000e+02  2.33372649e-10  1.00000000e+02  8.96461904e-08  1.00000000e+02  1.01727953e-14 
 3.00000000e+01  4.00000000e-01  3.00000000e+01  4.00000000e-01  3.00000000e+01  0.00000000e+00  3.00000000e+01  0.00000000e+00  3.00000000e+01  0.00000000e+00  3.00000000e+01 -1.51433716e-08  3.00000000e+01  3.88923240e-10  3.00000000e+01  1.47544384e-08  3.00000000e+01  1.00341245e-14 
 1.00000000e+02  4.00000000e-01  1.00000000e+02  4.00000000e-01  1.00000000e+02  0.00000000e+00  1.00000000e+02  0.00000000e+00  1.00000000e+02  0.00000000e+00  1.00000000e+02 -1.00084174e-07  1.00000000e+02  3.88923240e-10  1.00000000e+02  9.96952408e-08  1.00000000e+02  1.02244653e-14 
 3.00000000e+01  4.50000000e-01  3.00000000e+01  4.50000000e-01  3.00000000e+01  0.00000000e+00  3.00000000e+01  0.00000000e+00  3.00000000e+01  0.00000000e+00  3.00000000e+01 -1.74137247e-08  3.00000000e+01  5.99813011e-10  3.00000000e+01  1.68139016e-08  3.00000000e+01  1.00443201e-14 
 1.00000000e+02  4.50000000e-01  1.00000000e+02  4.50000000e-01  1.00000000e+02  0.00000000e+00  1.00000000e+02  0.00000000e+00  1.00000000e+02  0.00000000e+00  1.00000000e+02 -1.11385961e-07  1.00000000e+02  5.99813011e-10  1.00000000e+02  1.10786138e-07  1.00000000e+02  1.02852193e-14 
 3.00000000e+01  5.00000000e-01  3.00000000e+01  5.00000000e-01  3.00000000e+01  0.00000000e+00  3.00000000e+01  0.00000000e+00  3.00000000e+01  0.00000000e+00  3.00000000e+01 -2.00277957e-08  3.00000000e+01  8.78280625e-10  3.00000000e+01  1.91495050e-08  3.00000000e+01  1.00566652e-14 
 1.00000000e+02  5.00000000e-01  1.00000000e+02  5.00000000e-01  1.00000000e+02  0.00000000e+00  1.00000000e+02  0.00000000e+00  1.00000000e+02  0.00000000e+00  1.00000000e+02 -1.23911201e-07  1.00000000e+02  8.78280625e-10  1.00000000e+02  1.23032910e-07  1.00000000e+02  1.03564853e-14 
 3.00000000e+01  5.50000000e-01  3.00000000e+01  5.50000000e-01  3.00000000e+01  0.00000000e+00  3.00000000e+01  0.00000000e+00  3.00000000e+01  0.00000000e+00  3.00000000e+01 -2.30369389e-08  3.00000000e+01  1.23875355e-09  3.00000000e+01  2.17981753e-08  3.00000000e+01  1.00715501e-14 
 1.00000000e+02  5.50000000e-01  1.00000000e+02  5.50000000e-01  1.00000000e+02  0.00000000e+00  1.00000000e+02  0.00000000e+00  1.00000000e+02  0.00000000e+00  1.00000000e+02 -1.37796504e-07  1.00000000e+02  1.23875355e-09  1.00000000e+02  1.36557740e-07  1.00000000e+02  1.04397945e-14 
 3.00000000e+01  6.00000000e-01  3.00000000e+01  6.00000000e-01  3.00000000e+01  0.00000000e+00  3.00000000e+01  0.00000000e+00  3.00000000e+01  0.00000000e+00  3.00000000e+01 -2.64995312e-08  3.00000000e+01  1.69818914e-09  3.00000000e+01  2.48013320e-08  3.00000000e+01  1.00894281e-14 
 1.00000000e+02  6.00000000e-01  1.00000000e+02  6.00000000e-01  1.00000000e+02  0.00000000e+00  1.00000000e+02  0.00000000e+00  1.00000000e+02  0.00000000e+00  1.00000000e+02 -1.53191039e-07  1.00000000e+02  1.69818914e-09  1.00000000e+02  1.51492839e-07  1.00000000e+02  1.05368576e-14 
 3.00000000e+01  6.50000000e-01  3.00000000e+01  6.50000000e-01  3.00000000e+01  0.00000000e+00  3.00000000e+01  0.00000000e+00  3.00000000e+01  0.00000000e+00  3.00000000e+01 -3.04819716e-08  3.00000000e+01  2.27646829e-09  3.00000000e+01  2.82054932e-08  3.00000000e+01  1.01108262e-14 
 1.00000000e+02  6.50000000e-01  1.00000000e+02  6.50000000e-01  1.00000000e+02  0.00000000e+00  1.00000000e+02  0.00000000e+00  1.00000000e+02  0.00000000e+00  1.00000000e+02 -1.70258385e-07  1.00000000e+02  2.27646829e-09  1.00000000e+02  1.67981906e-07  1.00000000e+02  1.06495983e-14 
 3.00000000e+01  7.00000000e-01  3.00000000e+01  7.00000000e-01  3.00000000e+01  0.00000000e+00  3.00000000e+01  0.00000000e+00  3.00000000e+01  0.00000000e+00  3.00000000e+01 -3.50597753e-08  3.00000000e+01  2.99684711e-09  3.00000000e+01  3.20629180e-08  3.00000000e+01  1.01363559e-14 
 1.00000000e+02  7.00000000e-01  1.00000000e+02  7.00000000e-01  1.00000000e+02  0.00000000e+00  1.00000000e+02  0.00000000e+00  1.00000000e+02  0.00000000e+00  1.00000000e+02 -1.89178291e-07  1.00000000e+02  2.99684711e-09  1.00000000e+02  1.86181433e-07  1.00000000e+02  1.07801793e-14 
 3.00000000e+01  7.50000000e-01  3.00000000e+01  7.50000000e-01  3.00000000e+01  0.00000000e+00  3.00000000e+01  0.00000000e+00  3.00000000e+01  0.00000000e+00  3.00000000e+01 -4.03187865e-08  3.00000000e+01  3.88647399e-09  3.00000000e+01  3.64323024e-08  3.00000000e+01  1.01667260e-14 
 1.00000000e+02  7.50000000e-01  1.00000000e+02  7.50000000e-01  1.00000000e+02  0.00000000e+00  1.00000000e+02  0.00000000e+00  1.00000000e+02  0.00000000e+00  1.00000000e+02 -2.10148459e-07  1.00000000e+02  3.88647399e-09  1.00000000e+02  2.06261974e-07  1.00000000e+02  1.09310295e-14 
 3.00000000e+01  8.00000000e-01  3.00000000e+01  8.00000000e-01  3.00000000e+01  0.00000000e+00  3.00000000e+01  0.00000000e+00  3.00000000e+01  0.00000000e+00  3.00000000e+01 -4.63565328e-08  3.00000000e+01  4.97698092e-09  3.00000000e+01  4.13795416e-08  3.00000000e+01  1.02027563e-14 
 1.00000000e+02  8.00000000e-01  1.00000000e+02  8.00000000e-01  1.00000000e+02  0.00000000e+00  1.00000000e+02  0.00000000e+00  1.00000000e+02  0.00000000e+00  1.00000000e+02 -2.33386419e-07  1.00000000e+02  4.97698092e-09  1.00000000e+02  2.28409427e-07  1.00000000e+02  1.11048724e-14 
 3.00000000e+01  8.50000000e-01  3.00000000e+01  8.50000000e-01  3.00000000e+01  0.00000000e+00  3.00000000e+01  0.00000000e+00  3.00000000e+01  0.00000000e+00  3.00000000e+01 -5.32837390e-08  3.00000000e+01  6.30515916e-09  3.00000000e+01  4.69785696e-08  3.00000000e+01  1.02453942e-14 
 1.00000000e+02  8.50000000e-01  1.00000000e+02  8.50000000e-01  1.00000000e+02  0.00000000e+00  1.00000000e+02  0.00000000e+00  1.00000000e+02  0.00000000e+00  1.00000000e+02 -2.59131543e-07  1.00000000e+02  6.30515916e-09  1.00000000e+02  2.52826373e-07  1.00000000e+02  1.13047579e-14 
 3.00000000e+01  9.00000000e-01  3.00000000e+01  9.00000000e-01  3.00000000e+01  0.00000000e+00  3.00000000e+01  0.00000000e+00  3.00000000e+01  0.00000000e+00  3.00000000e+01 -6.12260257e-08  3.00000000e+01  7.91373063e-09  3.00000000e+01  5.33122848e-08  3.00000000e+01  1.02957320e-14 
 1.00000000e+02  9.00000000e-01  1.00000000e+02  9.00000000e-01  1.00000000e+02  0.00000000e+00  1.00000000e+02  0.00000000e+00  1.00000000e+02  0.00000000e+00  1.00000000e+02 -2.87647240e-07  1.00000000e+02  7.91373063e-09  1.00000000e+02  2.79733498e-07  1.00000000e+02  1.15340964e-14 
 3.00000000e+01  9.50000000e-01  3.00000000e+01  9.50000000e-01  3.00000000e+01  0.00000000e+00  3.00000000e+01  0.00000000e+00  3.00000000e+01  0.00000000e+00  3.00000000e+01 -7.03258147e-08  3.00000000e+01  9.85222800e-09  3.00000000e+01  6.04735758e-08  3.00000000e+01  1.09025270e-14 
 1.00000000e+02  9.50000000e-01  1.00000000e+02  9.50000000e-01  1.00000000e+02  0.00000000e+00  1.00000000e+02  0.00000000e+00  1.00000000e+02  0.00000000e+00  1.00000000e+02 -3.19223361e-07  1.00000000e+02  9.85222800e-09  1.00000000e+02  3.09371120e-07  1.00000000e+02  1.31884747e-14 
 3.00000000e+01  1.00000000e+00  3.00000000e+01  1.00000000e+00  3.00000000e+01  0.00000000e+00  3.00000000e+01  0.00000000e+00  3.00000000e+01  0.00000000e+00  3.00000000e+01 -8.07444751e-08  3.00000000e+01  1.21779982e-08  3.00000000e+01  6.85664582e-08  3.00000000e+01  1.86743547e-14 
 1.00000000e+02  1.00000000e+00  1.00000000e+02  1.00000000e+00  1.00000000e+02  0.00000000e+00  1.00000000e+02  0.00000000e+00  1.00000000e+02  0.00000000e+00  1.00000000e+02 -3.54178883e-07  1.00000000e+02  1.21779982e-08  1.00000000e+02  3.42000851e-07  1.00000000e+02  3.43010467e-14 
 3.00000000e+01  1.05000000e+00  3.00000000e+01  1.05000000e+00  3.00000000e+01  0.00000000e+00  3.00000000e+01  0.00000000e+00  3.00000000e+01  0.00000000e+00  3.00000000e+01 -9.26656697e-08  3.00000000e+01  1.49573461e-08  3.00000000e+01  7.77073372e-08  3.00000000e+01  9.86316999e-13 
 1.00000000e+02  1.05000000e+00  1.00000000e+02  1.05000000e+00  1.00000000e+02  0.00000000e+00  1.00000000e+02  0.00000000e+00  1.00000000e+02  0.00000000e+00  1.00000000e+02 -3.92865838e-07  1.00000000e+02  1.49573461e-08  1.00000000e+02  3.77907417e-07  1.00000000e+02  1.07535655e-12 
 3.00000000e+01  1.10000000e+00  3.00000000e+01  1.10000000e+00  3.00000000e+01  0.00000000e+00  3.00000000e+01  0.00000000e+00  3.00000000e+01  0.00000000e+00  3.00000000e+01 -1.06342957e-07  3.00000000e+01  1.82668364e-08  3.00000000e+01  8.80264144e-08  3.00000000e+01  4.97059739e-11 
 1.00000000e+02  1.10000000e+00  1.00000000e+02  1.10000000e+00  1.00000000e+02  0.00000000e+00  1.00000000e+02  0.00000000e+00  1.00000000e+02  0.00000000e+00  1.00000000e+02 -4.35717645e-07  1.00000000e+02  1.82668364e-08  1.00000000e+02  4.17400668e-07  1.00000000e+02  5.01399820e-11 
 3.00000000e+01  1.15000000e+00  3.00000000e+01  1.15000000e+00  3.00000000e+01  0.00000000e+00  3.00000000e+01  0.00000000e+00  3.00000000e+01  0.00000000e+00  3.00000000e+01 -1.22724576e-07  3.00000000e+01  2.21947761e-08  3.00000000e+01  9.96692546e-08  3.00000000e+01  8.60545312e-10 
 1.00000000e+02  1.15000000e+00  1.00000000e+02  1.15000000e+00  1.00000000e+02  0.00000000e+00  1.00000000e+02  0.00000000e+00  1.00000000e+02  0.00000000e+00  1.00000000e+02 -4.83874984e-07  1.00000000e+02  2.21947761e-08  1.00000000e+02  4.60817814e-07  1.00000000e+02  8.62393845e-10 
 3.00000000e+01  1.20000000e+00  3.00000000e+01  1.20000000e+00  3.00000000e+01  0.00000000e+00  3.00000000e+01  0.00000000e+00  3.00000000e+01  0.00000000e+00  3.00000000e+01 -1.47088981e-07  3.00000000e+01  2.68429009e-08  3.00000000e+01  1.12798542e-07  3.00000000e+01  7.44753896e-09 
 1.00000000e+02  1.20000000e+00  1.00000000e+02  1.20000000e+00  1.00000000e+02  0.00000000e+00  1.00000000e+02  0.00000000e+00  1.00000000e+02  0.00000000e+00  1.00000000e+02 -5.42823361e-07  1.00000000e+02  2.68429009e-08  1.00000000e+02  5.08525920e-07  1.00000000e+02  7.45454017e-09 
